
SetupTitle, NEG RESET EXT-BJT [ICC-10m] TE -1.7V
PrimitiveTest, I/V Sweep
TestParameter, Context.MainFrame, B1500A
TestParameter, Channel.UnitType, SMU, SMU, SMU
TestParameter, Channel.Unit, SMU2:HR, SMU4:HR, SMU3:HR
TestParameter, Channel.IName, I_TE, I_G, I_BE
TestParameter, Channel.VName, V_TE, V_G, V_BE
TestParameter, Channel.Mode, V, V, COMMON
TestParameter, Channel.Func, VAR1, CONST, CONST
TestParameter, Channel.Index, 
TestParameter, Channel.Time, 
TestParameter, Measurement.Port.Unit, SMU2:HR, SMU4:HR, SMU3:HR
TestParameter, Measurement.Port.SeriesResistor, NONE, NONE, NONE
TestParameter, Measurement.Port.Filter, ON, ON, ON
TestParameter, Measurement.Port.OutputVoltageComparison, 0, 0, 0
TestParameter, Measurement.Primary.Locus, Double
TestParameter, Measurement.Primary.Scale, LINEAR
TestParameter, Measurement.Primary.Start, 0
TestParameter, Measurement.Primary.Stop, -1.7000000000000002
TestParameter, Measurement.Primary.Step, -0.01
TestParameter, Measurement.Primary.Compliance, 0.01
TestParameter, Measurement.Primary.PowerCompliance, 0
TestParameter, Measurement.Aborting.Condition, CONTINUE AT ANY
TestParameter, Measurement.PostOutput.Value, START
TestParameter, Measurement.PostOutput.Retention, OFF
TestParameter, Measurement.Bias.Source, 0, 0.64, 0
TestParameter, Measurement.Bias.Compliance, 0.01, 0.0001, 0.1
TestParameter, Measurement.Monitor.Unit, SMU2:HR, SMU4:HR, SMU3:HR
TestParameter, Measurement.Monitor.Adc, HR ADC, HR ADC, HR ADC
TestParameter, Measurement.Monitor.Measurement, Compliance Side, Compliance Side, Compliance Side
TestParameter, Measurement.Monitor.RangingMode, LIMITED, LIMITED, LIMITED
TestParameter, Measurement.Monitor.RangeBoundary, 1nA, 1nA, 1nA
TestParameter, Measurement.Monitor.RangeRating, BY FULL RANGE, BY FULL RANGE, BY FULL RANGE
TestParameter, Measurement.Monitor.RangeRatingCoeff, 50, 50, 50
TestParameter, Measurement.Timing.Hold, 0.01
TestParameter, Measurement.Timing.Delay, 0
TestParameter, Measurement.Adc.HighSpeed.Mode, AUTO
TestParameter, Measurement.Adc.HighSpeed.Coeff, 1
TestParameter, Measurement.Adc.HighResolution.AutoZero, OFF
TestParameter, Measurement.Adc.HighResolution.Mode, AUTO
TestParameter, Measurement.Adc.HighResolution.Coeff, 6
TestParameter, Measurement.WaitTime.Source.Coeff, 1
TestParameter, Measurement.WaitTime.Source.Offset, 0
TestParameter, Measurement.WaitTime.Monitor.Coeff, 1
TestParameter, Measurement.WaitTime.Monitor.Offset, 0
TestParameter, Function.User.Name, absI
TestParameter, Function.User.Unit, A
TestParameter, Function.User.Definition, abs(I_TE)
TestParameter, Output.Graph.Enabled, true
TestParameter, Output.Graph.AutoScaling, false
TestParameter, Output.Graph.XAxis.Data, V_TE
TestParameter, Output.Graph.XAxis.Scale, Linear
TestParameter, Output.Graph.XAxis.Left, 0
TestParameter, Output.Graph.XAxis.Right, 5
TestParameter, Output.Graph.XAxis.RunTimeAutoScale, true
TestParameter, Output.Graph.YAxis.Data, absI
TestParameter, Output.Graph.YAxis.Scale, Log
TestParameter, Output.Graph.YAxis.Bottom, 0
TestParameter, Output.Graph.YAxis.Top, 1
TestParameter, Output.Graph.YAxis.Group, 
TestParameter, Output.Graph.YAxis.RunTimeAutoScale, true
TestParameter, AutoAnalysis.Interpolation, false
TestParameter, AutoAnalysis.Var2StepCount, 1
TestParameter, AutoAnalysis.Var2StepScript, 
TestParameter, AutoAnalysis.Line1.Enabled, false
TestParameter, AutoAnalysis.Line1.Type, 1
TestParameter, AutoAnalysis.Line1.Fix, True
TestParameter, AutoAnalysis.Line1.YAxis, 0
TestParameter, AutoAnalysis.Line1.Point1.Type, 0
TestParameter, AutoAnalysis.Line1.Point1.XY.X, 
TestParameter, AutoAnalysis.Line1.Point1.XY.Y, 
TestParameter, AutoAnalysis.Line1.Point1.Data.Var, 
TestParameter, AutoAnalysis.Line1.Point1.Data.Condition, 
TestParameter, AutoAnalysis.Line1.Point1.Data.Start, false
TestParameter, AutoAnalysis.Line1.Point1.Data.StartVar, 
TestParameter, AutoAnalysis.Line1.Point1.Data.StartCondition, 
TestParameter, AutoAnalysis.Line1.Point2.Type, 0
TestParameter, AutoAnalysis.Line1.Point2.XY.X, 
TestParameter, AutoAnalysis.Line1.Point2.XY.Y, 
TestParameter, AutoAnalysis.Line1.Point2.Data.Var, 
TestParameter, AutoAnalysis.Line1.Point2.Data.Condition, 
TestParameter, AutoAnalysis.Line1.Point2.Data.Start, false
TestParameter, AutoAnalysis.Line1.Point2.Data.StartVar, 
TestParameter, AutoAnalysis.Line1.Point2.Data.StartCondition, 
TestParameter, AutoAnalysis.Line1.GradientExpr, 0
TestParameter, AutoAnalysis.Line2.Enabled, false
TestParameter, AutoAnalysis.Line2.Type, 1
TestParameter, AutoAnalysis.Line2.Fix, True
TestParameter, AutoAnalysis.Line2.YAxis, 0
TestParameter, AutoAnalysis.Line2.Point1.Type, 0
TestParameter, AutoAnalysis.Line2.Point1.XY.X, 
TestParameter, AutoAnalysis.Line2.Point1.XY.Y, 
TestParameter, AutoAnalysis.Line2.Point1.Data.Var, 
TestParameter, AutoAnalysis.Line2.Point1.Data.Condition, 
TestParameter, AutoAnalysis.Line2.Point1.Data.Start, false
TestParameter, AutoAnalysis.Line2.Point1.Data.StartVar, 
TestParameter, AutoAnalysis.Line2.Point1.Data.StartCondition, 
TestParameter, AutoAnalysis.Line2.Point2.Type, 0
TestParameter, AutoAnalysis.Line2.Point2.XY.X, 
TestParameter, AutoAnalysis.Line2.Point2.XY.Y, 
TestParameter, AutoAnalysis.Line2.Point2.Data.Var, 
TestParameter, AutoAnalysis.Line2.Point2.Data.Condition, 
TestParameter, AutoAnalysis.Line2.Point2.Data.Start, false
TestParameter, AutoAnalysis.Line2.Point2.Data.StartVar, 
TestParameter, AutoAnalysis.Line2.Point2.Data.StartCondition, 
TestParameter, AutoAnalysis.Line2.GradientExpr, 0
TestParameter, AutoAnalysis.Marker.Enabled, false
TestParameter, AutoAnalysis.Marker.Data.Var, 
TestParameter, AutoAnalysis.Marker.Data.Condition, 
TestParameter, AutoAnalysis.Marker.Data.Start, false
TestParameter, AutoAnalysis.Marker.Data.StartVar, 
TestParameter, AutoAnalysis.Marker.Data.StartCondition, 
MetaData, TestRecord.EntryPoint, true
MetaData, TestRecord.RecordTime, 04/29/2020 20:02:26
MetaData, TestRecord.TestTarget, S45-NW-D20-ExtBJT VB:0.64V
MetaData, TestRecord.IterationIndex, 9
MetaData, TestRecord.Preservation, true
MetaData, TestRecord.Flag, 
MetaData, TestRecord.Remarks, 
MetaData, TestRecord.LinkKey, 9904e7b3-1b4f-4af6-aff2-6bfed801331c
MetaData, TestRecord.Parameters, 
Dimension1, 342, 342, 342
Dimension2, 1, 1, 1
DataName, V_TE, I_TE, absI
DataValue, 0, 3.585E-09, 3.585E-09
DataValue, -0.01, -3.2778E-07, 3.2778E-07
DataValue, -0.02, -6.2685999999999994E-07, 6.2685999999999994E-07
DataValue, -0.030000000000000002, -1.10806E-06, 1.10806E-06
DataValue, -0.04, -1.1806000000000002E-06, 1.1806000000000002E-06
DataValue, -0.05, -1.4659000000000002E-06, 1.4659000000000002E-06
DataValue, -0.060000000000000005, -1.7725000000000002E-06, 1.7725000000000002E-06
DataValue, -0.07, -2.0725E-06, 2.0725E-06
DataValue, -0.08, -2.5178000000000003E-06, 2.5178000000000003E-06
DataValue, -0.090000000000000011, -2.7219E-06, 2.7219E-06
DataValue, -0.1, -2.9658000000000005E-06, 2.9658000000000005E-06
DataValue, -0.11, -3.2859E-06, 3.2859E-06
DataValue, -0.12000000000000001, -3.5921000000000003E-06, 3.5921000000000003E-06
DataValue, -0.13, -3.6242000000000004E-06, 3.6242000000000004E-06
DataValue, -0.14, -3.6784000000000002E-06, 3.6784000000000002E-06
DataValue, -0.15, -4.0576000000000008E-06, 4.0576000000000008E-06
DataValue, -0.16, -4.3197E-06, 4.3197E-06
DataValue, -0.17, -5.2557E-06, 5.2557E-06
DataValue, -0.18000000000000002, -4.9196E-06, 4.9196E-06
DataValue, -0.19, -5.1712000000000006E-06, 5.1712000000000006E-06
DataValue, -0.2, -5.591E-06, 5.591E-06
DataValue, -0.21000000000000002, -5.81E-06, 5.81E-06
DataValue, -0.22, -5.8673000000000006E-06, 5.8673000000000006E-06
DataValue, -0.23, -5.4579000000000007E-06, 5.4579000000000007E-06
DataValue, -0.24000000000000002, -6.6294000000000004E-06, 6.6294000000000004E-06
DataValue, -0.25, -7.0222E-06, 7.0222E-06
DataValue, -0.26, -6.1492E-06, 6.1492E-06
DataValue, -0.27, -7.5678000000000006E-06, 7.5678000000000006E-06
DataValue, -0.28, -7.8387E-06, 7.8387E-06
DataValue, -0.29000000000000004, -8.3806E-06, 8.3806E-06
DataValue, -0.3, -8.3893000000000011E-06, 8.3893000000000011E-06
DataValue, -0.31, -9.8624E-06, 9.8624E-06
DataValue, -0.32, -1.03584E-05, 1.03584E-05
DataValue, -0.33, -8.99E-06, 8.99E-06
DataValue, -0.34, -1.2684000000000001E-05, 1.2684000000000001E-05
DataValue, -0.35000000000000003, -5.8742000000000004E-06, 5.8742000000000004E-06
DataValue, -0.36000000000000004, -7.6502E-06, 7.6502E-06
DataValue, -0.37, -5.4714000000000007E-06, 5.4714000000000007E-06
DataValue, -0.38, -5.6781000000000007E-06, 5.6781000000000007E-06
DataValue, -0.39, -2.4319E-10, 2.4319E-10
DataValue, -0.4, -2.4188E-10, 2.4188E-10
DataValue, -0.41000000000000003, -2.9597E-10, 2.9597E-10
DataValue, -0.42000000000000004, -2.1017E-10, 2.1017E-10
DataValue, -0.43, -7.6000000000000009E-11, 7.6000000000000009E-11
DataValue, -0.44, -9.006000000000001E-11, 9.006000000000001E-11
DataValue, -0.45, -8.224E-11, 8.224E-11
DataValue, -0.46, -9.338E-11, 9.338E-11
DataValue, -0.47000000000000003, -8.9180000000000009E-11, 8.9180000000000009E-11
DataValue, -0.48000000000000004, -1.0250000000000001E-10, 1.0250000000000001E-10
DataValue, -0.49000000000000005, -8.858E-11, 8.858E-11
DataValue, -0.5, -1.0251E-10, 1.0251E-10
DataValue, -0.51, -9.352E-11, 9.352E-11
DataValue, -0.52, -2.5803000000000004E-10, 2.5803000000000004E-10
DataValue, -0.53, -5.9148E-10, 5.9148E-10
DataValue, -0.54, -5.5215E-10, 5.5215E-10
DataValue, -0.55, -5.6798E-10, 5.6798E-10
DataValue, -0.56, -3.8774000000000005E-10, 3.8774000000000005E-10
DataValue, -0.57000000000000006, -4.5007000000000003E-10, 4.5007000000000003E-10
DataValue, -0.58000000000000007, -4.0603000000000004E-10, 4.0603000000000004E-10
DataValue, -0.59000000000000008, -4.5508000000000005E-10, 4.5508000000000005E-10
DataValue, -0.6, -2.754E-10, 2.754E-10
DataValue, -0.61, -6.6106000000000009E-10, 6.6106000000000009E-10
DataValue, -0.62, -4.4338E-10, 4.4338E-10
DataValue, -0.63, -4.3245000000000004E-10, 4.3245000000000004E-10
DataValue, -0.64, -1.7593E-10, 1.7593E-10
DataValue, -0.65, -2.5914E-10, 2.5914E-10
DataValue, -0.66, -5.8183E-10, 5.8183E-10
DataValue, -0.67, -6.8990000000000007E-10, 6.8990000000000007E-10
DataValue, -0.68, -6.1234000000000008E-10, 6.1234000000000008E-10
DataValue, -0.69000000000000006, -2.8997000000000003E-10, 2.8997000000000003E-10
DataValue, -0.70000000000000007, -4.7690000000000008E-10, 4.7690000000000008E-10
DataValue, -0.71000000000000008, -4.8419000000000006E-10, 4.8419000000000006E-10
DataValue, -0.72000000000000008, -5.9256000000000007E-10, 5.9256000000000007E-10
DataValue, -0.73, -5.7837E-10, 5.7837E-10
DataValue, -0.74, -3.1599E-10, 3.1599E-10
DataValue, -0.75, -6.5999E-10, 6.5999E-10
DataValue, -0.76, -3.7581E-10, 3.7581E-10
DataValue, -0.77, -3.4865000000000003E-10, 3.4865000000000003E-10
DataValue, -0.78, -3.7850000000000004E-10, 3.7850000000000004E-10
DataValue, -0.79, -3.9415000000000003E-10, 3.9415000000000003E-10
DataValue, -0.8, -3.9241000000000004E-10, 3.9241000000000004E-10
DataValue, -0.81, -4.3956000000000003E-10, 4.3956000000000003E-10
DataValue, -0.82000000000000006, -3.1085E-10, 3.1085E-10
DataValue, -0.83000000000000007, -3.2208000000000004E-10, 3.2208000000000004E-10
DataValue, -0.84000000000000008, -3.3856E-10, 3.3856E-10
DataValue, -0.85000000000000009, -6.4030000000000005E-10, 6.4030000000000005E-10
DataValue, -0.86, -7.8061000000000006E-10, 7.8061000000000006E-10
DataValue, -0.87, -5.2403E-10, 5.2403E-10
DataValue, -0.88, -4.7611E-10, 4.7611E-10
DataValue, -0.89, -3.543E-10, 3.543E-10
DataValue, -0.9, -3.6731000000000005E-10, 3.6731000000000005E-10
DataValue, -0.91, -3.8757000000000004E-10, 3.8757000000000004E-10
DataValue, -0.92, -4.1166000000000005E-10, 4.1166000000000005E-10
DataValue, -0.93, -4.5162000000000004E-10, 4.5162000000000004E-10
DataValue, -0.94000000000000006, -4.5296000000000006E-10, 4.5296000000000006E-10
DataValue, -0.95000000000000007, -4.8556E-10, 4.8556E-10
DataValue, -0.96000000000000008, -4.9972E-10, 4.9972E-10
DataValue, -0.97000000000000008, -5.5385E-10, 5.5385E-10
DataValue, -0.98000000000000009, -9.745E-10, 9.745E-10
DataValue, -0.9900000000000001, -1.1514E-09, 1.1514E-09
DataValue, -1, -1.5252E-09, 1.5252E-09
DataValue, -1.01, -1.0554E-09, 1.0554E-09
DataValue, -1.02, -1.1787E-09, 1.1787E-09
DataValue, -1.03, -1.494E-09, 1.494E-09
DataValue, -1.04, -1.129E-09, 1.129E-09
DataValue, -1.05, -1.043E-09, 1.043E-09
DataValue, -1.06, -1.0685E-09, 1.0685E-09
DataValue, -1.07, -2.4775E-09, 2.4775E-09
DataValue, -1.08, -2.4441E-09, 2.4441E-09
DataValue, -1.09, -2.4338E-09, 2.4338E-09
DataValue, -1.1, -2.6359E-09, 2.6359E-09
DataValue, -1.11, -2.7532E-09, 2.7532E-09
DataValue, -1.12, -2.9391E-09, 2.9391E-09
DataValue, -1.1300000000000001, -1.6643E-09, 1.6643E-09
DataValue, -1.1400000000000001, -1.7426E-09, 1.7426E-09
DataValue, -1.1500000000000001, -3.1253E-09, 3.1253E-09
DataValue, -1.1600000000000001, -4.0211E-09, 4.0211E-09
DataValue, -1.1700000000000002, -3.049E-09, 3.049E-09
DataValue, -1.1800000000000002, -3.1664E-09, 3.1664E-09
DataValue, -1.19, -3.2708E-09, 3.2708E-09
DataValue, -1.2, -3.9325E-09, 3.9325E-09
DataValue, -1.21, -4.5599E-09, 4.5599E-09
DataValue, -1.22, -9.4399E-09, 9.4399E-09
DataValue, -1.23, -1.02228E-08, 1.02228E-08
DataValue, -1.24, -1.06184E-08, 1.06184E-08
DataValue, -1.25, -1.17612E-08, 1.17612E-08
DataValue, -1.26, -1.14718E-08, 1.14718E-08
DataValue, -1.27, -1.2391799999999999E-08, 1.2391799999999999E-08
DataValue, -1.28, -1.2665999999999999E-08, 1.2665999999999999E-08
DataValue, -1.29, -1.04526E-08, 1.04526E-08
DataValue, -1.3, -1.3256399999999998E-08, 1.3256399999999998E-08
DataValue, -1.31, -1.3698999999999999E-08, 1.3698999999999999E-08
DataValue, -1.32, -1.49748E-08, 1.49748E-08
DataValue, -1.33, -1.54662E-08, 1.54662E-08
DataValue, -1.34, -1.63624E-08, 1.63624E-08
DataValue, -1.35, -1.6142999999999998E-08, 1.6142999999999998E-08
DataValue, -1.36, -1.8479999999999997E-08, 1.8479999999999997E-08
DataValue, -1.37, -1.81178E-08, 1.81178E-08
DataValue, -1.3800000000000001, -1.9276799999999997E-08, 1.9276799999999997E-08
DataValue, -1.3900000000000001, -2.02604E-08, 2.02604E-08
DataValue, -1.4000000000000001, -2.1409999999999998E-08, 2.1409999999999998E-08
DataValue, -1.4100000000000001, -2.095E-08, 2.095E-08
DataValue, -1.4200000000000002, -2.18138E-08, 2.18138E-08
DataValue, -1.4300000000000002, -2.4154399999999998E-08, 2.4154399999999998E-08
DataValue, -1.4400000000000002, -3.4225E-09, 3.4225E-09
DataValue, -1.4500000000000002, -2.4559E-09, 2.4559E-09
DataValue, -1.46, -2.7328E-09, 2.7328E-09
DataValue, -1.47, -2.4836E-09, 2.4836E-09
DataValue, -1.48, -2.4971E-09, 2.4971E-09
DataValue, -1.49, -2.6351E-09, 2.6351E-09
DataValue, -1.5, -2.735E-09, 2.735E-09
DataValue, -1.51, -2.7949E-09, 2.7949E-09
DataValue, -1.52, -2.9831999999999998E-09, 2.9831999999999998E-09
DataValue, -1.53, -3.0861E-09, 3.0861E-09
DataValue, -1.54, -3.3154E-09, 3.3154E-09
DataValue, -1.55, -3.1685E-09, 3.1685E-09
DataValue, -1.56, -3.0265E-09, 3.0265E-09
DataValue, -1.57, -4.2967E-09, 4.2967E-09
DataValue, -1.58, -4.3333E-09, 4.3333E-09
DataValue, -1.59, -3.6752E-09, 3.6752E-09
DataValue, -1.6, -3.7745E-09, 3.7745E-09
DataValue, -1.61, -4.0478E-09, 4.0478E-09
DataValue, -1.62, -4.0631E-09, 4.0631E-09
DataValue, -1.6300000000000001, -4.1094E-09, 4.1094E-09
DataValue, -1.6400000000000001, -4.8553E-09, 4.8553E-09
DataValue, -1.6500000000000001, -4.7055E-09, 4.7055E-09
DataValue, -1.6600000000000001, -4.8815E-09, 4.8815E-09
DataValue, -1.6700000000000002, -5.2519E-09, 5.2519E-09
DataValue, -1.6800000000000002, -5.3221E-09, 5.3221E-09
DataValue, -1.6900000000000002, -5.7932E-09, 5.7932E-09
DataValue, -1.7000000000000002, -5.6697E-09, 5.6697E-09
DataValue, -1.7000000000000002, -5.6537E-09, 5.6537E-09
DataValue, -1.6900000000000002, -5.6799E-09, 5.6799E-09
DataValue, -1.6800000000000002, -5.0744E-09, 5.0744E-09
DataValue, -1.6700000000000002, -4.7615E-09, 4.7615E-09
DataValue, -1.6600000000000001, -4.5609E-09, 4.5609E-09
DataValue, -1.6500000000000001, -3.885E-09, 3.885E-09
DataValue, -1.6400000000000001, -3.7816E-09, 3.7816E-09
DataValue, -1.6300000000000001, -3.9205E-09, 3.9205E-09
DataValue, -1.62, -3.5704E-09, 3.5704E-09
DataValue, -1.61, -4.0589E-09, 4.0589E-09
DataValue, -1.6, -3.6328E-09, 3.6328E-09
DataValue, -1.59, -3.4577E-09, 3.4577E-09
DataValue, -1.58, -3.6371E-09, 3.6371E-09
DataValue, -1.57, -3.5161E-09, 3.5161E-09
DataValue, -1.56, -4.6215E-09, 4.6215E-09
DataValue, -1.55, -2.7808E-09, 2.7808E-09
DataValue, -1.54, -2.6568E-09, 2.6568E-09
DataValue, -1.53, -2.5909E-09, 2.5909E-09
DataValue, -1.52, -2.4446E-09, 2.4446E-09
DataValue, -1.51, -2.4074E-09, 2.4074E-09
DataValue, -1.5, -2.4049E-09, 2.4049E-09
DataValue, -1.49, -2.4003E-09, 2.4003E-09
DataValue, -1.48, -2.1963E-09, 2.1963E-09
DataValue, -1.47, -2.064E-09, 2.064E-09
DataValue, -1.46, -1.9979E-09, 1.9979E-09
DataValue, -1.4500000000000002, -1.9232E-09, 1.9232E-09
DataValue, -1.4400000000000002, -1.7424E-09, 1.7424E-09
DataValue, -1.4300000000000002, -1.6799E-09, 1.6799E-09
DataValue, -1.4200000000000002, -1.5882E-09, 1.5882E-09
DataValue, -1.4100000000000001, -1.5347E-09, 1.5347E-09
DataValue, -1.4000000000000001, -1.4639E-09, 1.4639E-09
DataValue, -1.3900000000000001, -1.6046E-09, 1.6046E-09
DataValue, -1.3800000000000001, -1.5102E-09, 1.5102E-09
DataValue, -1.37, -1.5946E-09, 1.5946E-09
DataValue, -1.36, -1.5367E-09, 1.5367E-09
DataValue, -1.35, -2.1376E-09, 2.1376E-09
DataValue, -1.34, -1.9596E-09, 1.9596E-09
DataValue, -1.33, -1.9892E-09, 1.9892E-09
DataValue, -1.32, -1.9135E-09, 1.9135E-09
DataValue, -1.31, -2.0009E-09, 2.0009E-09
DataValue, -1.3, -1.8818E-09, 1.8818E-09
DataValue, -1.29, -1.9296E-09, 1.9296E-09
DataValue, -1.28, -1.7737E-09, 1.7737E-09
DataValue, -1.27, -1.7713E-09, 1.7713E-09
DataValue, -1.26, -1.6882E-09, 1.6882E-09
DataValue, -1.25, -1.698E-09, 1.698E-09
DataValue, -1.24, -1.6363E-09, 1.6363E-09
DataValue, -1.23, -9.579E-10, 9.579E-10
DataValue, -1.22, -8.5118000000000005E-10, 8.5118000000000005E-10
DataValue, -1.21, -8.0304000000000005E-10, 8.0304000000000005E-10
DataValue, -1.2, -7.8386E-10, 7.8386E-10
DataValue, -1.19, -7.3807E-10, 7.3807E-10
DataValue, -1.1800000000000002, -6.8546E-10, 6.8546E-10
DataValue, -1.1700000000000002, -6.5379000000000008E-10, 6.5379000000000008E-10
DataValue, -1.1600000000000001, -6.4007E-10, 6.4007E-10
DataValue, -1.1500000000000001, -6.462E-10, 6.462E-10
DataValue, -1.1400000000000001, -5.5865E-10, 5.5865E-10
DataValue, -1.1300000000000001, -5.2215E-10, 5.2215E-10
DataValue, -1.12, -4.9012000000000006E-10, 4.9012000000000006E-10
DataValue, -1.11, -5.0933E-10, 5.0933E-10
DataValue, -1.1, -4.9680000000000008E-10, 4.9680000000000008E-10
DataValue, -1.09, -4.756E-10, 4.756E-10
DataValue, -1.08, -4.3896000000000005E-10, 4.3896000000000005E-10
DataValue, -1.07, -4.1322000000000005E-10, 4.1322000000000005E-10
DataValue, -1.06, -4.1479E-10, 4.1479E-10
DataValue, -1.05, -4.0032E-10, 4.0032E-10
DataValue, -1.04, -3.7791000000000004E-10, 3.7791000000000004E-10
DataValue, -1.03, -3.6592E-10, 3.6592E-10
DataValue, -1.02, -3.4376E-10, 3.4376E-10
DataValue, -1.01, -3.4354000000000004E-10, 3.4354000000000004E-10
DataValue, -1, -3.2744E-10, 3.2744E-10
DataValue, -0.9900000000000001, -3.1581E-10, 3.1581E-10
DataValue, -0.98000000000000009, -3.1577000000000004E-10, 3.1577000000000004E-10
DataValue, -0.97000000000000008, -3.7058000000000003E-10, 3.7058000000000003E-10
DataValue, -0.96000000000000008, -3.3829000000000003E-10, 3.3829000000000003E-10
DataValue, -0.95000000000000007, -2.7423000000000004E-10, 2.7423000000000004E-10
DataValue, -0.94000000000000006, -2.6347E-10, 2.6347E-10
DataValue, -0.93, -2.4784E-10, 2.4784E-10
