
SetupTitle, NEG RESET EXT-BJT [ICC-10m] TE -1.7V
PrimitiveTest, I/V Sweep
TestParameter, Context.MainFrame, B1500A
TestParameter, Channel.UnitType, SMU, SMU, SMU
TestParameter, Channel.Unit, SMU2:HR, SMU4:HR, SMU3:HR
TestParameter, Channel.IName, I_TE, I_G, I_BE
TestParameter, Channel.VName, V_TE, V_G, V_BE
TestParameter, Channel.Mode, V, V, COMMON
TestParameter, Channel.Func, VAR1, CONST, CONST
TestParameter, Channel.Index, 
TestParameter, Channel.Time, 
TestParameter, Measurement.Port.Unit, SMU2:HR, SMU4:HR, SMU3:HR
TestParameter, Measurement.Port.SeriesResistor, NONE, NONE, NONE
TestParameter, Measurement.Port.Filter, ON, ON, ON
TestParameter, Measurement.Port.OutputVoltageComparison, 0, 0, 0
TestParameter, Measurement.Primary.Locus, Double
TestParameter, Measurement.Primary.Scale, LINEAR
TestParameter, Measurement.Primary.Start, 0
TestParameter, Measurement.Primary.Stop, -1.7000000000000002
TestParameter, Measurement.Primary.Step, -0.01
TestParameter, Measurement.Primary.Compliance, 0.01
TestParameter, Measurement.Primary.PowerCompliance, 0
TestParameter, Measurement.Aborting.Condition, CONTINUE AT ANY
TestParameter, Measurement.PostOutput.Value, START
TestParameter, Measurement.PostOutput.Retention, OFF
TestParameter, Measurement.Bias.Source, 0, 0.64, 0
TestParameter, Measurement.Bias.Compliance, 0.01, 0.0001, 0.1
TestParameter, Measurement.Monitor.Unit, SMU2:HR, SMU4:HR, SMU3:HR
TestParameter, Measurement.Monitor.Adc, HR ADC, HR ADC, HR ADC
TestParameter, Measurement.Monitor.Measurement, Compliance Side, Compliance Side, Compliance Side
TestParameter, Measurement.Monitor.RangingMode, LIMITED, LIMITED, LIMITED
TestParameter, Measurement.Monitor.RangeBoundary, 1nA, 1nA, 1nA
TestParameter, Measurement.Monitor.RangeRating, BY FULL RANGE, BY FULL RANGE, BY FULL RANGE
TestParameter, Measurement.Monitor.RangeRatingCoeff, 50, 50, 50
TestParameter, Measurement.Timing.Hold, 0.01
TestParameter, Measurement.Timing.Delay, 0
TestParameter, Measurement.Adc.HighSpeed.Mode, AUTO
TestParameter, Measurement.Adc.HighSpeed.Coeff, 1
TestParameter, Measurement.Adc.HighResolution.AutoZero, OFF
TestParameter, Measurement.Adc.HighResolution.Mode, AUTO
TestParameter, Measurement.Adc.HighResolution.Coeff, 6
TestParameter, Measurement.WaitTime.Source.Coeff, 1
TestParameter, Measurement.WaitTime.Source.Offset, 0
TestParameter, Measurement.WaitTime.Monitor.Coeff, 1
TestParameter, Measurement.WaitTime.Monitor.Offset, 0
TestParameter, Function.User.Name, absI
TestParameter, Function.User.Unit, A
TestParameter, Function.User.Definition, abs(I_TE)
TestParameter, Output.Graph.Enabled, true
TestParameter, Output.Graph.AutoScaling, false
TestParameter, Output.Graph.XAxis.Data, V_TE
TestParameter, Output.Graph.XAxis.Scale, Linear
TestParameter, Output.Graph.XAxis.Left, 0
TestParameter, Output.Graph.XAxis.Right, 5
TestParameter, Output.Graph.XAxis.RunTimeAutoScale, true
TestParameter, Output.Graph.YAxis.Data, absI
TestParameter, Output.Graph.YAxis.Scale, Log
TestParameter, Output.Graph.YAxis.Bottom, 0
TestParameter, Output.Graph.YAxis.Top, 1
TestParameter, Output.Graph.YAxis.Group, 
TestParameter, Output.Graph.YAxis.RunTimeAutoScale, true
TestParameter, AutoAnalysis.Interpolation, false
TestParameter, AutoAnalysis.Var2StepCount, 1
TestParameter, AutoAnalysis.Var2StepScript, 
TestParameter, AutoAnalysis.Line1.Enabled, false
TestParameter, AutoAnalysis.Line1.Type, 1
TestParameter, AutoAnalysis.Line1.Fix, True
TestParameter, AutoAnalysis.Line1.YAxis, 0
TestParameter, AutoAnalysis.Line1.Point1.Type, 0
TestParameter, AutoAnalysis.Line1.Point1.XY.X, 
TestParameter, AutoAnalysis.Line1.Point1.XY.Y, 
TestParameter, AutoAnalysis.Line1.Point1.Data.Var, 
TestParameter, AutoAnalysis.Line1.Point1.Data.Condition, 
TestParameter, AutoAnalysis.Line1.Point1.Data.Start, false
TestParameter, AutoAnalysis.Line1.Point1.Data.StartVar, 
TestParameter, AutoAnalysis.Line1.Point1.Data.StartCondition, 
TestParameter, AutoAnalysis.Line1.Point2.Type, 0
TestParameter, AutoAnalysis.Line1.Point2.XY.X, 
TestParameter, AutoAnalysis.Line1.Point2.XY.Y, 
TestParameter, AutoAnalysis.Line1.Point2.Data.Var, 
TestParameter, AutoAnalysis.Line1.Point2.Data.Condition, 
TestParameter, AutoAnalysis.Line1.Point2.Data.Start, false
TestParameter, AutoAnalysis.Line1.Point2.Data.StartVar, 
TestParameter, AutoAnalysis.Line1.Point2.Data.StartCondition, 
TestParameter, AutoAnalysis.Line1.GradientExpr, 0
TestParameter, AutoAnalysis.Line2.Enabled, false
TestParameter, AutoAnalysis.Line2.Type, 1
TestParameter, AutoAnalysis.Line2.Fix, True
TestParameter, AutoAnalysis.Line2.YAxis, 0
TestParameter, AutoAnalysis.Line2.Point1.Type, 0
TestParameter, AutoAnalysis.Line2.Point1.XY.X, 
TestParameter, AutoAnalysis.Line2.Point1.XY.Y, 
TestParameter, AutoAnalysis.Line2.Point1.Data.Var, 
TestParameter, AutoAnalysis.Line2.Point1.Data.Condition, 
TestParameter, AutoAnalysis.Line2.Point1.Data.Start, false
TestParameter, AutoAnalysis.Line2.Point1.Data.StartVar, 
TestParameter, AutoAnalysis.Line2.Point1.Data.StartCondition, 
TestParameter, AutoAnalysis.Line2.Point2.Type, 0
TestParameter, AutoAnalysis.Line2.Point2.XY.X, 
TestParameter, AutoAnalysis.Line2.Point2.XY.Y, 
TestParameter, AutoAnalysis.Line2.Point2.Data.Var, 
TestParameter, AutoAnalysis.Line2.Point2.Data.Condition, 
TestParameter, AutoAnalysis.Line2.Point2.Data.Start, false
TestParameter, AutoAnalysis.Line2.Point2.Data.StartVar, 
TestParameter, AutoAnalysis.Line2.Point2.Data.StartCondition, 
TestParameter, AutoAnalysis.Line2.GradientExpr, 0
TestParameter, AutoAnalysis.Marker.Enabled, false
TestParameter, AutoAnalysis.Marker.Data.Var, 
TestParameter, AutoAnalysis.Marker.Data.Condition, 
TestParameter, AutoAnalysis.Marker.Data.Start, false
TestParameter, AutoAnalysis.Marker.Data.StartVar, 
TestParameter, AutoAnalysis.Marker.Data.StartCondition, 
MetaData, TestRecord.EntryPoint, true
MetaData, TestRecord.RecordTime, 04/29/2020 20:01:39
MetaData, TestRecord.TestTarget, S45-NW-D20-ExtBJT VB:0.64V
MetaData, TestRecord.IterationIndex, 6
MetaData, TestRecord.Preservation, true
MetaData, TestRecord.Flag, 
MetaData, TestRecord.Remarks, 
MetaData, TestRecord.LinkKey, b4757f0d-176d-473b-9217-3cd18265304b
MetaData, TestRecord.Parameters, 
Dimension1, 342, 342, 342
Dimension2, 1, 1, 1
DataName, V_TE, I_TE, absI
DataValue, 0, 2.4884E-09, 2.4884E-09
DataValue, -0.01, -1.5992E-07, 1.5992E-07
DataValue, -0.02, -3.204E-07, 3.204E-07
DataValue, -0.030000000000000002, -4.6478E-07, 4.6478E-07
DataValue, -0.04, -6.6314E-07, 6.6314E-07
DataValue, -0.05, -8.0576E-07, 8.0576E-07
DataValue, -0.060000000000000005, -9.7478E-07, 9.7478E-07
DataValue, -0.07, -1.14926E-06, 1.14926E-06
DataValue, -0.08, -1.2931000000000002E-06, 1.2931000000000002E-06
DataValue, -0.090000000000000011, -1.4478000000000001E-06, 1.4478000000000001E-06
DataValue, -0.1, -1.6229000000000002E-06, 1.6229000000000002E-06
DataValue, -0.11, -1.7530000000000002E-06, 1.7530000000000002E-06
DataValue, -0.12000000000000001, -2.0067E-06, 2.0067E-06
DataValue, -0.13, -2.2425E-06, 2.2425E-06
DataValue, -0.14, -2.4043000000000004E-06, 2.4043000000000004E-06
DataValue, -0.15, -2.2543E-06, 2.2543E-06
DataValue, -0.16, -2.8635E-06, 2.8635E-06
DataValue, -0.17, -2.1873999999999999E-07, 2.1873999999999999E-07
DataValue, -0.18000000000000002, -1.177E-07, 1.177E-07
DataValue, -0.19, -1.03E-07, 1.03E-07
DataValue, -0.2, -1.201E-07, 1.201E-07
DataValue, -0.21000000000000002, -7.618E-08, 7.618E-08
DataValue, -0.22, -7.242599999999999E-08, 7.242599999999999E-08
DataValue, -0.23, -7.0047999999999993E-08, 7.0047999999999993E-08
DataValue, -0.24000000000000002, -5.3222199999999996E-08, 5.3222199999999996E-08
DataValue, -0.25, -5.06284E-08, 5.06284E-08
DataValue, -0.26, -5.22214E-08, 5.22214E-08
DataValue, -0.27, -6.46336E-08, 6.46336E-08
DataValue, -0.28, -6.8539199999999987E-08, 6.8539199999999987E-08
DataValue, -0.29000000000000004, -6.262E-08, 6.262E-08
DataValue, -0.3, -7.200599999999999E-08, 7.200599999999999E-08
DataValue, -0.31, -2.5058E-07, 2.5058E-07
DataValue, -0.32, -1.0133999999999999E-07, 1.0133999999999999E-07
DataValue, -0.33, -1.0628E-07, 1.0628E-07
DataValue, -0.34, -1.0776E-07, 1.0776E-07
DataValue, -0.35000000000000003, -2.6412E-07, 2.6412E-07
DataValue, -0.36000000000000004, -4.0216E-07, 4.0216E-07
DataValue, -0.37, -2.3734E-07, 2.3734E-07
DataValue, -0.38, -3.0682E-07, 3.0682E-07
DataValue, -0.39, -8.47E-08, 8.47E-08
DataValue, -0.4, -2.967E-07, 2.967E-07
DataValue, -0.41000000000000003, -3.154E-07, 3.154E-07
DataValue, -0.42000000000000004, -1.057E-07, 1.057E-07
DataValue, -0.43, -1.0158E-07, 1.0158E-07
DataValue, -0.44, -3.7362E-07, 3.7362E-07
DataValue, -0.45, -3.7236E-07, 3.7236E-07
DataValue, -0.46, -2.134E-07, 2.134E-07
DataValue, -0.47000000000000003, -2.0999999999999998E-09, 2.0999999999999998E-09
DataValue, -0.48000000000000004, -1.3242000000000002E-10, 1.3242000000000002E-10
DataValue, -0.49000000000000005, -1.4326E-10, 1.4326E-10
DataValue, -0.5, -1.8169000000000002E-10, 1.8169000000000002E-10
DataValue, -0.51, -1.5621000000000002E-10, 1.5621000000000002E-10
DataValue, -0.52, -1.4539E-10, 1.4539E-10
DataValue, -0.53, -2.1603000000000003E-10, 2.1603000000000003E-10
DataValue, -0.54, -2.1389000000000002E-10, 2.1389000000000002E-10
DataValue, -0.55, -1.5376000000000002E-10, 1.5376000000000002E-10
DataValue, -0.56, -1.4143000000000002E-10, 1.4143000000000002E-10
DataValue, -0.57000000000000006, -1.5321E-10, 1.5321E-10
DataValue, -0.58000000000000007, -1.7126E-10, 1.7126E-10
DataValue, -0.59000000000000008, -1.3157000000000002E-10, 1.3157000000000002E-10
DataValue, -0.6, -1.8994000000000002E-10, 1.8994000000000002E-10
DataValue, -0.61, -1.6853E-10, 1.6853E-10
DataValue, -0.62, -1.4591000000000002E-10, 1.4591000000000002E-10
DataValue, -0.63, -1.6881E-10, 1.6881E-10
DataValue, -0.64, -1.5852E-10, 1.5852E-10
DataValue, -0.65, -1.5645E-10, 1.5645E-10
DataValue, -0.66, -1.4736000000000002E-10, 1.4736000000000002E-10
DataValue, -0.67, -1.1265000000000001E-10, 1.1265000000000001E-10
DataValue, -0.68, -1.2105E-10, 1.2105E-10
DataValue, -0.69000000000000006, -1.1384E-10, 1.1384E-10
DataValue, -0.70000000000000007, -1.2628E-10, 1.2628E-10
DataValue, -0.71000000000000008, -1.2787000000000002E-10, 1.2787000000000002E-10
DataValue, -0.72000000000000008, -1.3514E-10, 1.3514E-10
DataValue, -0.73, -1.3674E-10, 1.3674E-10
DataValue, -0.74, -1.5055E-10, 1.5055E-10
DataValue, -0.75, -1.5373000000000002E-10, 1.5373000000000002E-10
DataValue, -0.76, -1.7491000000000002E-10, 1.7491000000000002E-10
DataValue, -0.77, -1.8059000000000002E-10, 1.8059000000000002E-10
DataValue, -0.78, -1.6284E-10, 1.6284E-10
DataValue, -0.79, -1.7219E-10, 1.7219E-10
DataValue, -0.8, -1.6713000000000002E-10, 1.6713000000000002E-10
DataValue, -0.81, -1.8621000000000002E-10, 1.8621000000000002E-10
DataValue, -0.82000000000000006, -1.9042000000000003E-10, 1.9042000000000003E-10
DataValue, -0.83000000000000007, -1.9981E-10, 1.9981E-10
DataValue, -0.84000000000000008, -2.0873E-10, 2.0873E-10
DataValue, -0.85000000000000009, -2.2347E-10, 2.2347E-10
DataValue, -0.86, -2.3424E-10, 2.3424E-10
DataValue, -0.87, -2.4704E-10, 2.4704E-10
DataValue, -0.88, -2.6796E-10, 2.6796E-10
DataValue, -0.89, -2.7491000000000004E-10, 2.7491000000000004E-10
DataValue, -0.9, -2.9273000000000003E-10, 2.9273000000000003E-10
DataValue, -0.91, -2.505E-10, 2.505E-10
DataValue, -0.92, -2.2059E-10, 2.2059E-10
DataValue, -0.93, -2.3436E-10, 2.3436E-10
DataValue, -0.94000000000000006, -2.4790000000000004E-10, 2.4790000000000004E-10
DataValue, -0.95000000000000007, -2.3958E-10, 2.3958E-10
DataValue, -0.96000000000000008, -2.5316000000000003E-10, 2.5316000000000003E-10
DataValue, -0.97000000000000008, -2.8292000000000004E-10, 2.8292000000000004E-10
DataValue, -0.98000000000000009, -2.6942000000000004E-10, 2.6942000000000004E-10
DataValue, -0.9900000000000001, -2.8531E-10, 2.8531E-10
DataValue, -1, -2.7247000000000004E-10, 2.7247000000000004E-10
DataValue, -1.01, -3.1341E-10, 3.1341E-10
DataValue, -1.02, -2.916E-10, 2.916E-10
DataValue, -1.03, -3.0492E-10, 3.0492E-10
DataValue, -1.04, -3.3344000000000004E-10, 3.3344000000000004E-10
DataValue, -1.05, -3.5950000000000005E-10, 3.5950000000000005E-10
DataValue, -1.06, -3.9526000000000004E-10, 3.9526000000000004E-10
DataValue, -1.07, -3.9261000000000005E-10, 3.9261000000000005E-10
DataValue, -1.08, -4.2676000000000003E-10, 4.2676000000000003E-10
DataValue, -1.09, -4.3520000000000006E-10, 4.3520000000000006E-10
DataValue, -1.1, -4.6163000000000004E-10, 4.6163000000000004E-10
DataValue, -1.11, -4.756E-10, 4.756E-10
DataValue, -1.12, -5.0881E-10, 5.0881E-10
DataValue, -1.1300000000000001, -5.0890000000000007E-10, 5.0890000000000007E-10
DataValue, -1.1400000000000001, -5.351E-10, 5.351E-10
DataValue, -1.1500000000000001, -5.9529E-10, 5.9529E-10
DataValue, -1.1600000000000001, -6.3265000000000008E-10, 6.3265000000000008E-10
DataValue, -1.1700000000000002, -6.2633E-10, 6.2633E-10
DataValue, -1.1800000000000002, -6.8513000000000009E-10, 6.8513000000000009E-10
DataValue, -1.19, -7.1834E-10, 7.1834E-10
DataValue, -1.2, -6.6381E-10, 6.6381E-10
DataValue, -1.21, -7.0175000000000008E-10, 7.0175000000000008E-10
DataValue, -1.22, -6.9592E-10, 6.9592E-10
DataValue, -1.23, -7.3874000000000008E-10, 7.3874000000000008E-10
DataValue, -1.24, -7.3170000000000007E-10, 7.3170000000000007E-10
DataValue, -1.25, -9.5466E-10, 9.5466E-10
DataValue, -1.26, -9.4804000000000017E-10, 9.4804000000000017E-10
DataValue, -1.27, -9.6587E-10, 9.6587E-10
DataValue, -1.28, -1.0414E-09, 1.0414E-09
DataValue, -1.29, -1.213E-09, 1.213E-09
DataValue, -1.3, -1.0861E-09, 1.0861E-09
DataValue, -1.31, -1.2032E-09, 1.2032E-09
DataValue, -1.32, -1.2188E-09, 1.2188E-09
DataValue, -1.33, -1.3712E-09, 1.3712E-09
DataValue, -1.34, -1.5339E-09, 1.5339E-09
DataValue, -1.35, -1.3901E-09, 1.3901E-09
DataValue, -1.36, -1.5354E-09, 1.5354E-09
DataValue, -1.37, -1.6604E-09, 1.6604E-09
DataValue, -1.3800000000000001, -1.7016E-09, 1.7016E-09
DataValue, -1.3900000000000001, -1.6489E-09, 1.6489E-09
DataValue, -1.4000000000000001, -1.8182E-09, 1.8182E-09
DataValue, -1.4100000000000001, -1.6992E-09, 1.6992E-09
DataValue, -1.4200000000000002, -1.9255E-09, 1.9255E-09
DataValue, -1.4300000000000002, -2.0165E-09, 2.0165E-09
DataValue, -1.4400000000000002, -2.1722E-09, 2.1722E-09
DataValue, -1.4500000000000002, -2.3875E-09, 2.3875E-09
DataValue, -1.46, -2.4024E-09, 2.4024E-09
DataValue, -1.47, -2.8286E-09, 2.8286E-09
DataValue, -1.48, -3.0475E-09, 3.0475E-09
DataValue, -1.49, -2.7126E-09, 2.7126E-09
DataValue, -1.5, -2.8383E-09, 2.8383E-09
DataValue, -1.51, -2.6484E-09, 2.6484E-09
DataValue, -1.52, -2.5526E-09, 2.5526E-09
DataValue, -1.53, -2.1181E-09, 2.1181E-09
DataValue, -1.54, -2.8818E-09, 2.8818E-09
DataValue, -1.55, -3.1535E-09, 3.1535E-09
DataValue, -1.56, -3.2049E-09, 3.2049E-09
DataValue, -1.57, -3.3788E-09, 3.3788E-09
DataValue, -1.58, -4.1002E-09, 4.1002E-09
DataValue, -1.59, -3.3612E-09, 3.3612E-09
DataValue, -1.6, -4.025E-09, 4.025E-09
DataValue, -1.61, -4.0567E-09, 4.0567E-09
DataValue, -1.62, -4.5108E-09, 4.5108E-09
DataValue, -1.6300000000000001, -3.4712E-09, 3.4712E-09
DataValue, -1.6400000000000001, -4.1484E-09, 4.1484E-09
DataValue, -1.6500000000000001, -4.6033E-09, 4.6033E-09
DataValue, -1.6600000000000001, -4.545E-09, 4.545E-09
DataValue, -1.6700000000000002, -4.1157E-09, 4.1157E-09
DataValue, -1.6800000000000002, -4.336E-09, 4.336E-09
DataValue, -1.6900000000000002, -4.5207E-09, 4.5207E-09
DataValue, -1.7000000000000002, -4.7667E-09, 4.7667E-09
DataValue, -1.7000000000000002, -4.6278E-09, 4.6278E-09
DataValue, -1.6900000000000002, -4.4908E-09, 4.4908E-09
DataValue, -1.6800000000000002, -4.5534E-09, 4.5534E-09
DataValue, -1.6700000000000002, -5.029E-09, 5.029E-09
DataValue, -1.6600000000000001, -4.3587E-09, 4.3587E-09
DataValue, -1.6500000000000001, -4.2153E-09, 4.2153E-09
DataValue, -1.6400000000000001, -3.6809E-09, 3.6809E-09
DataValue, -1.6300000000000001, -3.6693E-09, 3.6693E-09
DataValue, -1.62, -4.0058E-09, 4.0058E-09
DataValue, -1.61, -3.3152E-09, 3.3152E-09
DataValue, -1.6, -3.151E-09, 3.151E-09
DataValue, -1.59, -2.9989E-09, 2.9989E-09
DataValue, -1.58, -2.9237E-09, 2.9237E-09
DataValue, -1.57, -2.7128E-09, 2.7128E-09
DataValue, -1.56, -2.6384E-09, 2.6384E-09
DataValue, -1.55, -2.4875E-09, 2.4875E-09
DataValue, -1.54, -2.321E-09, 2.321E-09
DataValue, -1.53, -2.3992E-09, 2.3992E-09
DataValue, -1.52, -2.2693E-09, 2.2693E-09
DataValue, -1.51, -2.1114E-09, 2.1114E-09
DataValue, -1.5, -1.9045E-09, 1.9045E-09
DataValue, -1.49, -1.842E-09, 1.842E-09
DataValue, -1.48, -1.747E-09, 1.747E-09
DataValue, -1.47, -1.7609E-09, 1.7609E-09
DataValue, -1.46, -1.6374E-09, 1.6374E-09
DataValue, -1.4500000000000002, -1.6226E-09, 1.6226E-09
DataValue, -1.4400000000000002, -1.565E-09, 1.565E-09
DataValue, -1.4300000000000002, -1.5187E-09, 1.5187E-09
DataValue, -1.4200000000000002, -1.38E-09, 1.38E-09
DataValue, -1.4100000000000001, -1.2998E-09, 1.2998E-09
DataValue, -1.4000000000000001, -1.2649E-09, 1.2649E-09
DataValue, -1.3900000000000001, -1.1679E-09, 1.1679E-09
DataValue, -1.3800000000000001, -1.1826E-09, 1.1826E-09
DataValue, -1.37, -1.1063E-09, 1.1063E-09
DataValue, -1.36, -1.0596E-09, 1.0596E-09
DataValue, -1.35, -9.943E-10, 9.943E-10
DataValue, -1.34, -9.6367E-10, 9.6367E-10
DataValue, -1.33, -9.4783E-10, 9.4783E-10
DataValue, -1.32, -9.4969E-10, 9.4969E-10
DataValue, -1.31, -9.0688000000000008E-10, 9.0688000000000008E-10
DataValue, -1.3, -8.3991E-10, 8.3991E-10
DataValue, -1.29, -8.3911000000000011E-10, 8.3911000000000011E-10
DataValue, -1.28, -8.1168E-10, 8.1168E-10
DataValue, -1.27, -7.6858E-10, 7.6858E-10
DataValue, -1.26, -6.9257E-10, 6.9257E-10
DataValue, -1.25, -7.1046E-10, 7.1046E-10
DataValue, -1.24, -7.0064000000000007E-10, 7.0064000000000007E-10
DataValue, -1.23, -7.9001E-10, 7.9001E-10
DataValue, -1.22, -7.298600000000001E-10, 7.298600000000001E-10
DataValue, -1.21, -7.5542000000000007E-10, 7.5542000000000007E-10
DataValue, -1.2, -7.2761E-10, 7.2761E-10
DataValue, -1.19, -6.9979E-10, 6.9979E-10
DataValue, -1.1800000000000002, -6.6371000000000008E-10, 6.6371000000000008E-10
DataValue, -1.1700000000000002, -6.4816000000000007E-10, 6.4816000000000007E-10
DataValue, -1.1600000000000001, -5.8601E-10, 5.8601E-10
DataValue, -1.1500000000000001, -5.6582E-10, 5.6582E-10
DataValue, -1.1400000000000001, -5.5018000000000006E-10, 5.5018000000000006E-10
DataValue, -1.1300000000000001, -5.6291000000000008E-10, 5.6291000000000008E-10
DataValue, -1.12, -4.7974E-10, 4.7974E-10
DataValue, -1.11, -4.8359000000000008E-10, 4.8359000000000008E-10
DataValue, -1.1, -4.4918000000000005E-10, 4.4918000000000005E-10
DataValue, -1.09, -4.1675000000000003E-10, 4.1675000000000003E-10
DataValue, -1.08, -4.0208E-10, 4.0208E-10
DataValue, -1.07, -3.8682E-10, 3.8682E-10
DataValue, -1.06, -3.747E-10, 3.747E-10
DataValue, -1.05, -3.3113E-10, 3.3113E-10
DataValue, -1.04, -3.1663E-10, 3.1663E-10
DataValue, -1.03, -2.9163E-10, 2.9163E-10
DataValue, -1.02, -2.7790000000000004E-10, 2.7790000000000004E-10
DataValue, -1.01, -2.7087E-10, 2.7087E-10
DataValue, -1, -2.4578E-10, 2.4578E-10
DataValue, -0.9900000000000001, -1.9014E-10, 1.9014E-10
DataValue, -0.98000000000000009, -1.8395000000000002E-10, 1.8395000000000002E-10
DataValue, -0.97000000000000008, -1.6911000000000002E-10, 1.6911000000000002E-10
DataValue, -0.96000000000000008, -1.6399000000000002E-10, 1.6399000000000002E-10
DataValue, -0.95000000000000007, -1.5819000000000002E-10, 1.5819000000000002E-10
DataValue, -0.94000000000000006, -1.5039E-10, 1.5039E-10
DataValue, -0.93, -1.4195E-10, 1.4195E-10
DataValue, -0.92, -1.3955E-10, 1.3955E-10
DataValue, -0.91, -1.2472E-10, 1.2472E-10
