
SetupTitle, POS SET EXT-BJT [B-0.64V ICC-1m] TE 1.2 V
PrimitiveTest, I/V Sweep
TestParameter, Context.MainFrame, B1500A
TestParameter, Channel.UnitType, SMU, SMU, SMU
TestParameter, Channel.Unit, SMU2:HR, SMU4:HR, SMU3:HR
TestParameter, Channel.IName, I_TE, I_G, I_BE
TestParameter, Channel.VName, V_TE, V_G, V_BE
TestParameter, Channel.Mode, V, V, COMMON
TestParameter, Channel.Func, VAR1, CONST, CONST
TestParameter, Channel.Index, 
TestParameter, Channel.Time, 
TestParameter, Measurement.Port.Unit, SMU2:HR, SMU4:HR, SMU3:HR
TestParameter, Measurement.Port.SeriesResistor, NONE, NONE, NONE
TestParameter, Measurement.Port.Filter, ON, ON, ON
TestParameter, Measurement.Port.OutputVoltageComparison, 0, 0, 0
TestParameter, Measurement.Primary.Locus, Double
TestParameter, Measurement.Primary.Scale, LINEAR
TestParameter, Measurement.Primary.Start, 0
TestParameter, Measurement.Primary.Stop, 1.2
TestParameter, Measurement.Primary.Step, 0.01
TestParameter, Measurement.Primary.Compliance, 0.001
TestParameter, Measurement.Primary.PowerCompliance, 0
TestParameter, Measurement.Aborting.Condition, CONTINUE AT ANY
TestParameter, Measurement.PostOutput.Value, START
TestParameter, Measurement.PostOutput.Retention, OFF
TestParameter, Measurement.Bias.Source, 0, 0.64, 0
TestParameter, Measurement.Bias.Compliance, 0.001, 0.0001, 0.1
TestParameter, Measurement.Monitor.Unit, SMU2:HR, SMU4:HR, SMU3:HR
TestParameter, Measurement.Monitor.Adc, HR ADC, HR ADC, HR ADC
TestParameter, Measurement.Monitor.Measurement, Compliance Side, Compliance Side, Compliance Side
TestParameter, Measurement.Monitor.RangingMode, LIMITED, LIMITED, LIMITED
TestParameter, Measurement.Monitor.RangeBoundary, 1nA, 1nA, 1nA
TestParameter, Measurement.Monitor.RangeRating, BY FULL RANGE, BY FULL RANGE, BY FULL RANGE
TestParameter, Measurement.Monitor.RangeRatingCoeff, 50, 50, 50
TestParameter, Measurement.Timing.Hold, 0.01
TestParameter, Measurement.Timing.Delay, 0
TestParameter, Measurement.Adc.HighSpeed.Mode, AUTO
TestParameter, Measurement.Adc.HighSpeed.Coeff, 1
TestParameter, Measurement.Adc.HighResolution.AutoZero, OFF
TestParameter, Measurement.Adc.HighResolution.Mode, AUTO
TestParameter, Measurement.Adc.HighResolution.Coeff, 6
TestParameter, Measurement.WaitTime.Source.Coeff, 1
TestParameter, Measurement.WaitTime.Source.Offset, 0
TestParameter, Measurement.WaitTime.Monitor.Coeff, 1
TestParameter, Measurement.WaitTime.Monitor.Offset, 0
TestParameter, Function.User.Name, absI
TestParameter, Function.User.Unit, A
TestParameter, Function.User.Definition, abs(I_TE)
TestParameter, Output.Graph.Enabled, true
TestParameter, Output.Graph.AutoScaling, false
TestParameter, Output.Graph.XAxis.Data, V_TE
TestParameter, Output.Graph.XAxis.Scale, Linear
TestParameter, Output.Graph.XAxis.Left, 0
TestParameter, Output.Graph.XAxis.Right, 5
TestParameter, Output.Graph.XAxis.RunTimeAutoScale, true
TestParameter, Output.Graph.YAxis.Data, absI
TestParameter, Output.Graph.YAxis.Scale, Log
TestParameter, Output.Graph.YAxis.Bottom, 0
TestParameter, Output.Graph.YAxis.Top, 1
TestParameter, Output.Graph.YAxis.Group, 
TestParameter, Output.Graph.YAxis.RunTimeAutoScale, true
TestParameter, AutoAnalysis.Interpolation, false
TestParameter, AutoAnalysis.Var2StepCount, 1
TestParameter, AutoAnalysis.Var2StepScript, 
TestParameter, AutoAnalysis.Line1.Enabled, false
TestParameter, AutoAnalysis.Line1.Type, 1
TestParameter, AutoAnalysis.Line1.Fix, True
TestParameter, AutoAnalysis.Line1.YAxis, 0
TestParameter, AutoAnalysis.Line1.Point1.Type, 0
TestParameter, AutoAnalysis.Line1.Point1.XY.X, 
TestParameter, AutoAnalysis.Line1.Point1.XY.Y, 
TestParameter, AutoAnalysis.Line1.Point1.Data.Var, 
TestParameter, AutoAnalysis.Line1.Point1.Data.Condition, 
TestParameter, AutoAnalysis.Line1.Point1.Data.Start, false
TestParameter, AutoAnalysis.Line1.Point1.Data.StartVar, 
TestParameter, AutoAnalysis.Line1.Point1.Data.StartCondition, 
TestParameter, AutoAnalysis.Line1.Point2.Type, 0
TestParameter, AutoAnalysis.Line1.Point2.XY.X, 
TestParameter, AutoAnalysis.Line1.Point2.XY.Y, 
TestParameter, AutoAnalysis.Line1.Point2.Data.Var, 
TestParameter, AutoAnalysis.Line1.Point2.Data.Condition, 
TestParameter, AutoAnalysis.Line1.Point2.Data.Start, false
TestParameter, AutoAnalysis.Line1.Point2.Data.StartVar, 
TestParameter, AutoAnalysis.Line1.Point2.Data.StartCondition, 
TestParameter, AutoAnalysis.Line1.GradientExpr, 0
TestParameter, AutoAnalysis.Line2.Enabled, false
TestParameter, AutoAnalysis.Line2.Type, 1
TestParameter, AutoAnalysis.Line2.Fix, True
TestParameter, AutoAnalysis.Line2.YAxis, 0
TestParameter, AutoAnalysis.Line2.Point1.Type, 0
TestParameter, AutoAnalysis.Line2.Point1.XY.X, 
TestParameter, AutoAnalysis.Line2.Point1.XY.Y, 
TestParameter, AutoAnalysis.Line2.Point1.Data.Var, 
TestParameter, AutoAnalysis.Line2.Point1.Data.Condition, 
TestParameter, AutoAnalysis.Line2.Point1.Data.Start, false
TestParameter, AutoAnalysis.Line2.Point1.Data.StartVar, 
TestParameter, AutoAnalysis.Line2.Point1.Data.StartCondition, 
TestParameter, AutoAnalysis.Line2.Point2.Type, 0
TestParameter, AutoAnalysis.Line2.Point2.XY.X, 
TestParameter, AutoAnalysis.Line2.Point2.XY.Y, 
TestParameter, AutoAnalysis.Line2.Point2.Data.Var, 
TestParameter, AutoAnalysis.Line2.Point2.Data.Condition, 
TestParameter, AutoAnalysis.Line2.Point2.Data.Start, false
TestParameter, AutoAnalysis.Line2.Point2.Data.StartVar, 
TestParameter, AutoAnalysis.Line2.Point2.Data.StartCondition, 
TestParameter, AutoAnalysis.Line2.GradientExpr, 0
TestParameter, AutoAnalysis.Marker.Enabled, false
TestParameter, AutoAnalysis.Marker.Data.Var, 
TestParameter, AutoAnalysis.Marker.Data.Condition, 
TestParameter, AutoAnalysis.Marker.Data.Start, false
TestParameter, AutoAnalysis.Marker.Data.StartVar, 
TestParameter, AutoAnalysis.Marker.Data.StartCondition, 
MetaData, TestRecord.EntryPoint, true
MetaData, TestRecord.RecordTime, 04/29/2020 20:01:28
MetaData, TestRecord.TestTarget, S45-NW-D20-ExtBJT VB:0.64V
MetaData, TestRecord.IterationIndex, 6
MetaData, TestRecord.Preservation, true
MetaData, TestRecord.Flag, 
MetaData, TestRecord.Remarks, 
MetaData, TestRecord.LinkKey, 4f41ee29-ccaf-4a6b-98a1-1ff125a0dc60
MetaData, TestRecord.Parameters, 
Dimension1, 242, 242, 242
Dimension2, 1, 1, 1
DataName, V_TE, I_TE, absI
DataValue, 0, -8.300000000000001E-13, 8.300000000000001E-13
DataValue, 0.01, 5.0000000000000005E-12, 5.0000000000000005E-12
DataValue, 0.02, 7.92E-12, 7.92E-12
DataValue, 0.030000000000000002, 1.2230000000000001E-11, 1.2230000000000001E-11
DataValue, 0.04, 1.4670000000000003E-11, 1.4670000000000003E-11
DataValue, 0.05, 2.0130000000000002E-11, 2.0130000000000002E-11
DataValue, 0.060000000000000005, 2.194E-11, 2.194E-11
DataValue, 0.07, 2.835E-11, 2.835E-11
DataValue, 0.08, 3.069E-11, 3.069E-11
DataValue, 0.090000000000000011, 3.8330000000000005E-11, 3.8330000000000005E-11
DataValue, 0.1, 1.7690000000000002E-11, 1.7690000000000002E-11
DataValue, 0.11, 4.5130000000000003E-11, 4.5130000000000003E-11
DataValue, 0.12000000000000001, 4.7460000000000003E-11, 4.7460000000000003E-11
DataValue, 0.13, 5.4610000000000006E-11, 5.4610000000000006E-11
DataValue, 0.14, 5.925E-11, 5.925E-11
DataValue, 0.15, 6.542E-11, 6.542E-11
DataValue, 0.16, 6.747E-11, 6.747E-11
DataValue, 0.17, 8.051E-11, 8.051E-11
DataValue, 0.18000000000000002, 7.2470000000000009E-11, 7.2470000000000009E-11
DataValue, 0.19, 8.93E-11, 8.93E-11
DataValue, 0.2, 9.567E-11, 9.567E-11
DataValue, 0.21000000000000002, 1.0351000000000001E-10, 1.0351000000000001E-10
DataValue, 0.22, 1.0847000000000001E-10, 1.0847000000000001E-10
DataValue, 0.23, 1.1144E-10, 1.1144E-10
DataValue, 0.24000000000000002, 1.1811000000000002E-10, 1.1811000000000002E-10
DataValue, 0.25, 1.2444E-10, 1.2444E-10
DataValue, 0.26, 1.2021000000000002E-10, 1.2021000000000002E-10
DataValue, 0.27, 1.3977E-10, 1.3977E-10
DataValue, 0.28, 1.4724E-10, 1.4724E-10
DataValue, 0.29000000000000004, 1.5556E-10, 1.5556E-10
DataValue, 0.3, 1.6267000000000002E-10, 1.6267000000000002E-10
DataValue, 0.31, 1.6937E-10, 1.6937E-10
DataValue, 0.32, 1.9005E-10, 1.9005E-10
DataValue, 0.33, 2.2071E-10, 2.2071E-10
DataValue, 0.34, 7.8482E-09, 7.8482E-09
DataValue, 0.35000000000000003, 8.7669E-09, 8.7669E-09
DataValue, 0.36000000000000004, 8.237E-09, 8.237E-09
DataValue, 0.37, 1.6022E-09, 1.6022E-09
DataValue, 0.38, 9.242E-10, 9.242E-10
DataValue, 0.39, 1.1383E-09, 1.1383E-09
DataValue, 0.4, 5.8186E-09, 5.8186E-09
DataValue, 0.41000000000000003, 4.1061E-09, 4.1061E-09
DataValue, 0.42000000000000004, 1.235E-05, 1.235E-05
DataValue, 0.43, 1.2364E-05, 1.2364E-05
DataValue, 0.44, 1.2458E-05, 1.2458E-05
DataValue, 0.45, 1.2574E-05, 1.2574E-05
DataValue, 0.46, 1.2638E-05, 1.2638E-05
DataValue, 0.47000000000000003, 1.2696E-05, 1.2696E-05
DataValue, 0.48000000000000004, 1.2798E-05, 1.2798E-05
DataValue, 0.49000000000000005, 1.2846E-05, 1.2846E-05
DataValue, 0.5, 1.291E-05, 1.291E-05
DataValue, 0.51, 1.2990000000000001E-05, 1.2990000000000001E-05
DataValue, 0.52, 1.3064E-05, 1.3064E-05
DataValue, 0.53, 1.3126000000000001E-05, 1.3126000000000001E-05
DataValue, 0.54, 1.3192E-05, 1.3192E-05
DataValue, 0.55, 1.3264E-05, 1.3264E-05
DataValue, 0.56, 1.3350000000000001E-05, 1.3350000000000001E-05
DataValue, 0.57000000000000006, 1.3576E-05, 1.3576E-05
DataValue, 0.58000000000000007, 1.365E-05, 1.365E-05
DataValue, 0.59000000000000008, 1.3692E-05, 1.3692E-05
DataValue, 0.6, 1.3778000000000001E-05, 1.3778000000000001E-05
DataValue, 0.61, 1.3842E-05, 1.3842E-05
DataValue, 0.62, 1.3958000000000001E-05, 1.3958000000000001E-05
DataValue, 0.63, 1.4024E-05, 1.4024E-05
DataValue, 0.64, 1.4088000000000001E-05, 1.4088000000000001E-05
DataValue, 0.65, 1.4166000000000001E-05, 1.4166000000000001E-05
DataValue, 0.66, 1.4226E-05, 1.4226E-05
DataValue, 0.67, 1.432E-05, 1.432E-05
DataValue, 0.68, 1.4386E-05, 1.4386E-05
DataValue, 0.69000000000000006, 1.447E-05, 1.447E-05
DataValue, 0.70000000000000007, 1.4552E-05, 1.4552E-05
DataValue, 0.71000000000000008, 1.4608E-05, 1.4608E-05
DataValue, 0.72000000000000008, 1.4684E-05, 1.4684E-05
DataValue, 0.73, 1.4772E-05, 1.4772E-05
DataValue, 0.74, 1.4836E-05, 1.4836E-05
DataValue, 0.75, 1.4908E-05, 1.4908E-05
DataValue, 0.76, 1.4986E-05, 1.4986E-05
DataValue, 0.77, 1.5056000000000001E-05, 1.5056000000000001E-05
DataValue, 0.78, 1.513E-05, 1.513E-05
DataValue, 0.79, 1.5216000000000001E-05, 1.5216000000000001E-05
DataValue, 0.8, 1.5286E-05, 1.5286E-05
DataValue, 0.81, 1.5368E-05, 1.5368E-05
DataValue, 0.82000000000000006, 1.5438E-05, 1.5438E-05
DataValue, 0.83000000000000007, 1.549E-05, 1.549E-05
DataValue, 0.84000000000000008, 1.5584000000000002E-05, 1.5584000000000002E-05
DataValue, 0.85000000000000009, 1.5636E-05, 1.5636E-05
DataValue, 0.86, 1.5714E-05, 1.5714E-05
DataValue, 0.87, 1.5796E-05, 1.5796E-05
DataValue, 0.88, 1.5896E-05, 1.5896E-05
DataValue, 0.89, 1.5992000000000002E-05, 1.5992000000000002E-05
DataValue, 0.9, 1.6068E-05, 1.6068E-05
DataValue, 0.91, 1.615E-05, 1.615E-05
DataValue, 0.92, 1.6184E-05, 1.6184E-05
DataValue, 0.93, 1.6246E-05, 1.6246E-05
DataValue, 0.94000000000000006, 1.633E-05, 1.633E-05
DataValue, 0.95000000000000007, 1.6474000000000002E-05, 1.6474000000000002E-05
DataValue, 0.96000000000000008, 1.656E-05, 1.656E-05
DataValue, 0.97000000000000008, 1.6644000000000002E-05, 1.6644000000000002E-05
DataValue, 0.98000000000000009, 1.6736E-05, 1.6736E-05
DataValue, 0.9900000000000001, 1.6828000000000002E-05, 1.6828000000000002E-05
DataValue, 1, 1.6912E-05, 1.6912E-05
DataValue, 1.01, 1.698E-05, 1.698E-05
DataValue, 1.02, 1.7042E-05, 1.7042E-05
DataValue, 1.03, 1.711E-05, 1.711E-05
DataValue, 1.04, 1.721E-05, 1.721E-05
DataValue, 1.05, 1.727E-05, 1.727E-05
DataValue, 1.06, 1.7372E-05, 1.7372E-05
DataValue, 1.07, 1.7458E-05, 1.7458E-05
DataValue, 1.08, 1.7546E-05, 1.7546E-05
DataValue, 1.09, 1.7622000000000002E-05, 1.7622000000000002E-05
DataValue, 1.1, 1.7702E-05, 1.7702E-05
DataValue, 1.11, 1.7788E-05, 1.7788E-05
DataValue, 1.12, 1.7872E-05, 1.7872E-05
DataValue, 1.1300000000000001, 1.7944E-05, 1.7944E-05
DataValue, 1.1400000000000001, 1.804E-05, 1.804E-05
DataValue, 1.1500000000000001, 1.8124E-05, 1.8124E-05
DataValue, 1.1600000000000001, 1.8246E-05, 1.8246E-05
DataValue, 1.1700000000000002, 1.8338E-05, 1.8338E-05
DataValue, 1.1800000000000002, 1.8398E-05, 1.8398E-05
DataValue, 1.19, 1.851E-05, 1.851E-05
DataValue, 1.2, 1.861E-05, 1.861E-05
DataValue, 1.2, 1.864E-05, 1.864E-05
DataValue, 1.19, 1.8560000000000002E-05, 1.8560000000000002E-05
DataValue, 1.1800000000000002, 1.8456E-05, 1.8456E-05
DataValue, 1.1700000000000002, 1.8334E-05, 1.8334E-05
DataValue, 1.1600000000000001, 1.8254000000000002E-05, 1.8254000000000002E-05
DataValue, 1.1500000000000001, 1.8198E-05, 1.8198E-05
DataValue, 1.1400000000000001, 1.8118000000000002E-05, 1.8118000000000002E-05
DataValue, 1.1300000000000001, 1.8018E-05, 1.8018E-05
DataValue, 1.12, 1.7938E-05, 1.7938E-05
DataValue, 1.11, 1.7876E-05, 1.7876E-05
DataValue, 1.1, 1.778E-05, 1.778E-05
DataValue, 1.09, 1.7650000000000002E-05, 1.7650000000000002E-05
DataValue, 1.08, 1.7536E-05, 1.7536E-05
DataValue, 1.07, 1.7484E-05, 1.7484E-05
DataValue, 1.06, 1.7402E-05, 1.7402E-05
DataValue, 1.05, 1.7294E-05, 1.7294E-05
DataValue, 1.04, 1.7208000000000002E-05, 1.7208000000000002E-05
DataValue, 1.03, 1.7104E-05, 1.7104E-05
DataValue, 1.02, 1.6942E-05, 1.6942E-05
DataValue, 1.01, 1.6842E-05, 1.6842E-05
DataValue, 1, 1.6792E-05, 1.6792E-05
DataValue, 0.9900000000000001, 1.6678000000000002E-05, 1.6678000000000002E-05
DataValue, 0.98000000000000009, 1.6558E-05, 1.6558E-05
DataValue, 0.97000000000000008, 1.6400000000000002E-05, 1.6400000000000002E-05
DataValue, 0.96000000000000008, 1.6362E-05, 1.6362E-05
DataValue, 0.95000000000000007, 1.6282E-05, 1.6282E-05
DataValue, 0.94000000000000006, 1.6298000000000002E-05, 1.6298000000000002E-05
DataValue, 0.93, 1.6278E-05, 1.6278E-05
DataValue, 0.92, 1.6206E-05, 1.6206E-05
DataValue, 0.91, 1.6046000000000002E-05, 1.6046000000000002E-05
DataValue, 0.9, 1.5972000000000002E-05, 1.5972000000000002E-05
DataValue, 0.89, 1.5876000000000002E-05, 1.5876000000000002E-05
DataValue, 0.88, 1.5826E-05, 1.5826E-05
DataValue, 0.87, 1.5678E-05, 1.5678E-05
DataValue, 0.86, 1.5696E-05, 1.5696E-05
DataValue, 0.85000000000000009, 1.5564000000000002E-05, 1.5564000000000002E-05
DataValue, 0.84000000000000008, 1.5514E-05, 1.5514E-05
DataValue, 0.83000000000000007, 1.54E-05, 1.54E-05
DataValue, 0.82000000000000006, 1.5296E-05, 1.5296E-05
DataValue, 0.81, 1.519E-05, 1.519E-05
DataValue, 0.8, 1.519E-05, 1.519E-05
DataValue, 0.79, 1.5112E-05, 1.5112E-05
DataValue, 0.78, 1.5054E-05, 1.5054E-05
DataValue, 0.77, 1.5074E-05, 1.5074E-05
DataValue, 0.76, 1.4956E-05, 1.4956E-05
DataValue, 0.75, 1.4842000000000001E-05, 1.4842000000000001E-05
DataValue, 0.74, 1.4748E-05, 1.4748E-05
DataValue, 0.73, 1.467E-05, 1.467E-05
DataValue, 0.72000000000000008, 1.4626E-05, 1.4626E-05
DataValue, 0.71000000000000008, 1.4524E-05, 1.4524E-05
DataValue, 0.70000000000000007, 1.4448000000000001E-05, 1.4448000000000001E-05
DataValue, 0.69000000000000006, 1.4388E-05, 1.4388E-05
DataValue, 0.68, 1.4368E-05, 1.4368E-05
DataValue, 0.67, 1.4264000000000001E-05, 1.4264000000000001E-05
DataValue, 0.66, 1.4226E-05, 1.4226E-05
DataValue, 0.65, 1.4114E-05, 1.4114E-05
DataValue, 0.64, 1.4030000000000001E-05, 1.4030000000000001E-05
DataValue, 0.63, 1.3972000000000001E-05, 1.3972000000000001E-05
DataValue, 0.62, 1.3904000000000001E-05, 1.3904000000000001E-05
DataValue, 0.61, 1.3844E-05, 1.3844E-05
DataValue, 0.6, 1.3774E-05, 1.3774E-05
DataValue, 0.59000000000000008, 1.3686E-05, 1.3686E-05
DataValue, 0.58000000000000007, 1.3618E-05, 1.3618E-05
DataValue, 0.57000000000000006, 1.355E-05, 1.355E-05
DataValue, 0.56, 1.3488E-05, 1.3488E-05
DataValue, 0.55, 1.3422000000000001E-05, 1.3422000000000001E-05
DataValue, 0.54, 1.3340000000000001E-05, 1.3340000000000001E-05
DataValue, 0.53, 1.328E-05, 1.328E-05
DataValue, 0.52, 1.3194000000000001E-05, 1.3194000000000001E-05
DataValue, 0.51, 1.3134E-05, 1.3134E-05
DataValue, 0.5, 1.308E-05, 1.308E-05
DataValue, 0.49000000000000005, 1.3004000000000001E-05, 1.3004000000000001E-05
DataValue, 0.48000000000000004, 1.2948E-05, 1.2948E-05
DataValue, 0.47000000000000003, 1.2872E-05, 1.2872E-05
DataValue, 0.46, 1.2788E-05, 1.2788E-05
DataValue, 0.45, 1.273E-05, 1.273E-05
DataValue, 0.44, 1.267E-05, 1.267E-05
DataValue, 0.43, 1.2566E-05, 1.2566E-05
DataValue, 0.42000000000000004, 1.2504000000000001E-05, 1.2504000000000001E-05
DataValue, 0.41000000000000003, 1.2444E-05, 1.2444E-05
DataValue, 0.4, 1.236E-05, 1.236E-05
DataValue, 0.39, 1.2292E-05, 1.2292E-05
DataValue, 0.38, 1.2186E-05, 1.2186E-05
DataValue, 0.37, 1.2096E-05, 1.2096E-05
DataValue, 0.36000000000000004, 1.2008000000000001E-05, 1.2008000000000001E-05
DataValue, 0.35000000000000003, 1.1916E-05, 1.1916E-05
DataValue, 0.34, 1.181E-05, 1.181E-05
DataValue, 0.33, 1.1652000000000001E-05, 1.1652000000000001E-05
DataValue, 0.32, 1.1478000000000001E-05, 1.1478000000000001E-05
DataValue, 0.31, 1.1346000000000001E-05, 1.1346000000000001E-05
DataValue, 0.3, 1.1096E-05, 1.1096E-05
DataValue, 0.29000000000000004, 1.0866E-05, 1.0866E-05
DataValue, 0.28, 1.0612000000000001E-05, 1.0612000000000001E-05
DataValue, 0.27, 1.0414E-05, 1.0414E-05
DataValue, 0.26, 1.01E-05, 1.01E-05
DataValue, 0.25, 9.7818000000000018E-06, 9.7818000000000018E-06
DataValue, 0.24000000000000002, 9.4935000000000015E-06, 9.4935000000000015E-06
DataValue, 0.23, 9.1867000000000013E-06, 9.1867000000000013E-06
DataValue, 0.22, 8.781700000000001E-06, 8.781700000000001E-06
DataValue, 0.21000000000000002, 8.2473000000000015E-06, 8.2473000000000015E-06
DataValue, 0.2, 8.0484E-06, 8.0484E-06
DataValue, 0.19, 7.6867E-06, 7.6867E-06
DataValue, 0.18000000000000002, 7.3526000000000006E-06, 7.3526000000000006E-06
DataValue, 0.17, 6.9565000000000011E-06, 6.9565000000000011E-06
DataValue, 0.16, 6.5542000000000007E-06, 6.5542000000000007E-06
DataValue, 0.15, 6.1134000000000006E-06, 6.1134000000000006E-06
DataValue, 0.14, 5.7428E-06, 5.7428E-06
DataValue, 0.13, 5.3299E-06, 5.3299E-06
DataValue, 0.12000000000000001, 4.9658000000000008E-06, 4.9658000000000008E-06
DataValue, 0.11, 4.2614E-06, 4.2614E-06
DataValue, 0.1, 4.1395000000000008E-06, 4.1395000000000008E-06
DataValue, 0.090000000000000011, 3.7354000000000003E-06, 3.7354000000000003E-06
DataValue, 0.08, 3.3223000000000004E-06, 3.3223000000000004E-06
DataValue, 0.07, 2.9166E-06, 2.9166E-06
DataValue, 0.060000000000000005, 2.4149000000000004E-06, 2.4149000000000004E-06
DataValue, 0.05, 1.9896000000000004E-06, 1.9896000000000004E-06
DataValue, 0.04, 1.6586E-06, 1.6586E-06
DataValue, 0.030000000000000002, 1.2426000000000002E-06, 1.2426000000000002E-06
DataValue, 0.02, 8.3066E-07, 8.3066E-07
DataValue, 0.01, 4.0982E-07, 4.0982E-07
DataValue, 0, 3.1338E-09, 3.1338E-09