
SetupTitle, POS SET EXT-BJT [B-0.64V ICC-1m] TE 1.2 V
PrimitiveTest, I/V Sweep
TestParameter, Context.MainFrame, B1500A
TestParameter, Channel.UnitType, SMU, SMU, SMU
TestParameter, Channel.Unit, SMU2:HR, SMU4:HR, SMU3:HR
TestParameter, Channel.IName, I_TE, I_G, I_BE
TestParameter, Channel.VName, V_TE, V_G, V_BE
TestParameter, Channel.Mode, V, V, COMMON
TestParameter, Channel.Func, VAR1, CONST, CONST
TestParameter, Channel.Index, 
TestParameter, Channel.Time, 
TestParameter, Measurement.Port.Unit, SMU2:HR, SMU4:HR, SMU3:HR
TestParameter, Measurement.Port.SeriesResistor, NONE, NONE, NONE
TestParameter, Measurement.Port.Filter, ON, ON, ON
TestParameter, Measurement.Port.OutputVoltageComparison, 0, 0, 0
TestParameter, Measurement.Primary.Locus, Double
TestParameter, Measurement.Primary.Scale, LINEAR
TestParameter, Measurement.Primary.Start, 0
TestParameter, Measurement.Primary.Stop, 1.2
TestParameter, Measurement.Primary.Step, 0.01
TestParameter, Measurement.Primary.Compliance, 0.001
TestParameter, Measurement.Primary.PowerCompliance, 0
TestParameter, Measurement.Aborting.Condition, CONTINUE AT ANY
TestParameter, Measurement.PostOutput.Value, START
TestParameter, Measurement.PostOutput.Retention, OFF
TestParameter, Measurement.Bias.Source, 0, 0.64, 0
TestParameter, Measurement.Bias.Compliance, 0.001, 0.0001, 0.1
TestParameter, Measurement.Monitor.Unit, SMU2:HR, SMU4:HR, SMU3:HR
TestParameter, Measurement.Monitor.Adc, HR ADC, HR ADC, HR ADC
TestParameter, Measurement.Monitor.Measurement, Compliance Side, Compliance Side, Compliance Side
TestParameter, Measurement.Monitor.RangingMode, LIMITED, LIMITED, LIMITED
TestParameter, Measurement.Monitor.RangeBoundary, 1nA, 1nA, 1nA
TestParameter, Measurement.Monitor.RangeRating, BY FULL RANGE, BY FULL RANGE, BY FULL RANGE
TestParameter, Measurement.Monitor.RangeRatingCoeff, 50, 50, 50
TestParameter, Measurement.Timing.Hold, 0.01
TestParameter, Measurement.Timing.Delay, 0
TestParameter, Measurement.Adc.HighSpeed.Mode, AUTO
TestParameter, Measurement.Adc.HighSpeed.Coeff, 1
TestParameter, Measurement.Adc.HighResolution.AutoZero, OFF
TestParameter, Measurement.Adc.HighResolution.Mode, AUTO
TestParameter, Measurement.Adc.HighResolution.Coeff, 6
TestParameter, Measurement.WaitTime.Source.Coeff, 1
TestParameter, Measurement.WaitTime.Source.Offset, 0
TestParameter, Measurement.WaitTime.Monitor.Coeff, 1
TestParameter, Measurement.WaitTime.Monitor.Offset, 0
TestParameter, Function.User.Name, absI
TestParameter, Function.User.Unit, A
TestParameter, Function.User.Definition, abs(I_TE)
TestParameter, Output.Graph.Enabled, true
TestParameter, Output.Graph.AutoScaling, false
TestParameter, Output.Graph.XAxis.Data, V_TE
TestParameter, Output.Graph.XAxis.Scale, Linear
TestParameter, Output.Graph.XAxis.Left, 0
TestParameter, Output.Graph.XAxis.Right, 5
TestParameter, Output.Graph.XAxis.RunTimeAutoScale, true
TestParameter, Output.Graph.YAxis.Data, absI
TestParameter, Output.Graph.YAxis.Scale, Log
TestParameter, Output.Graph.YAxis.Bottom, 0
TestParameter, Output.Graph.YAxis.Top, 1
TestParameter, Output.Graph.YAxis.Group, 
TestParameter, Output.Graph.YAxis.RunTimeAutoScale, true
TestParameter, AutoAnalysis.Interpolation, false
TestParameter, AutoAnalysis.Var2StepCount, 1
TestParameter, AutoAnalysis.Var2StepScript, 
TestParameter, AutoAnalysis.Line1.Enabled, false
TestParameter, AutoAnalysis.Line1.Type, 1
TestParameter, AutoAnalysis.Line1.Fix, True
TestParameter, AutoAnalysis.Line1.YAxis, 0
TestParameter, AutoAnalysis.Line1.Point1.Type, 0
TestParameter, AutoAnalysis.Line1.Point1.XY.X, 
TestParameter, AutoAnalysis.Line1.Point1.XY.Y, 
TestParameter, AutoAnalysis.Line1.Point1.Data.Var, 
TestParameter, AutoAnalysis.Line1.Point1.Data.Condition, 
TestParameter, AutoAnalysis.Line1.Point1.Data.Start, false
TestParameter, AutoAnalysis.Line1.Point1.Data.StartVar, 
TestParameter, AutoAnalysis.Line1.Point1.Data.StartCondition, 
TestParameter, AutoAnalysis.Line1.Point2.Type, 0
TestParameter, AutoAnalysis.Line1.Point2.XY.X, 
TestParameter, AutoAnalysis.Line1.Point2.XY.Y, 
TestParameter, AutoAnalysis.Line1.Point2.Data.Var, 
TestParameter, AutoAnalysis.Line1.Point2.Data.Condition, 
TestParameter, AutoAnalysis.Line1.Point2.Data.Start, false
TestParameter, AutoAnalysis.Line1.Point2.Data.StartVar, 
TestParameter, AutoAnalysis.Line1.Point2.Data.StartCondition, 
TestParameter, AutoAnalysis.Line1.GradientExpr, 0
TestParameter, AutoAnalysis.Line2.Enabled, false
TestParameter, AutoAnalysis.Line2.Type, 1
TestParameter, AutoAnalysis.Line2.Fix, True
TestParameter, AutoAnalysis.Line2.YAxis, 0
TestParameter, AutoAnalysis.Line2.Point1.Type, 0
TestParameter, AutoAnalysis.Line2.Point1.XY.X, 
TestParameter, AutoAnalysis.Line2.Point1.XY.Y, 
TestParameter, AutoAnalysis.Line2.Point1.Data.Var, 
TestParameter, AutoAnalysis.Line2.Point1.Data.Condition, 
TestParameter, AutoAnalysis.Line2.Point1.Data.Start, false
TestParameter, AutoAnalysis.Line2.Point1.Data.StartVar, 
TestParameter, AutoAnalysis.Line2.Point1.Data.StartCondition, 
TestParameter, AutoAnalysis.Line2.Point2.Type, 0
TestParameter, AutoAnalysis.Line2.Point2.XY.X, 
TestParameter, AutoAnalysis.Line2.Point2.XY.Y, 
TestParameter, AutoAnalysis.Line2.Point2.Data.Var, 
TestParameter, AutoAnalysis.Line2.Point2.Data.Condition, 
TestParameter, AutoAnalysis.Line2.Point2.Data.Start, false
TestParameter, AutoAnalysis.Line2.Point2.Data.StartVar, 
TestParameter, AutoAnalysis.Line2.Point2.Data.StartCondition, 
TestParameter, AutoAnalysis.Line2.GradientExpr, 0
TestParameter, AutoAnalysis.Marker.Enabled, false
TestParameter, AutoAnalysis.Marker.Data.Var, 
TestParameter, AutoAnalysis.Marker.Data.Condition, 
TestParameter, AutoAnalysis.Marker.Data.Start, false
TestParameter, AutoAnalysis.Marker.Data.StartVar, 
TestParameter, AutoAnalysis.Marker.Data.StartCondition, 
MetaData, TestRecord.EntryPoint, true
MetaData, TestRecord.RecordTime, 04/29/2020 20:00:56
MetaData, TestRecord.TestTarget, S45-NW-D20-ExtBJT VB:0.64V
MetaData, TestRecord.IterationIndex, 4
MetaData, TestRecord.Preservation, true
MetaData, TestRecord.Flag, 
MetaData, TestRecord.Remarks, 
MetaData, TestRecord.LinkKey, 68d3261f-1144-457f-8b7d-fe17ed591eb3
MetaData, TestRecord.Parameters, 
Dimension1, 242, 242, 242
Dimension2, 1, 1, 1
DataName, V_TE, I_TE, absI
DataValue, 0, -2.9000000000000003E-13, 2.9000000000000003E-13
DataValue, 0.01, 6.1E-13, 6.1E-13
DataValue, 0.02, 9.3E-13, 9.3E-13
DataValue, 0.030000000000000002, 6.400000000000001E-13, 6.400000000000001E-13
DataValue, 0.04, 1.9200000000000003E-12, 1.9200000000000003E-12
DataValue, 0.05, 9.7000000000000011E-13, 9.7000000000000011E-13
DataValue, 0.060000000000000005, 5E-13, 5E-13
DataValue, 0.07, 1.0500000000000002E-12, 1.0500000000000002E-12
DataValue, 0.08, 1.5800000000000001E-12, 1.5800000000000001E-12
DataValue, 0.090000000000000011, 1.18E-12, 1.18E-12
DataValue, 0.1, 2.77E-12, 2.77E-12
DataValue, 0.11, 1.74E-12, 1.74E-12
DataValue, 0.12000000000000001, 3.1600000000000003E-12, 3.1600000000000003E-12
DataValue, 0.13, 3.35E-12, 3.35E-12
DataValue, 0.14, 3.81E-12, 3.81E-12
DataValue, 0.15, 3.66E-12, 3.66E-12
DataValue, 0.16, 4.4400000000000005E-12, 4.4400000000000005E-12
DataValue, 0.17, 4.72E-12, 4.72E-12
DataValue, 0.18000000000000002, 4.02E-12, 4.02E-12
DataValue, 0.19, 4.17E-12, 4.17E-12
DataValue, 0.2, 7.22E-12, 7.22E-12
DataValue, 0.21000000000000002, 5.3600000000000006E-12, 5.3600000000000006E-12
DataValue, 0.22, 7.16E-12, 7.16E-12
DataValue, 0.23, 5.24E-12, 5.24E-12
DataValue, 0.24000000000000002, 7.6900000000000014E-12, 7.6900000000000014E-12
DataValue, 0.25, 7.07E-12, 7.07E-12
DataValue, 0.26, 8.5700000000000008E-12, 8.5700000000000008E-12
DataValue, 0.27, 7.7900000000000013E-12, 7.7900000000000013E-12
DataValue, 0.28, 9.7300000000000016E-12, 9.7300000000000016E-12
DataValue, 0.29000000000000004, 9.3200000000000015E-12, 9.3200000000000015E-12
DataValue, 0.3, 9.8900000000000009E-12, 9.8900000000000009E-12
DataValue, 0.31, 1.732E-11, 1.732E-11
DataValue, 0.32, 2.976E-11, 2.976E-11
DataValue, 0.33, 3.507E-11, 3.507E-11
DataValue, 0.34, 2.101E-11, 2.101E-11
DataValue, 0.35000000000000003, 1.7620000000000003E-11, 1.7620000000000003E-11
DataValue, 0.36000000000000004, 2.4231E-10, 2.4231E-10
DataValue, 0.37, 4.0936E-06, 4.0936E-06
DataValue, 0.38, 6.344E-07, 6.344E-07
DataValue, 0.39, 4.2806E-06, 4.2806E-06
DataValue, 0.4, 1.171E-05, 1.171E-05
DataValue, 0.41000000000000003, 1.1834E-05, 1.1834E-05
DataValue, 0.42000000000000004, 1.1576E-05, 1.1576E-05
DataValue, 0.43, 1.1796E-05, 1.1796E-05
DataValue, 0.44, 1.1908E-05, 1.1908E-05
DataValue, 0.45, 1.2052E-05, 1.2052E-05
DataValue, 0.46, 1.2148000000000001E-05, 1.2148000000000001E-05
DataValue, 0.47000000000000003, 1.219E-05, 1.219E-05
DataValue, 0.48000000000000004, 1.2268E-05, 1.2268E-05
DataValue, 0.49000000000000005, 1.2356E-05, 1.2356E-05
DataValue, 0.5, 1.249E-05, 1.249E-05
DataValue, 0.51, 1.2526E-05, 1.2526E-05
DataValue, 0.52, 1.2640000000000001E-05, 1.2640000000000001E-05
DataValue, 0.53, 1.266E-05, 1.266E-05
DataValue, 0.54, 1.2724E-05, 1.2724E-05
DataValue, 0.55, 1.2802E-05, 1.2802E-05
DataValue, 0.56, 1.2894E-05, 1.2894E-05
DataValue, 0.57000000000000006, 1.2956000000000001E-05, 1.2956000000000001E-05
DataValue, 0.58000000000000007, 1.3012E-05, 1.3012E-05
DataValue, 0.59000000000000008, 1.3074E-05, 1.3074E-05
DataValue, 0.6, 1.3166E-05, 1.3166E-05
DataValue, 0.61, 1.3188E-05, 1.3188E-05
DataValue, 0.62, 1.325E-05, 1.325E-05
DataValue, 0.63, 1.3374000000000001E-05, 1.3374000000000001E-05
DataValue, 0.64, 1.3424E-05, 1.3424E-05
DataValue, 0.65, 1.3482E-05, 1.3482E-05
DataValue, 0.66, 1.3538E-05, 1.3538E-05
DataValue, 0.67, 1.3618E-05, 1.3618E-05
DataValue, 0.68, 1.3706E-05, 1.3706E-05
DataValue, 0.69000000000000006, 1.3828E-05, 1.3828E-05
DataValue, 0.70000000000000007, 1.4240000000000001E-05, 1.4240000000000001E-05
DataValue, 0.71000000000000008, 1.4308000000000001E-05, 1.4308000000000001E-05
DataValue, 0.72000000000000008, 1.4382E-05, 1.4382E-05
DataValue, 0.73, 1.4474E-05, 1.4474E-05
DataValue, 0.74, 1.4516000000000001E-05, 1.4516000000000001E-05
DataValue, 0.75, 1.4606E-05, 1.4606E-05
DataValue, 0.76, 1.4632E-05, 1.4632E-05
DataValue, 0.77, 1.4760000000000001E-05, 1.4760000000000001E-05
DataValue, 0.78, 1.4846E-05, 1.4846E-05
DataValue, 0.79, 1.4878E-05, 1.4878E-05
DataValue, 0.8, 1.4950000000000001E-05, 1.4950000000000001E-05
DataValue, 0.81, 1.4982E-05, 1.4982E-05
DataValue, 0.82000000000000006, 1.5116E-05, 1.5116E-05
DataValue, 0.83000000000000007, 1.5208E-05, 1.5208E-05
DataValue, 0.84000000000000008, 1.5204E-05, 1.5204E-05
DataValue, 0.85000000000000009, 1.532E-05, 1.532E-05
DataValue, 0.86, 1.5448000000000002E-05, 1.5448000000000002E-05
DataValue, 0.87, 1.5754000000000002E-05, 1.5754000000000002E-05
DataValue, 0.88, 1.5784E-05, 1.5784E-05
DataValue, 0.89, 1.59E-05, 1.59E-05
DataValue, 0.9, 1.5986E-05, 1.5986E-05
DataValue, 0.91, 1.6060000000000002E-05, 1.6060000000000002E-05
DataValue, 0.92, 1.6092E-05, 1.6092E-05
DataValue, 0.93, 1.6206E-05, 1.6206E-05
DataValue, 0.94000000000000006, 1.629E-05, 1.629E-05
DataValue, 0.95000000000000007, 1.6348E-05, 1.6348E-05
DataValue, 0.96000000000000008, 1.641E-05, 1.641E-05
DataValue, 0.97000000000000008, 1.6454000000000002E-05, 1.6454000000000002E-05
DataValue, 0.98000000000000009, 1.6576000000000002E-05, 1.6576000000000002E-05
DataValue, 0.9900000000000001, 1.6704E-05, 1.6704E-05
DataValue, 1, 1.6786E-05, 1.6786E-05
DataValue, 1.01, 1.7044E-05, 1.7044E-05
DataValue, 1.02, 1.7256000000000002E-05, 1.7256000000000002E-05
DataValue, 1.03, 1.7224E-05, 1.7224E-05
DataValue, 1.04, 1.735E-05, 1.735E-05
DataValue, 1.05, 1.7428E-05, 1.7428E-05
DataValue, 1.06, 1.7488E-05, 1.7488E-05
DataValue, 1.07, 1.7574E-05, 1.7574E-05
DataValue, 1.08, 1.7668E-05, 1.7668E-05
DataValue, 1.09, 1.7748E-05, 1.7748E-05
DataValue, 1.1, 1.7844E-05, 1.7844E-05
DataValue, 1.11, 1.7916E-05, 1.7916E-05
DataValue, 1.12, 1.8024000000000002E-05, 1.8024000000000002E-05
DataValue, 1.1300000000000001, 1.8128E-05, 1.8128E-05
DataValue, 1.1400000000000001, 1.8298E-05, 1.8298E-05
DataValue, 1.1500000000000001, 1.8370000000000002E-05, 1.8370000000000002E-05
DataValue, 1.1600000000000001, 1.8472000000000002E-05, 1.8472000000000002E-05
DataValue, 1.1700000000000002, 1.857E-05, 1.857E-05
DataValue, 1.1800000000000002, 1.862E-05, 1.862E-05
DataValue, 1.19, 1.8774E-05, 1.8774E-05
DataValue, 1.2, 1.8828E-05, 1.8828E-05
DataValue, 1.2, 1.8802E-05, 1.8802E-05
DataValue, 1.19, 1.8762E-05, 1.8762E-05
DataValue, 1.1800000000000002, 1.8674E-05, 1.8674E-05
DataValue, 1.1700000000000002, 1.8564E-05, 1.8564E-05
DataValue, 1.1600000000000001, 1.8452000000000002E-05, 1.8452000000000002E-05
DataValue, 1.1500000000000001, 1.8358E-05, 1.8358E-05
DataValue, 1.1400000000000001, 1.8286E-05, 1.8286E-05
DataValue, 1.1300000000000001, 1.8154E-05, 1.8154E-05
DataValue, 1.12, 1.8088E-05, 1.8088E-05
DataValue, 1.11, 1.7990000000000002E-05, 1.7990000000000002E-05
DataValue, 1.1, 1.7892E-05, 1.7892E-05
DataValue, 1.09, 1.781E-05, 1.781E-05
DataValue, 1.08, 1.7738000000000002E-05, 1.7738000000000002E-05
DataValue, 1.07, 1.7628E-05, 1.7628E-05
DataValue, 1.06, 1.7556E-05, 1.7556E-05
DataValue, 1.05, 1.747E-05, 1.747E-05
DataValue, 1.04, 1.7388E-05, 1.7388E-05
DataValue, 1.03, 1.728E-05, 1.728E-05
DataValue, 1.02, 1.7214E-05, 1.7214E-05
DataValue, 1.01, 1.7146E-05, 1.7146E-05
DataValue, 1, 1.707E-05, 1.707E-05
DataValue, 0.9900000000000001, 1.7004000000000002E-05, 1.7004000000000002E-05
DataValue, 0.98000000000000009, 1.6908E-05, 1.6908E-05
DataValue, 0.97000000000000008, 1.6856E-05, 1.6856E-05
DataValue, 0.96000000000000008, 1.673E-05, 1.673E-05
DataValue, 0.95000000000000007, 1.6628E-05, 1.6628E-05
DataValue, 0.94000000000000006, 1.6570000000000002E-05, 1.6570000000000002E-05
DataValue, 0.93, 1.6504E-05, 1.6504E-05
DataValue, 0.92, 1.6394E-05, 1.6394E-05
DataValue, 0.91, 1.6358E-05, 1.6358E-05
DataValue, 0.9, 1.6298000000000002E-05, 1.6298000000000002E-05
DataValue, 0.89, 1.6252E-05, 1.6252E-05
DataValue, 0.88, 1.6084E-05, 1.6084E-05
DataValue, 0.87, 1.6046000000000002E-05, 1.6046000000000002E-05
DataValue, 0.86, 1.5986E-05, 1.5986E-05
DataValue, 0.85000000000000009, 1.5898E-05, 1.5898E-05
DataValue, 0.84000000000000008, 1.5740000000000002E-05, 1.5740000000000002E-05
DataValue, 0.83000000000000007, 1.5704E-05, 1.5704E-05
DataValue, 0.82000000000000006, 1.5606E-05, 1.5606E-05
DataValue, 0.81, 1.5550000000000002E-05, 1.5550000000000002E-05
DataValue, 0.8, 1.5496000000000002E-05, 1.5496000000000002E-05
DataValue, 0.79, 1.542E-05, 1.542E-05
DataValue, 0.78, 1.5306000000000002E-05, 1.5306000000000002E-05
DataValue, 0.77, 1.5258E-05, 1.5258E-05
DataValue, 0.76, 1.5182000000000001E-05, 1.5182000000000001E-05
DataValue, 0.75, 1.5122E-05, 1.5122E-05
DataValue, 0.74, 1.4976E-05, 1.4976E-05
DataValue, 0.73, 1.4908E-05, 1.4908E-05
DataValue, 0.72000000000000008, 1.481E-05, 1.481E-05
DataValue, 0.71000000000000008, 1.4746E-05, 1.4746E-05
DataValue, 0.70000000000000007, 1.4734E-05, 1.4734E-05
DataValue, 0.69000000000000006, 1.4646E-05, 1.4646E-05
DataValue, 0.68, 1.4576E-05, 1.4576E-05
DataValue, 0.67, 1.4464E-05, 1.4464E-05
DataValue, 0.66, 1.4346000000000001E-05, 1.4346000000000001E-05
DataValue, 0.65, 1.43E-05, 1.43E-05
DataValue, 0.64, 1.4240000000000001E-05, 1.4240000000000001E-05
DataValue, 0.63, 1.4094000000000001E-05, 1.4094000000000001E-05
DataValue, 0.62, 1.4032E-05, 1.4032E-05
DataValue, 0.61, 1.4020000000000001E-05, 1.4020000000000001E-05
DataValue, 0.6, 1.3962000000000001E-05, 1.3962000000000001E-05
DataValue, 0.59000000000000008, 1.3894000000000001E-05, 1.3894000000000001E-05
DataValue, 0.58000000000000007, 1.3816000000000001E-05, 1.3816000000000001E-05
DataValue, 0.57000000000000006, 1.3754E-05, 1.3754E-05
DataValue, 0.56, 1.3614E-05, 1.3614E-05
DataValue, 0.55, 1.358E-05, 1.358E-05
DataValue, 0.54, 1.3502E-05, 1.3502E-05
DataValue, 0.53, 1.3424E-05, 1.3424E-05
DataValue, 0.52, 1.3338E-05, 1.3338E-05
DataValue, 0.51, 1.3292E-05, 1.3292E-05
DataValue, 0.5, 1.3286000000000001E-05, 1.3286000000000001E-05
DataValue, 0.49000000000000005, 1.3206E-05, 1.3206E-05
DataValue, 0.48000000000000004, 1.3178E-05, 1.3178E-05
DataValue, 0.47000000000000003, 1.3112E-05, 1.3112E-05
DataValue, 0.46, 1.3034000000000001E-05, 1.3034000000000001E-05
DataValue, 0.45, 1.2998E-05, 1.2998E-05
DataValue, 0.44, 1.294E-05, 1.294E-05
DataValue, 0.43, 1.2842E-05, 1.2842E-05
DataValue, 0.42000000000000004, 1.277E-05, 1.277E-05
DataValue, 0.41000000000000003, 1.2664000000000001E-05, 1.2664000000000001E-05
DataValue, 0.4, 1.2602E-05, 1.2602E-05
DataValue, 0.39, 1.254E-05, 1.254E-05
DataValue, 0.38, 1.2434E-05, 1.2434E-05
DataValue, 0.37, 1.2338000000000001E-05, 1.2338000000000001E-05
DataValue, 0.36000000000000004, 1.2232E-05, 1.2232E-05
DataValue, 0.35000000000000003, 1.2176E-05, 1.2176E-05
DataValue, 0.34, 1.2062E-05, 1.2062E-05
DataValue, 0.33, 1.1964000000000001E-05, 1.1964000000000001E-05
DataValue, 0.32, 1.1964000000000001E-05, 1.1964000000000001E-05
DataValue, 0.31, 1.181E-05, 1.181E-05
DataValue, 0.3, 1.1684E-05, 1.1684E-05
DataValue, 0.29000000000000004, 1.1496E-05, 1.1496E-05
DataValue, 0.28, 1.133E-05, 1.133E-05
DataValue, 0.27, 1.1206E-05, 1.1206E-05
DataValue, 0.26, 1.0982000000000001E-05, 1.0982000000000001E-05
DataValue, 0.25, 1.0646000000000001E-05, 1.0646000000000001E-05
DataValue, 0.24000000000000002, 1.0338E-05, 1.0338E-05
DataValue, 0.23, 1.0004000000000001E-05, 1.0004000000000001E-05
DataValue, 0.22, 9.6099000000000009E-06, 9.6099000000000009E-06
DataValue, 0.21000000000000002, 9.2678000000000013E-06, 9.2678000000000013E-06
DataValue, 0.2, 8.8543000000000009E-06, 8.8543000000000009E-06
DataValue, 0.19, 8.3646000000000012E-06, 8.3646000000000012E-06
DataValue, 0.18000000000000002, 8.0471000000000013E-06, 8.0471000000000013E-06
DataValue, 0.17, 7.5790000000000006E-06, 7.5790000000000006E-06
DataValue, 0.16, 7.0189000000000007E-06, 7.0189000000000007E-06
DataValue, 0.15, 6.6738E-06, 6.6738E-06
DataValue, 0.14, 6.3118E-06, 6.3118E-06
DataValue, 0.13, 5.7644E-06, 5.7644E-06
DataValue, 0.12000000000000001, 5.2603E-06, 5.2603E-06
DataValue, 0.11, 4.7862000000000009E-06, 4.7862000000000009E-06
DataValue, 0.1, 4.3260000000000006E-06, 4.3260000000000006E-06
DataValue, 0.090000000000000011, 3.9068000000000004E-06, 3.9068000000000004E-06
DataValue, 0.08, 3.4615000000000002E-06, 3.4615000000000002E-06
DataValue, 0.07, 3.0110000000000005E-06, 3.0110000000000005E-06
DataValue, 0.060000000000000005, 2.6005000000000003E-06, 2.6005000000000003E-06
DataValue, 0.05, 2.1811E-06, 2.1811E-06
DataValue, 0.04, 1.7385000000000002E-06, 1.7385000000000002E-06
DataValue, 0.030000000000000002, 1.3168E-06, 1.3168E-06
DataValue, 0.02, 8.9516E-07, 8.9516E-07
DataValue, 0.01, 4.5022E-07, 4.5022E-07
DataValue, 0, 2.0767E-09, 2.0767E-09