
SetupTitle, POS SET EXT-BJT [B-0.64V ICC-1m] TE 1.2 V
PrimitiveTest, I/V Sweep
TestParameter, Context.MainFrame, B1500A
TestParameter, Channel.UnitType, SMU, SMU, SMU
TestParameter, Channel.Unit, SMU2:HR, SMU4:HR, SMU3:HR
TestParameter, Channel.IName, I_TE, I_G, I_BE
TestParameter, Channel.VName, V_TE, V_G, V_BE
TestParameter, Channel.Mode, V, V, COMMON
TestParameter, Channel.Func, VAR1, CONST, CONST
TestParameter, Channel.Index, 
TestParameter, Channel.Time, 
TestParameter, Measurement.Port.Unit, SMU2:HR, SMU4:HR, SMU3:HR
TestParameter, Measurement.Port.SeriesResistor, NONE, NONE, NONE
TestParameter, Measurement.Port.Filter, ON, ON, ON
TestParameter, Measurement.Port.OutputVoltageComparison, 0, 0, 0
TestParameter, Measurement.Primary.Locus, Double
TestParameter, Measurement.Primary.Scale, LINEAR
TestParameter, Measurement.Primary.Start, 0
TestParameter, Measurement.Primary.Stop, 1.2
TestParameter, Measurement.Primary.Step, 0.01
TestParameter, Measurement.Primary.Compliance, 0.001
TestParameter, Measurement.Primary.PowerCompliance, 0
TestParameter, Measurement.Aborting.Condition, CONTINUE AT ANY
TestParameter, Measurement.PostOutput.Value, START
TestParameter, Measurement.PostOutput.Retention, OFF
TestParameter, Measurement.Bias.Source, 0, 0.64, 0
TestParameter, Measurement.Bias.Compliance, 0.001, 0.0001, 0.1
TestParameter, Measurement.Monitor.Unit, SMU2:HR, SMU4:HR, SMU3:HR
TestParameter, Measurement.Monitor.Adc, HR ADC, HR ADC, HR ADC
TestParameter, Measurement.Monitor.Measurement, Compliance Side, Compliance Side, Compliance Side
TestParameter, Measurement.Monitor.RangingMode, LIMITED, LIMITED, LIMITED
TestParameter, Measurement.Monitor.RangeBoundary, 1nA, 1nA, 1nA
TestParameter, Measurement.Monitor.RangeRating, BY FULL RANGE, BY FULL RANGE, BY FULL RANGE
TestParameter, Measurement.Monitor.RangeRatingCoeff, 50, 50, 50
TestParameter, Measurement.Timing.Hold, 0.01
TestParameter, Measurement.Timing.Delay, 0
TestParameter, Measurement.Adc.HighSpeed.Mode, AUTO
TestParameter, Measurement.Adc.HighSpeed.Coeff, 1
TestParameter, Measurement.Adc.HighResolution.AutoZero, OFF
TestParameter, Measurement.Adc.HighResolution.Mode, AUTO
TestParameter, Measurement.Adc.HighResolution.Coeff, 6
TestParameter, Measurement.WaitTime.Source.Coeff, 1
TestParameter, Measurement.WaitTime.Source.Offset, 0
TestParameter, Measurement.WaitTime.Monitor.Coeff, 1
TestParameter, Measurement.WaitTime.Monitor.Offset, 0
TestParameter, Function.User.Name, absI
TestParameter, Function.User.Unit, A
TestParameter, Function.User.Definition, abs(I_TE)
TestParameter, Output.Graph.Enabled, true
TestParameter, Output.Graph.AutoScaling, false
TestParameter, Output.Graph.XAxis.Data, V_TE
TestParameter, Output.Graph.XAxis.Scale, Linear
TestParameter, Output.Graph.XAxis.Left, 0
TestParameter, Output.Graph.XAxis.Right, 5
TestParameter, Output.Graph.XAxis.RunTimeAutoScale, true
TestParameter, Output.Graph.YAxis.Data, absI
TestParameter, Output.Graph.YAxis.Scale, Log
TestParameter, Output.Graph.YAxis.Bottom, 0
TestParameter, Output.Graph.YAxis.Top, 1
TestParameter, Output.Graph.YAxis.Group, 
TestParameter, Output.Graph.YAxis.RunTimeAutoScale, true
TestParameter, AutoAnalysis.Interpolation, false
TestParameter, AutoAnalysis.Var2StepCount, 1
TestParameter, AutoAnalysis.Var2StepScript, 
TestParameter, AutoAnalysis.Line1.Enabled, false
TestParameter, AutoAnalysis.Line1.Type, 1
TestParameter, AutoAnalysis.Line1.Fix, True
TestParameter, AutoAnalysis.Line1.YAxis, 0
TestParameter, AutoAnalysis.Line1.Point1.Type, 0
TestParameter, AutoAnalysis.Line1.Point1.XY.X, 
TestParameter, AutoAnalysis.Line1.Point1.XY.Y, 
TestParameter, AutoAnalysis.Line1.Point1.Data.Var, 
TestParameter, AutoAnalysis.Line1.Point1.Data.Condition, 
TestParameter, AutoAnalysis.Line1.Point1.Data.Start, false
TestParameter, AutoAnalysis.Line1.Point1.Data.StartVar, 
TestParameter, AutoAnalysis.Line1.Point1.Data.StartCondition, 
TestParameter, AutoAnalysis.Line1.Point2.Type, 0
TestParameter, AutoAnalysis.Line1.Point2.XY.X, 
TestParameter, AutoAnalysis.Line1.Point2.XY.Y, 
TestParameter, AutoAnalysis.Line1.Point2.Data.Var, 
TestParameter, AutoAnalysis.Line1.Point2.Data.Condition, 
TestParameter, AutoAnalysis.Line1.Point2.Data.Start, false
TestParameter, AutoAnalysis.Line1.Point2.Data.StartVar, 
TestParameter, AutoAnalysis.Line1.Point2.Data.StartCondition, 
TestParameter, AutoAnalysis.Line1.GradientExpr, 0
TestParameter, AutoAnalysis.Line2.Enabled, false
TestParameter, AutoAnalysis.Line2.Type, 1
TestParameter, AutoAnalysis.Line2.Fix, True
TestParameter, AutoAnalysis.Line2.YAxis, 0
TestParameter, AutoAnalysis.Line2.Point1.Type, 0
TestParameter, AutoAnalysis.Line2.Point1.XY.X, 
TestParameter, AutoAnalysis.Line2.Point1.XY.Y, 
TestParameter, AutoAnalysis.Line2.Point1.Data.Var, 
TestParameter, AutoAnalysis.Line2.Point1.Data.Condition, 
TestParameter, AutoAnalysis.Line2.Point1.Data.Start, false
TestParameter, AutoAnalysis.Line2.Point1.Data.StartVar, 
TestParameter, AutoAnalysis.Line2.Point1.Data.StartCondition, 
TestParameter, AutoAnalysis.Line2.Point2.Type, 0
TestParameter, AutoAnalysis.Line2.Point2.XY.X, 
TestParameter, AutoAnalysis.Line2.Point2.XY.Y, 
TestParameter, AutoAnalysis.Line2.Point2.Data.Var, 
TestParameter, AutoAnalysis.Line2.Point2.Data.Condition, 
TestParameter, AutoAnalysis.Line2.Point2.Data.Start, false
TestParameter, AutoAnalysis.Line2.Point2.Data.StartVar, 
TestParameter, AutoAnalysis.Line2.Point2.Data.StartCondition, 
TestParameter, AutoAnalysis.Line2.GradientExpr, 0
TestParameter, AutoAnalysis.Marker.Enabled, false
TestParameter, AutoAnalysis.Marker.Data.Var, 
TestParameter, AutoAnalysis.Marker.Data.Condition, 
TestParameter, AutoAnalysis.Marker.Data.Start, false
TestParameter, AutoAnalysis.Marker.Data.StartVar, 
TestParameter, AutoAnalysis.Marker.Data.StartCondition, 
MetaData, TestRecord.EntryPoint, true
MetaData, TestRecord.RecordTime, 04/29/2020 20:00:11
MetaData, TestRecord.TestTarget, S45-NW-D20-ExtBJT VB:0.64V
MetaData, TestRecord.IterationIndex, 1
MetaData, TestRecord.Preservation, true
MetaData, TestRecord.Flag, 
MetaData, TestRecord.Remarks, 
MetaData, TestRecord.LinkKey, 24b13c7b-c3d8-4b92-9249-b2956235f203
MetaData, TestRecord.Parameters, 
Dimension1, 242, 242, 242
Dimension2, 1, 1, 1
DataName, V_TE, I_TE, absI
DataValue, 0, -6.8E-13, 6.8E-13
DataValue, 0.01, 6.9000000000000009E-13, 6.9000000000000009E-13
DataValue, 0.02, 4.2000000000000003E-13, 4.2000000000000003E-13
DataValue, 0.030000000000000002, 1.6600000000000002E-12, 1.6600000000000002E-12
DataValue, 0.04, 5.9E-13, 5.9E-13
DataValue, 0.05, 1.13E-12, 1.13E-12
DataValue, 0.060000000000000005, 2E-13, 2E-13
DataValue, 0.07, 2.1500000000000003E-12, 2.1500000000000003E-12
DataValue, 0.08, 8.7E-13, 8.7E-13
DataValue, 0.090000000000000011, 2.18E-12, 2.18E-12
DataValue, 0.1, 1.5200000000000002E-12, 1.5200000000000002E-12
DataValue, 0.11, 2.74E-12, 2.74E-12
DataValue, 0.12000000000000001, 1.7200000000000001E-12, 1.7200000000000001E-12
DataValue, 0.13, 2.3800000000000004E-12, 2.3800000000000004E-12
DataValue, 0.14, 3.0400000000000004E-12, 3.0400000000000004E-12
DataValue, 0.15, 3.5400000000000003E-12, 3.5400000000000003E-12
DataValue, 0.16, 3.7400000000000006E-12, 3.7400000000000006E-12
DataValue, 0.17, 4.18E-12, 4.18E-12
DataValue, 0.18000000000000002, 3.81E-12, 3.81E-12
DataValue, 0.19, 4.26E-12, 4.26E-12
DataValue, 0.2, 4.8100000000000007E-12, 4.8100000000000007E-12
DataValue, 0.21000000000000002, 4.8600000000000007E-12, 4.8600000000000007E-12
DataValue, 0.22, 5.3700000000000007E-12, 5.3700000000000007E-12
DataValue, 0.23, 9.45E-12, 9.45E-12
DataValue, 0.24000000000000002, 7.1300000000000005E-12, 7.1300000000000005E-12
DataValue, 0.25, 7.42E-12, 7.42E-12
DataValue, 0.26, 7.4800000000000012E-12, 7.4800000000000012E-12
DataValue, 0.27, 8.52E-12, 8.52E-12
DataValue, 0.28, 9.3100000000000013E-12, 9.3100000000000013E-12
DataValue, 0.29000000000000004, 9.58E-12, 9.58E-12
DataValue, 0.3, 9.53E-12, 9.53E-12
DataValue, 0.31, 1.0320000000000001E-11, 1.0320000000000001E-11
DataValue, 0.32, 1.221E-11, 1.221E-11
DataValue, 0.33, 1.1330000000000001E-11, 1.1330000000000001E-11
DataValue, 0.34, 1.3270000000000001E-11, 1.3270000000000001E-11
DataValue, 0.35000000000000003, 1.332E-11, 1.332E-11
DataValue, 0.36000000000000004, 1.586E-11, 1.586E-11
DataValue, 0.37, 3.3627E-09, 3.3627E-09
DataValue, 0.38, 2.7734E-09, 2.7734E-09
DataValue, 0.39, 2.1241E-09, 2.1241E-09
DataValue, 0.4, 4.8807E-09, 4.8807E-09
DataValue, 0.41000000000000003, 2.1453E-09, 2.1453E-09
DataValue, 0.42000000000000004, 3.6989E-09, 3.6989E-09
DataValue, 0.43, 4.2208E-09, 4.2208E-09
DataValue, 0.44, 4.9787599999999994E-08, 4.9787599999999994E-08
DataValue, 0.45, 1.2702E-05, 1.2702E-05
DataValue, 0.46, 1.2800000000000001E-05, 1.2800000000000001E-05
DataValue, 0.47000000000000003, 1.289E-05, 1.289E-05
DataValue, 0.48000000000000004, 1.2932000000000001E-05, 1.2932000000000001E-05
DataValue, 0.49000000000000005, 1.2976E-05, 1.2976E-05
DataValue, 0.5, 1.305E-05, 1.305E-05
DataValue, 0.51, 1.3112E-05, 1.3112E-05
DataValue, 0.52, 1.3176E-05, 1.3176E-05
DataValue, 0.53, 1.328E-05, 1.328E-05
DataValue, 0.54, 1.3354000000000001E-05, 1.3354000000000001E-05
DataValue, 0.55, 1.3402E-05, 1.3402E-05
DataValue, 0.56, 1.3472E-05, 1.3472E-05
DataValue, 0.57000000000000006, 1.3536E-05, 1.3536E-05
DataValue, 0.58000000000000007, 1.3614E-05, 1.3614E-05
DataValue, 0.59000000000000008, 1.3694E-05, 1.3694E-05
DataValue, 0.6, 1.3734000000000001E-05, 1.3734000000000001E-05
DataValue, 0.61, 1.3832E-05, 1.3832E-05
DataValue, 0.62, 1.3926E-05, 1.3926E-05
DataValue, 0.63, 1.3974E-05, 1.3974E-05
DataValue, 0.64, 1.4016000000000001E-05, 1.4016000000000001E-05
DataValue, 0.65, 1.4062E-05, 1.4062E-05
DataValue, 0.66, 1.4132000000000001E-05, 1.4132000000000001E-05
DataValue, 0.67, 1.4200000000000001E-05, 1.4200000000000001E-05
DataValue, 0.68, 1.4294E-05, 1.4294E-05
DataValue, 0.69000000000000006, 1.4370000000000001E-05, 1.4370000000000001E-05
DataValue, 0.70000000000000007, 1.4472000000000001E-05, 1.4472000000000001E-05
DataValue, 0.71000000000000008, 1.4560000000000001E-05, 1.4560000000000001E-05
DataValue, 0.72000000000000008, 1.4586E-05, 1.4586E-05
DataValue, 0.73, 1.465E-05, 1.465E-05
DataValue, 0.74, 1.4734E-05, 1.4734E-05
DataValue, 0.75, 1.4874E-05, 1.4874E-05
DataValue, 0.76, 1.4916E-05, 1.4916E-05
DataValue, 0.77, 1.5054E-05, 1.5054E-05
DataValue, 0.78, 1.5074E-05, 1.5074E-05
DataValue, 0.79, 1.5136E-05, 1.5136E-05
DataValue, 0.8, 1.5206E-05, 1.5206E-05
DataValue, 0.81, 1.5278000000000002E-05, 1.5278000000000002E-05
DataValue, 0.82000000000000006, 1.5344E-05, 1.5344E-05
DataValue, 0.83000000000000007, 1.5422E-05, 1.5422E-05
DataValue, 0.84000000000000008, 1.55E-05, 1.55E-05
DataValue, 0.85000000000000009, 1.561E-05, 1.561E-05
DataValue, 0.86, 1.568E-05, 1.568E-05
DataValue, 0.87, 1.5734000000000002E-05, 1.5734000000000002E-05
DataValue, 0.88, 1.5806E-05, 1.5806E-05
DataValue, 0.89, 1.5892E-05, 1.5892E-05
DataValue, 0.9, 1.5982E-05, 1.5982E-05
DataValue, 0.91, 1.6068E-05, 1.6068E-05
DataValue, 0.92, 1.6152E-05, 1.6152E-05
DataValue, 0.93, 1.6212E-05, 1.6212E-05
DataValue, 0.94000000000000006, 1.6292E-05, 1.6292E-05
DataValue, 0.95000000000000007, 1.6372000000000002E-05, 1.6372000000000002E-05
DataValue, 0.96000000000000008, 1.6434000000000002E-05, 1.6434000000000002E-05
DataValue, 0.97000000000000008, 1.6584E-05, 1.6584E-05
DataValue, 0.98000000000000009, 1.6630000000000002E-05, 1.6630000000000002E-05
DataValue, 0.9900000000000001, 1.6726000000000002E-05, 1.6726000000000002E-05
DataValue, 1, 1.6808E-05, 1.6808E-05
DataValue, 1.01, 1.688E-05, 1.688E-05
DataValue, 1.02, 1.7118E-05, 1.7118E-05
DataValue, 1.03, 1.7202E-05, 1.7202E-05
DataValue, 1.04, 1.7310000000000002E-05, 1.7310000000000002E-05
DataValue, 1.05, 1.7398000000000002E-05, 1.7398000000000002E-05
DataValue, 1.06, 1.7488E-05, 1.7488E-05
DataValue, 1.07, 1.7568000000000002E-05, 1.7568000000000002E-05
DataValue, 1.08, 1.76E-05, 1.76E-05
DataValue, 1.09, 1.7686E-05, 1.7686E-05
DataValue, 1.1, 1.7802E-05, 1.7802E-05
DataValue, 1.11, 1.7868E-05, 1.7868E-05
DataValue, 1.12, 1.8008E-05, 1.8008E-05
DataValue, 1.1300000000000001, 1.806E-05, 1.806E-05
DataValue, 1.1400000000000001, 1.8146000000000002E-05, 1.8146000000000002E-05
DataValue, 1.1500000000000001, 1.8218E-05, 1.8218E-05
DataValue, 1.1600000000000001, 1.8284E-05, 1.8284E-05
DataValue, 1.1700000000000002, 1.8406E-05, 1.8406E-05
DataValue, 1.1800000000000002, 1.845E-05, 1.845E-05
DataValue, 1.19, 1.8544E-05, 1.8544E-05
DataValue, 1.2, 1.8662000000000002E-05, 1.8662000000000002E-05
DataValue, 1.2, 1.8652E-05, 1.8652E-05
DataValue, 1.19, 1.8576E-05, 1.8576E-05
DataValue, 1.1800000000000002, 1.849E-05, 1.849E-05
DataValue, 1.1700000000000002, 1.8414E-05, 1.8414E-05
DataValue, 1.1600000000000001, 1.8322000000000002E-05, 1.8322000000000002E-05
DataValue, 1.1500000000000001, 1.8200000000000002E-05, 1.8200000000000002E-05
DataValue, 1.1400000000000001, 1.8114E-05, 1.8114E-05
DataValue, 1.1300000000000001, 1.8018E-05, 1.8018E-05
DataValue, 1.12, 1.7952E-05, 1.7952E-05
DataValue, 1.11, 1.7860000000000002E-05, 1.7860000000000002E-05
DataValue, 1.1, 1.776E-05, 1.776E-05
DataValue, 1.09, 1.7658E-05, 1.7658E-05
DataValue, 1.08, 1.7584E-05, 1.7584E-05
DataValue, 1.07, 1.7498E-05, 1.7498E-05
DataValue, 1.06, 1.7414E-05, 1.7414E-05
DataValue, 1.05, 1.7336E-05, 1.7336E-05
DataValue, 1.04, 1.7252E-05, 1.7252E-05
DataValue, 1.03, 1.7158E-05, 1.7158E-05
DataValue, 1.02, 1.7082E-05, 1.7082E-05
DataValue, 1.01, 1.7038000000000002E-05, 1.7038000000000002E-05
DataValue, 1, 1.6958E-05, 1.6958E-05
DataValue, 0.9900000000000001, 1.686E-05, 1.686E-05
DataValue, 0.98000000000000009, 1.679E-05, 1.679E-05
DataValue, 0.97000000000000008, 1.6716E-05, 1.6716E-05
DataValue, 0.96000000000000008, 1.6622E-05, 1.6622E-05
DataValue, 0.95000000000000007, 1.6504E-05, 1.6504E-05
DataValue, 0.94000000000000006, 1.6436E-05, 1.6436E-05
DataValue, 0.93, 1.6368E-05, 1.6368E-05
DataValue, 0.92, 1.6278E-05, 1.6278E-05
DataValue, 0.91, 1.6194E-05, 1.6194E-05
DataValue, 0.9, 1.6128000000000002E-05, 1.6128000000000002E-05
DataValue, 0.89, 1.6024E-05, 1.6024E-05
DataValue, 0.88, 1.5942E-05, 1.5942E-05
DataValue, 0.87, 1.5882E-05, 1.5882E-05
DataValue, 0.86, 1.5808000000000002E-05, 1.5808000000000002E-05
DataValue, 0.85000000000000009, 1.5740000000000002E-05, 1.5740000000000002E-05
DataValue, 0.84000000000000008, 1.5664E-05, 1.5664E-05
DataValue, 0.83000000000000007, 1.559E-05, 1.559E-05
DataValue, 0.82000000000000006, 1.5506E-05, 1.5506E-05
DataValue, 0.81, 1.5424E-05, 1.5424E-05
DataValue, 0.8, 1.5358E-05, 1.5358E-05
DataValue, 0.79, 1.528E-05, 1.528E-05
DataValue, 0.78, 1.5206E-05, 1.5206E-05
DataValue, 0.77, 1.5136E-05, 1.5136E-05
DataValue, 0.76, 1.5042000000000001E-05, 1.5042000000000001E-05
DataValue, 0.75, 1.4956E-05, 1.4956E-05
DataValue, 0.74, 1.4898E-05, 1.4898E-05
DataValue, 0.73, 1.4832000000000001E-05, 1.4832000000000001E-05
DataValue, 0.72000000000000008, 1.4750000000000001E-05, 1.4750000000000001E-05
DataValue, 0.71000000000000008, 1.4698E-05, 1.4698E-05
DataValue, 0.70000000000000007, 1.4616E-05, 1.4616E-05
DataValue, 0.69000000000000006, 1.4532E-05, 1.4532E-05
DataValue, 0.68, 1.4444000000000001E-05, 1.4444000000000001E-05
DataValue, 0.67, 1.4362E-05, 1.4362E-05
DataValue, 0.66, 1.428E-05, 1.428E-05
DataValue, 0.65, 1.4222E-05, 1.4222E-05
DataValue, 0.64, 1.4148E-05, 1.4148E-05
DataValue, 0.63, 1.4056E-05, 1.4056E-05
DataValue, 0.62, 1.397E-05, 1.397E-05
DataValue, 0.61, 1.3928000000000001E-05, 1.3928000000000001E-05
DataValue, 0.6, 1.3842E-05, 1.3842E-05
DataValue, 0.59000000000000008, 1.3782000000000001E-05, 1.3782000000000001E-05
DataValue, 0.58000000000000007, 1.3692E-05, 1.3692E-05
DataValue, 0.57000000000000006, 1.3626000000000001E-05, 1.3626000000000001E-05
DataValue, 0.56, 1.3562E-05, 1.3562E-05
DataValue, 0.55, 1.3482E-05, 1.3482E-05
DataValue, 0.54, 1.3404E-05, 1.3404E-05
DataValue, 0.53, 1.3342E-05, 1.3342E-05
DataValue, 0.52, 1.324E-05, 1.324E-05
DataValue, 0.51, 1.3194000000000001E-05, 1.3194000000000001E-05
DataValue, 0.5, 1.312E-05, 1.312E-05
DataValue, 0.49000000000000005, 1.3062000000000001E-05, 1.3062000000000001E-05
DataValue, 0.48000000000000004, 1.2994000000000001E-05, 1.2994000000000001E-05
DataValue, 0.47000000000000003, 1.2908E-05, 1.2908E-05
DataValue, 0.46, 1.2856E-05, 1.2856E-05
DataValue, 0.45, 1.2792E-05, 1.2792E-05
DataValue, 0.44, 1.2698000000000001E-05, 1.2698000000000001E-05
DataValue, 0.43, 1.2644000000000001E-05, 1.2644000000000001E-05
DataValue, 0.42000000000000004, 1.2568E-05, 1.2568E-05
DataValue, 0.41000000000000003, 1.2498000000000001E-05, 1.2498000000000001E-05
DataValue, 0.4, 1.2426000000000001E-05, 1.2426000000000001E-05
DataValue, 0.39, 1.2326E-05, 1.2326E-05
DataValue, 0.38, 1.2248E-05, 1.2248E-05
DataValue, 0.37, 1.2154000000000001E-05, 1.2154000000000001E-05
DataValue, 0.36000000000000004, 1.2094E-05, 1.2094E-05
DataValue, 0.35000000000000003, 1.1956E-05, 1.1956E-05
DataValue, 0.34, 1.1852000000000001E-05, 1.1852000000000001E-05
DataValue, 0.33, 1.1726000000000001E-05, 1.1726000000000001E-05
DataValue, 0.32, 1.1756E-05, 1.1756E-05
DataValue, 0.31, 1.1606E-05, 1.1606E-05
DataValue, 0.3, 1.145E-05, 1.145E-05
DataValue, 0.29000000000000004, 1.1274E-05, 1.1274E-05
DataValue, 0.28, 1.1084000000000001E-05, 1.1084000000000001E-05
DataValue, 0.27, 1.0884000000000001E-05, 1.0884000000000001E-05
DataValue, 0.26, 1.059E-05, 1.059E-05
DataValue, 0.25, 1.0350000000000001E-05, 1.0350000000000001E-05
DataValue, 0.24000000000000002, 1.0048000000000001E-05, 1.0048000000000001E-05
DataValue, 0.23, 9.7505000000000009E-06, 9.7505000000000009E-06
DataValue, 0.22, 9.3906000000000012E-06, 9.3906000000000012E-06
DataValue, 0.21000000000000002, 9.0816000000000013E-06, 9.0816000000000013E-06
DataValue, 0.2, 8.6891000000000012E-06, 8.6891000000000012E-06
DataValue, 0.19, 8.3031E-06, 8.3031E-06
DataValue, 0.18000000000000002, 7.9134000000000012E-06, 7.9134000000000012E-06
DataValue, 0.17, 7.5239000000000009E-06, 7.5239000000000009E-06
DataValue, 0.16, 7.1092000000000005E-06, 7.1092000000000005E-06
DataValue, 0.15, 6.7027000000000011E-06, 6.7027000000000011E-06
DataValue, 0.14, 6.2872000000000006E-06, 6.2872000000000006E-06
DataValue, 0.13, 5.8062E-06, 5.8062E-06
DataValue, 0.12000000000000001, 5.4076000000000005E-06, 5.4076000000000005E-06
DataValue, 0.11, 4.9527000000000009E-06, 4.9527000000000009E-06
DataValue, 0.1, 4.5277000000000007E-06, 4.5277000000000007E-06
DataValue, 0.090000000000000011, 4.0792000000000007E-06, 4.0792000000000007E-06
DataValue, 0.08, 3.6539000000000003E-06, 3.6539000000000003E-06
DataValue, 0.07, 3.1806000000000005E-06, 3.1806000000000005E-06
DataValue, 0.060000000000000005, 2.7230000000000004E-06, 2.7230000000000004E-06
DataValue, 0.05, 2.2743000000000004E-06, 2.2743000000000004E-06
DataValue, 0.04, 1.8401000000000002E-06, 1.8401000000000002E-06
DataValue, 0.030000000000000002, 1.3852E-06, 1.3852E-06
DataValue, 0.02, 9.27E-07, 9.27E-07
DataValue, 0.01, 4.6896E-07, 4.6896E-07
DataValue, 0, 9.2864E-09, 9.2864E-09