
SetupTitle, POS SET EXT-BJT [B-0.64V ICC-1m] TE 1.2 V
PrimitiveTest, I/V Sweep
TestParameter, Context.MainFrame, B1500A
TestParameter, Channel.UnitType, SMU, SMU, SMU
TestParameter, Channel.Unit, SMU2:HR, SMU4:HR, SMU3:HR
TestParameter, Channel.IName, I_TE, I_G, I_BE
TestParameter, Channel.VName, V_TE, V_G, V_BE
TestParameter, Channel.Mode, V, V, COMMON
TestParameter, Channel.Func, VAR1, CONST, CONST
TestParameter, Channel.Index, 
TestParameter, Channel.Time, 
TestParameter, Measurement.Port.Unit, SMU2:HR, SMU4:HR, SMU3:HR
TestParameter, Measurement.Port.SeriesResistor, NONE, NONE, NONE
TestParameter, Measurement.Port.Filter, ON, ON, ON
TestParameter, Measurement.Port.OutputVoltageComparison, 0, 0, 0
TestParameter, Measurement.Primary.Locus, Double
TestParameter, Measurement.Primary.Scale, LINEAR
TestParameter, Measurement.Primary.Start, 0
TestParameter, Measurement.Primary.Stop, 1.2
TestParameter, Measurement.Primary.Step, 0.01
TestParameter, Measurement.Primary.Compliance, 0.001
TestParameter, Measurement.Primary.PowerCompliance, 0
TestParameter, Measurement.Aborting.Condition, CONTINUE AT ANY
TestParameter, Measurement.PostOutput.Value, START
TestParameter, Measurement.PostOutput.Retention, OFF
TestParameter, Measurement.Bias.Source, 0, 0.64, 0
TestParameter, Measurement.Bias.Compliance, 0.001, 0.0001, 0.1
TestParameter, Measurement.Monitor.Unit, SMU2:HR, SMU4:HR, SMU3:HR
TestParameter, Measurement.Monitor.Adc, HR ADC, HR ADC, HR ADC
TestParameter, Measurement.Monitor.Measurement, Compliance Side, Compliance Side, Compliance Side
TestParameter, Measurement.Monitor.RangingMode, LIMITED, LIMITED, LIMITED
TestParameter, Measurement.Monitor.RangeBoundary, 1nA, 1nA, 1nA
TestParameter, Measurement.Monitor.RangeRating, BY FULL RANGE, BY FULL RANGE, BY FULL RANGE
TestParameter, Measurement.Monitor.RangeRatingCoeff, 50, 50, 50
TestParameter, Measurement.Timing.Hold, 0.01
TestParameter, Measurement.Timing.Delay, 0
TestParameter, Measurement.Adc.HighSpeed.Mode, AUTO
TestParameter, Measurement.Adc.HighSpeed.Coeff, 1
TestParameter, Measurement.Adc.HighResolution.AutoZero, OFF
TestParameter, Measurement.Adc.HighResolution.Mode, AUTO
TestParameter, Measurement.Adc.HighResolution.Coeff, 6
TestParameter, Measurement.WaitTime.Source.Coeff, 1
TestParameter, Measurement.WaitTime.Source.Offset, 0
TestParameter, Measurement.WaitTime.Monitor.Coeff, 1
TestParameter, Measurement.WaitTime.Monitor.Offset, 0
TestParameter, Function.User.Name, absI
TestParameter, Function.User.Unit, A
TestParameter, Function.User.Definition, abs(I_TE)
TestParameter, Output.Graph.Enabled, true
TestParameter, Output.Graph.AutoScaling, false
TestParameter, Output.Graph.XAxis.Data, V_TE
TestParameter, Output.Graph.XAxis.Scale, Linear
TestParameter, Output.Graph.XAxis.Left, 0
TestParameter, Output.Graph.XAxis.Right, 5
TestParameter, Output.Graph.XAxis.RunTimeAutoScale, true
TestParameter, Output.Graph.YAxis.Data, absI
TestParameter, Output.Graph.YAxis.Scale, Log
TestParameter, Output.Graph.YAxis.Bottom, 0
TestParameter, Output.Graph.YAxis.Top, 1
TestParameter, Output.Graph.YAxis.Group, 
TestParameter, Output.Graph.YAxis.RunTimeAutoScale, true
TestParameter, AutoAnalysis.Interpolation, false
TestParameter, AutoAnalysis.Var2StepCount, 1
TestParameter, AutoAnalysis.Var2StepScript, 
TestParameter, AutoAnalysis.Line1.Enabled, false
TestParameter, AutoAnalysis.Line1.Type, 1
TestParameter, AutoAnalysis.Line1.Fix, True
TestParameter, AutoAnalysis.Line1.YAxis, 0
TestParameter, AutoAnalysis.Line1.Point1.Type, 0
TestParameter, AutoAnalysis.Line1.Point1.XY.X, 
TestParameter, AutoAnalysis.Line1.Point1.XY.Y, 
TestParameter, AutoAnalysis.Line1.Point1.Data.Var, 
TestParameter, AutoAnalysis.Line1.Point1.Data.Condition, 
TestParameter, AutoAnalysis.Line1.Point1.Data.Start, false
TestParameter, AutoAnalysis.Line1.Point1.Data.StartVar, 
TestParameter, AutoAnalysis.Line1.Point1.Data.StartCondition, 
TestParameter, AutoAnalysis.Line1.Point2.Type, 0
TestParameter, AutoAnalysis.Line1.Point2.XY.X, 
TestParameter, AutoAnalysis.Line1.Point2.XY.Y, 
TestParameter, AutoAnalysis.Line1.Point2.Data.Var, 
TestParameter, AutoAnalysis.Line1.Point2.Data.Condition, 
TestParameter, AutoAnalysis.Line1.Point2.Data.Start, false
TestParameter, AutoAnalysis.Line1.Point2.Data.StartVar, 
TestParameter, AutoAnalysis.Line1.Point2.Data.StartCondition, 
TestParameter, AutoAnalysis.Line1.GradientExpr, 0
TestParameter, AutoAnalysis.Line2.Enabled, false
TestParameter, AutoAnalysis.Line2.Type, 1
TestParameter, AutoAnalysis.Line2.Fix, True
TestParameter, AutoAnalysis.Line2.YAxis, 0
TestParameter, AutoAnalysis.Line2.Point1.Type, 0
TestParameter, AutoAnalysis.Line2.Point1.XY.X, 
TestParameter, AutoAnalysis.Line2.Point1.XY.Y, 
TestParameter, AutoAnalysis.Line2.Point1.Data.Var, 
TestParameter, AutoAnalysis.Line2.Point1.Data.Condition, 
TestParameter, AutoAnalysis.Line2.Point1.Data.Start, false
TestParameter, AutoAnalysis.Line2.Point1.Data.StartVar, 
TestParameter, AutoAnalysis.Line2.Point1.Data.StartCondition, 
TestParameter, AutoAnalysis.Line2.Point2.Type, 0
TestParameter, AutoAnalysis.Line2.Point2.XY.X, 
TestParameter, AutoAnalysis.Line2.Point2.XY.Y, 
TestParameter, AutoAnalysis.Line2.Point2.Data.Var, 
TestParameter, AutoAnalysis.Line2.Point2.Data.Condition, 
TestParameter, AutoAnalysis.Line2.Point2.Data.Start, false
TestParameter, AutoAnalysis.Line2.Point2.Data.StartVar, 
TestParameter, AutoAnalysis.Line2.Point2.Data.StartCondition, 
TestParameter, AutoAnalysis.Line2.GradientExpr, 0
TestParameter, AutoAnalysis.Marker.Enabled, false
TestParameter, AutoAnalysis.Marker.Data.Var, 
TestParameter, AutoAnalysis.Marker.Data.Condition, 
TestParameter, AutoAnalysis.Marker.Data.Start, false
TestParameter, AutoAnalysis.Marker.Data.StartVar, 
TestParameter, AutoAnalysis.Marker.Data.StartCondition, 
MetaData, TestRecord.EntryPoint, true
MetaData, TestRecord.RecordTime, 04/29/2020 20:02:15
MetaData, TestRecord.TestTarget, S45-NW-D20-ExtBJT VB:0.64V
MetaData, TestRecord.IterationIndex, 9
MetaData, TestRecord.Preservation, true
MetaData, TestRecord.Flag, 
MetaData, TestRecord.Remarks, 
MetaData, TestRecord.LinkKey, bfc36aa2-d19b-44fe-b458-a01a2bed4365
MetaData, TestRecord.Parameters, 
Dimension1, 242, 242, 242
Dimension2, 1, 1, 1
DataName, V_TE, I_TE, absI
DataValue, 0, 8.7E-13, 8.7E-13
DataValue, 0.01, -4.3000000000000004E-13, 4.3000000000000004E-13
DataValue, 0.02, 1.6600000000000002E-12, 1.6600000000000002E-12
DataValue, 0.030000000000000002, 3.0000000000000003E-13, 3.0000000000000003E-13
DataValue, 0.04, 2.47E-12, 2.47E-12
DataValue, 0.05, 4.7E-13, 4.7E-13
DataValue, 0.060000000000000005, 2.5300000000000003E-12, 2.5300000000000003E-12
DataValue, 0.07, 1.18E-12, 1.18E-12
DataValue, 0.08, 3.4100000000000002E-12, 3.4100000000000002E-12
DataValue, 0.090000000000000011, 1.85E-12, 1.85E-12
DataValue, 0.1, 4.8000000000000005E-12, 4.8000000000000005E-12
DataValue, 0.11, 2.4300000000000003E-12, 2.4300000000000003E-12
DataValue, 0.12000000000000001, 5.6E-12, 5.6E-12
DataValue, 0.13, 4.27E-12, 4.27E-12
DataValue, 0.14, 7.33E-12, 7.33E-12
DataValue, 0.15, 8.34E-12, 8.34E-12
DataValue, 0.16, 1.1860000000000002E-11, 1.1860000000000002E-11
DataValue, 0.17, 9.0800000000000009E-12, 9.0800000000000009E-12
DataValue, 0.18000000000000002, 1.289E-11, 1.289E-11
DataValue, 0.19, 9.65E-12, 9.65E-12
DataValue, 0.2, 1.3560000000000001E-11, 1.3560000000000001E-11
DataValue, 0.21000000000000002, 8.9100000000000014E-12, 8.9100000000000014E-12
DataValue, 0.22, 1.1340000000000001E-11, 1.1340000000000001E-11
DataValue, 0.23, 1.1640000000000001E-11, 1.1640000000000001E-11
DataValue, 0.24000000000000002, 1.198E-11, 1.198E-11
DataValue, 0.25, 1.6270000000000002E-11, 1.6270000000000002E-11
DataValue, 0.26, 2.0170000000000003E-11, 2.0170000000000003E-11
DataValue, 0.27, 1.717E-11, 1.717E-11
DataValue, 0.28, 2.0310000000000002E-11, 2.0310000000000002E-11
DataValue, 0.29000000000000004, 2.098E-11, 2.098E-11
DataValue, 0.3, 2.2460000000000002E-11, 2.2460000000000002E-11
DataValue, 0.31, 3.2980000000000005E-11, 3.2980000000000005E-11
DataValue, 0.32, 3.4400000000000005E-11, 3.4400000000000005E-11
DataValue, 0.33, 1.2084000000000002E-10, 1.2084000000000002E-10
DataValue, 0.34, 8.9089E-06, 8.9089E-06
DataValue, 0.35000000000000003, 8.5784E-06, 8.5784E-06
DataValue, 0.36000000000000004, 7.6853E-06, 7.6853E-06
DataValue, 0.37, 7.1945E-06, 7.1945E-06
DataValue, 0.38, 8.5699E-06, 8.5699E-06
DataValue, 0.39, 8.3026E-06, 8.3026E-06
DataValue, 0.4, 1.0960700000000002E-05, 1.0960700000000002E-05
DataValue, 0.41000000000000003, 1.1231100000000002E-05, 1.1231100000000002E-05
DataValue, 0.42000000000000004, 1.06899E-05, 1.06899E-05
DataValue, 0.43, 1.0984E-05, 1.0984E-05
DataValue, 0.44, 1.1572E-05, 1.1572E-05
DataValue, 0.45, 1.234E-05, 1.234E-05
DataValue, 0.46, 1.2784E-05, 1.2784E-05
DataValue, 0.47000000000000003, 1.291E-05, 1.291E-05
DataValue, 0.48000000000000004, 1.2994000000000001E-05, 1.2994000000000001E-05
DataValue, 0.49000000000000005, 1.3058000000000001E-05, 1.3058000000000001E-05
DataValue, 0.5, 1.303E-05, 1.303E-05
DataValue, 0.51, 1.31E-05, 1.31E-05
DataValue, 0.52, 1.3186E-05, 1.3186E-05
DataValue, 0.53, 1.3076E-05, 1.3076E-05
DataValue, 0.54, 1.3180000000000001E-05, 1.3180000000000001E-05
DataValue, 0.55, 1.3236E-05, 1.3236E-05
DataValue, 0.56, 1.3236E-05, 1.3236E-05
DataValue, 0.57000000000000006, 1.3392E-05, 1.3392E-05
DataValue, 0.58000000000000007, 1.3424E-05, 1.3424E-05
DataValue, 0.59000000000000008, 1.3484E-05, 1.3484E-05
DataValue, 0.6, 1.3588000000000001E-05, 1.3588000000000001E-05
DataValue, 0.61, 1.3686E-05, 1.3686E-05
DataValue, 0.62, 1.3762E-05, 1.3762E-05
DataValue, 0.63, 1.3806000000000001E-05, 1.3806000000000001E-05
DataValue, 0.64, 1.3714000000000001E-05, 1.3714000000000001E-05
DataValue, 0.65, 1.3870000000000001E-05, 1.3870000000000001E-05
DataValue, 0.66, 1.3956E-05, 1.3956E-05
DataValue, 0.67, 1.4084000000000001E-05, 1.4084000000000001E-05
DataValue, 0.68, 1.4154E-05, 1.4154E-05
DataValue, 0.69000000000000006, 1.4240000000000001E-05, 1.4240000000000001E-05
DataValue, 0.70000000000000007, 1.4370000000000001E-05, 1.4370000000000001E-05
DataValue, 0.71000000000000008, 1.4336000000000001E-05, 1.4336000000000001E-05
DataValue, 0.72000000000000008, 1.445E-05, 1.445E-05
DataValue, 0.73, 1.4516000000000001E-05, 1.4516000000000001E-05
DataValue, 0.74, 1.4548E-05, 1.4548E-05
DataValue, 0.75, 1.4674E-05, 1.4674E-05
DataValue, 0.76, 1.4744E-05, 1.4744E-05
DataValue, 0.77, 1.4814E-05, 1.4814E-05
DataValue, 0.78, 1.4894E-05, 1.4894E-05
DataValue, 0.79, 1.5008000000000001E-05, 1.5008000000000001E-05
DataValue, 0.8, 1.523E-05, 1.523E-05
DataValue, 0.81, 1.5278000000000002E-05, 1.5278000000000002E-05
DataValue, 0.82000000000000006, 1.5176E-05, 1.5176E-05
DataValue, 0.83000000000000007, 1.5236000000000001E-05, 1.5236000000000001E-05
DataValue, 0.84000000000000008, 1.5360000000000002E-05, 1.5360000000000002E-05
DataValue, 0.85000000000000009, 1.54E-05, 1.54E-05
DataValue, 0.86, 1.5542E-05, 1.5542E-05
DataValue, 0.87, 1.5614E-05, 1.5614E-05
DataValue, 0.88, 1.5852E-05, 1.5852E-05
DataValue, 0.89, 1.5912E-05, 1.5912E-05
DataValue, 0.9, 1.595E-05, 1.595E-05
DataValue, 0.91, 1.5946E-05, 1.5946E-05
DataValue, 0.92, 1.6268E-05, 1.6268E-05
DataValue, 0.93, 1.6368E-05, 1.6368E-05
DataValue, 0.94000000000000006, 1.6406000000000002E-05, 1.6406000000000002E-05
DataValue, 0.95000000000000007, 1.6516E-05, 1.6516E-05
DataValue, 0.96000000000000008, 1.6658000000000002E-05, 1.6658000000000002E-05
DataValue, 0.97000000000000008, 1.6598E-05, 1.6598E-05
DataValue, 0.98000000000000009, 1.6716E-05, 1.6716E-05
DataValue, 0.9900000000000001, 1.6838E-05, 1.6838E-05
DataValue, 1, 1.6934E-05, 1.6934E-05
DataValue, 1.01, 1.696E-05, 1.696E-05
DataValue, 1.02, 1.7088E-05, 1.7088E-05
DataValue, 1.03, 1.715E-05, 1.715E-05
DataValue, 1.04, 1.722E-05, 1.722E-05
DataValue, 1.05, 1.7346E-05, 1.7346E-05
DataValue, 1.06, 1.7436E-05, 1.7436E-05
DataValue, 1.07, 1.7504E-05, 1.7504E-05
DataValue, 1.08, 1.764E-05, 1.764E-05
DataValue, 1.09, 1.7752000000000002E-05, 1.7752000000000002E-05
DataValue, 1.1, 1.7844E-05, 1.7844E-05
DataValue, 1.11, 1.7888000000000002E-05, 1.7888000000000002E-05
DataValue, 1.12, 1.7964E-05, 1.7964E-05
DataValue, 1.1300000000000001, 1.8054E-05, 1.8054E-05
DataValue, 1.1400000000000001, 1.8026E-05, 1.8026E-05
DataValue, 1.1500000000000001, 1.8178E-05, 1.8178E-05
DataValue, 1.1600000000000001, 1.8402E-05, 1.8402E-05
DataValue, 1.1700000000000002, 1.8492000000000002E-05, 1.8492000000000002E-05
DataValue, 1.1800000000000002, 1.8646E-05, 1.8646E-05
DataValue, 1.19, 1.8678E-05, 1.8678E-05
DataValue, 1.2, 1.8844E-05, 1.8844E-05
DataValue, 1.2, 1.8824E-05, 1.8824E-05
DataValue, 1.19, 1.8688E-05, 1.8688E-05
DataValue, 1.1800000000000002, 1.8602E-05, 1.8602E-05
DataValue, 1.1700000000000002, 1.86E-05, 1.86E-05
DataValue, 1.1600000000000001, 1.8514E-05, 1.8514E-05
DataValue, 1.1500000000000001, 1.841E-05, 1.841E-05
DataValue, 1.1400000000000001, 1.833E-05, 1.833E-05
DataValue, 1.1300000000000001, 1.8246E-05, 1.8246E-05
DataValue, 1.12, 1.8186000000000002E-05, 1.8186000000000002E-05
DataValue, 1.11, 1.8082E-05, 1.8082E-05
DataValue, 1.1, 1.804E-05, 1.804E-05
DataValue, 1.09, 1.7928000000000002E-05, 1.7928000000000002E-05
DataValue, 1.08, 1.7824E-05, 1.7824E-05
DataValue, 1.07, 1.7706E-05, 1.7706E-05
DataValue, 1.06, 1.7602000000000002E-05, 1.7602000000000002E-05
DataValue, 1.05, 1.752E-05, 1.752E-05
DataValue, 1.04, 1.742E-05, 1.742E-05
DataValue, 1.03, 1.7376E-05, 1.7376E-05
DataValue, 1.02, 1.7322E-05, 1.7322E-05
DataValue, 1.01, 1.7294E-05, 1.7294E-05
DataValue, 1, 1.7160000000000002E-05, 1.7160000000000002E-05
DataValue, 0.9900000000000001, 1.6998000000000002E-05, 1.6998000000000002E-05
DataValue, 0.98000000000000009, 1.6950000000000002E-05, 1.6950000000000002E-05
DataValue, 0.97000000000000008, 1.6834000000000002E-05, 1.6834000000000002E-05
DataValue, 0.96000000000000008, 1.6708E-05, 1.6708E-05
DataValue, 0.95000000000000007, 1.669E-05, 1.669E-05
DataValue, 0.94000000000000006, 1.6586E-05, 1.6586E-05
DataValue, 0.93, 1.6474000000000002E-05, 1.6474000000000002E-05
DataValue, 0.92, 1.6442E-05, 1.6442E-05
DataValue, 0.91, 1.6332000000000002E-05, 1.6332000000000002E-05
DataValue, 0.9, 1.6252E-05, 1.6252E-05
DataValue, 0.89, 1.6188E-05, 1.6188E-05
DataValue, 0.88, 1.6092E-05, 1.6092E-05
DataValue, 0.87, 1.5978000000000002E-05, 1.5978000000000002E-05
DataValue, 0.86, 1.5964E-05, 1.5964E-05
DataValue, 0.85000000000000009, 1.5852E-05, 1.5852E-05
DataValue, 0.84000000000000008, 1.576E-05, 1.576E-05
DataValue, 0.83000000000000007, 1.5698E-05, 1.5698E-05
DataValue, 0.82000000000000006, 1.5632000000000002E-05, 1.5632000000000002E-05
DataValue, 0.81, 1.5536E-05, 1.5536E-05
DataValue, 0.8, 1.5452E-05, 1.5452E-05
DataValue, 0.79, 1.5374000000000002E-05, 1.5374000000000002E-05
DataValue, 0.78, 1.53E-05, 1.53E-05
DataValue, 0.77, 1.5242E-05, 1.5242E-05
DataValue, 0.76, 1.5084E-05, 1.5084E-05
DataValue, 0.75, 1.5026E-05, 1.5026E-05
DataValue, 0.74, 1.497E-05, 1.497E-05
DataValue, 0.73, 1.4950000000000001E-05, 1.4950000000000001E-05
DataValue, 0.72000000000000008, 1.487E-05, 1.487E-05
DataValue, 0.71000000000000008, 1.4806E-05, 1.4806E-05
DataValue, 0.70000000000000007, 1.4740000000000001E-05, 1.4740000000000001E-05
DataValue, 0.69000000000000006, 1.4622E-05, 1.4622E-05
DataValue, 0.68, 1.4548E-05, 1.4548E-05
DataValue, 0.67, 1.4466E-05, 1.4466E-05
DataValue, 0.66, 1.4380000000000001E-05, 1.4380000000000001E-05
DataValue, 0.65, 1.4296E-05, 1.4296E-05
DataValue, 0.64, 1.4190000000000001E-05, 1.4190000000000001E-05
DataValue, 0.63, 1.4132000000000001E-05, 1.4132000000000001E-05
DataValue, 0.62, 1.3966E-05, 1.3966E-05
DataValue, 0.61, 1.3926E-05, 1.3926E-05
DataValue, 0.6, 1.3860000000000001E-05, 1.3860000000000001E-05
DataValue, 0.59000000000000008, 1.3818E-05, 1.3818E-05
DataValue, 0.58000000000000007, 1.376E-05, 1.376E-05
DataValue, 0.57000000000000006, 1.3682E-05, 1.3682E-05
DataValue, 0.56, 1.365E-05, 1.365E-05
DataValue, 0.55, 1.3592000000000001E-05, 1.3592000000000001E-05
DataValue, 0.54, 1.3514E-05, 1.3514E-05
DataValue, 0.53, 1.3406E-05, 1.3406E-05
DataValue, 0.52, 1.3354000000000001E-05, 1.3354000000000001E-05
DataValue, 0.51, 1.3296000000000001E-05, 1.3296000000000001E-05
DataValue, 0.5, 1.3234E-05, 1.3234E-05
DataValue, 0.49000000000000005, 1.3148E-05, 1.3148E-05
DataValue, 0.48000000000000004, 1.3052E-05, 1.3052E-05
DataValue, 0.47000000000000003, 1.2960000000000001E-05, 1.2960000000000001E-05
DataValue, 0.46, 1.285E-05, 1.285E-05
DataValue, 0.45, 1.2802E-05, 1.2802E-05
DataValue, 0.44, 1.2726E-05, 1.2726E-05
DataValue, 0.43, 1.2678000000000001E-05, 1.2678000000000001E-05
DataValue, 0.42000000000000004, 1.2592E-05, 1.2592E-05
DataValue, 0.41000000000000003, 1.2470000000000001E-05, 1.2470000000000001E-05
DataValue, 0.4, 1.2394E-05, 1.2394E-05
DataValue, 0.39, 1.2338000000000001E-05, 1.2338000000000001E-05
DataValue, 0.38, 1.2242E-05, 1.2242E-05
DataValue, 0.37, 1.2128E-05, 1.2128E-05
DataValue, 0.36000000000000004, 1.2062E-05, 1.2062E-05
DataValue, 0.35000000000000003, 1.1962E-05, 1.1962E-05
DataValue, 0.34, 1.1832000000000001E-05, 1.1832000000000001E-05
DataValue, 0.33, 1.1686E-05, 1.1686E-05
DataValue, 0.32, 1.1568E-05, 1.1568E-05
DataValue, 0.31, 1.1382E-05, 1.1382E-05
DataValue, 0.3, 1.1370000000000001E-05, 1.1370000000000001E-05
DataValue, 0.29000000000000004, 1.1066E-05, 1.1066E-05
DataValue, 0.28, 1.0914000000000001E-05, 1.0914000000000001E-05
DataValue, 0.27, 1.055E-05, 1.055E-05
DataValue, 0.26, 1.0318E-05, 1.0318E-05
DataValue, 0.25, 1.0056000000000002E-05, 1.0056000000000002E-05
DataValue, 0.24000000000000002, 9.6583E-06, 9.6583E-06
DataValue, 0.23, 9.3185E-06, 9.3185E-06
DataValue, 0.22, 8.8969000000000012E-06, 8.8969000000000012E-06
DataValue, 0.21000000000000002, 8.5582E-06, 8.5582E-06
DataValue, 0.2, 8.1841E-06, 8.1841E-06
DataValue, 0.19, 7.7745000000000015E-06, 7.7745000000000015E-06
DataValue, 0.18000000000000002, 7.4500000000000007E-06, 7.4500000000000007E-06
DataValue, 0.17, 7.0567000000000006E-06, 7.0567000000000006E-06
DataValue, 0.16, 6.6686000000000008E-06, 6.6686000000000008E-06
DataValue, 0.15, 6.3320000000000005E-06, 6.3320000000000005E-06
DataValue, 0.14, 5.8839000000000005E-06, 5.8839000000000005E-06
DataValue, 0.13, 5.480800000000001E-06, 5.480800000000001E-06
DataValue, 0.12000000000000001, 5.0623000000000006E-06, 5.0623000000000006E-06
DataValue, 0.11, 4.6521000000000007E-06, 4.6521000000000007E-06
DataValue, 0.1, 4.2852E-06, 4.2852E-06
DataValue, 0.090000000000000011, 3.8003000000000003E-06, 3.8003000000000003E-06
DataValue, 0.08, 3.3794E-06, 3.3794E-06
DataValue, 0.07, 2.9854000000000002E-06, 2.9854000000000002E-06
DataValue, 0.060000000000000005, 2.5583E-06, 2.5583E-06
DataValue, 0.05, 2.1635E-06, 2.1635E-06
DataValue, 0.04, 1.6878000000000002E-06, 1.6878000000000002E-06
DataValue, 0.030000000000000002, 1.2740000000000002E-06, 1.2740000000000002E-06
DataValue, 0.02, 8.4252E-07, 8.4252E-07
DataValue, 0.01, 4.2538E-07, 4.2538E-07
DataValue, 0, 7.5363999999999989E-09, 7.5363999999999989E-09