
SetupTitle, ExtFET - NEG RESET BE-2.0V
PrimitiveTest, I/V Sweep
TestParameter, Context.MainFrame, B1500A
TestParameter, Channel.UnitType, SMU, SMU, SMU
TestParameter, Channel.Unit, SMU2:HR, SMU4:HR, SMU3:HR
TestParameter, Channel.IName, I_TE, I_BE, I_G
TestParameter, Channel.VName, V_TE, V_BE, V_G
TestParameter, Channel.Mode, V, COMMON, V
TestParameter, Channel.Func, VAR1, CONST, CONST
TestParameter, Channel.Index, 
TestParameter, Channel.Time, 
TestParameter, Measurement.Port.Unit, SMU2:HR, SMU4:HR, SMU3:HR
TestParameter, Measurement.Port.SeriesResistor, NONE, NONE, NONE
TestParameter, Measurement.Port.Filter, ON, ON, ON
TestParameter, Measurement.Port.OutputVoltageComparison, 0, 0, 0
TestParameter, Measurement.Primary.Locus, Double
TestParameter, Measurement.Primary.Scale, LINEAR
TestParameter, Measurement.Primary.Start, 0
TestParameter, Measurement.Primary.Stop, -2
TestParameter, Measurement.Primary.Step, -0.01
TestParameter, Measurement.Primary.Compliance, 0.01
TestParameter, Measurement.Primary.PowerCompliance, 0
TestParameter, Measurement.Aborting.Condition, CONTINUE AT ANY
TestParameter, Measurement.PostOutput.Value, START
TestParameter, Measurement.PostOutput.Retention, OFF
TestParameter, Measurement.Bias.Source, 0, 0, 2
TestParameter, Measurement.Bias.Compliance, 0.01, 0.1, 0.0001
TestParameter, Measurement.Monitor.Unit, SMU2:HR, SMU4:HR, SMU3:HR
TestParameter, Measurement.Monitor.Adc, HR ADC, HR ADC, HR ADC
TestParameter, Measurement.Monitor.Measurement, Compliance Side, Compliance Side, Compliance Side
TestParameter, Measurement.Monitor.RangingMode, LIMITED, LIMITED, LIMITED
TestParameter, Measurement.Monitor.RangeBoundary, 1nA, 1nA, 1nA
TestParameter, Measurement.Monitor.RangeRating, BY FULL RANGE, BY FULL RANGE, BY FULL RANGE
TestParameter, Measurement.Monitor.RangeRatingCoeff, 50, 50, 50
TestParameter, Measurement.Timing.Hold, 0
TestParameter, Measurement.Timing.Delay, 0
TestParameter, Measurement.Adc.HighSpeed.Mode, AUTO
TestParameter, Measurement.Adc.HighSpeed.Coeff, 1
TestParameter, Measurement.Adc.HighResolution.AutoZero, OFF
TestParameter, Measurement.Adc.HighResolution.Mode, AUTO
TestParameter, Measurement.Adc.HighResolution.Coeff, 6
TestParameter, Measurement.WaitTime.Source.Coeff, 1
TestParameter, Measurement.WaitTime.Source.Offset, 0
TestParameter, Measurement.WaitTime.Monitor.Coeff, 1
TestParameter, Measurement.WaitTime.Monitor.Offset, 0
TestParameter, Function.User.Name, absITE
TestParameter, Function.User.Unit, A
TestParameter, Function.User.Definition, abs(I_TE)
TestParameter, Output.Graph.Enabled, true
TestParameter, Output.Graph.AutoScaling, false
TestParameter, Output.Graph.XAxis.Data, V_TE
TestParameter, Output.Graph.XAxis.Scale, Linear
TestParameter, Output.Graph.XAxis.Left, 0
TestParameter, Output.Graph.XAxis.Right, 10
TestParameter, Output.Graph.XAxis.RunTimeAutoScale, true
TestParameter, Output.Graph.YAxis.Data, absITE
TestParameter, Output.Graph.YAxis.Scale, Log
TestParameter, Output.Graph.YAxis.Bottom, 0
TestParameter, Output.Graph.YAxis.Top, 1
TestParameter, Output.Graph.YAxis.Group, 
TestParameter, Output.Graph.YAxis.RunTimeAutoScale, true
TestParameter, Output.List.Data, V1, I2abs
TestParameter, AutoAnalysis.Interpolation, false
TestParameter, AutoAnalysis.Var2StepCount, 1
TestParameter, AutoAnalysis.Var2StepScript, 
TestParameter, AutoAnalysis.Line1.Enabled, false
TestParameter, AutoAnalysis.Line1.Type, 1
TestParameter, AutoAnalysis.Line1.Fix, True
TestParameter, AutoAnalysis.Line1.YAxis, 0
TestParameter, AutoAnalysis.Line1.Point1.Type, 0
TestParameter, AutoAnalysis.Line1.Point1.XY.X, 
TestParameter, AutoAnalysis.Line1.Point1.XY.Y, 
TestParameter, AutoAnalysis.Line1.Point1.Data.Var, 
TestParameter, AutoAnalysis.Line1.Point1.Data.Condition, 
TestParameter, AutoAnalysis.Line1.Point1.Data.Start, false
TestParameter, AutoAnalysis.Line1.Point1.Data.StartVar, 
TestParameter, AutoAnalysis.Line1.Point1.Data.StartCondition, 
TestParameter, AutoAnalysis.Line1.Point2.Type, 0
TestParameter, AutoAnalysis.Line1.Point2.XY.X, 
TestParameter, AutoAnalysis.Line1.Point2.XY.Y, 
TestParameter, AutoAnalysis.Line1.Point2.Data.Var, 
TestParameter, AutoAnalysis.Line1.Point2.Data.Condition, 
TestParameter, AutoAnalysis.Line1.Point2.Data.Start, false
TestParameter, AutoAnalysis.Line1.Point2.Data.StartVar, 
TestParameter, AutoAnalysis.Line1.Point2.Data.StartCondition, 
TestParameter, AutoAnalysis.Line1.GradientExpr, 0
TestParameter, AutoAnalysis.Line2.Enabled, false
TestParameter, AutoAnalysis.Line2.Type, 1
TestParameter, AutoAnalysis.Line2.Fix, True
TestParameter, AutoAnalysis.Line2.YAxis, 0
TestParameter, AutoAnalysis.Line2.Point1.Type, 0
TestParameter, AutoAnalysis.Line2.Point1.XY.X, 
TestParameter, AutoAnalysis.Line2.Point1.XY.Y, 
TestParameter, AutoAnalysis.Line2.Point1.Data.Var, 
TestParameter, AutoAnalysis.Line2.Point1.Data.Condition, 
TestParameter, AutoAnalysis.Line2.Point1.Data.Start, false
TestParameter, AutoAnalysis.Line2.Point1.Data.StartVar, 
TestParameter, AutoAnalysis.Line2.Point1.Data.StartCondition, 
TestParameter, AutoAnalysis.Line2.Point2.Type, 0
TestParameter, AutoAnalysis.Line2.Point2.XY.X, 
TestParameter, AutoAnalysis.Line2.Point2.XY.Y, 
TestParameter, AutoAnalysis.Line2.Point2.Data.Var, 
TestParameter, AutoAnalysis.Line2.Point2.Data.Condition, 
TestParameter, AutoAnalysis.Line2.Point2.Data.Start, false
TestParameter, AutoAnalysis.Line2.Point2.Data.StartVar, 
TestParameter, AutoAnalysis.Line2.Point2.Data.StartCondition, 
TestParameter, AutoAnalysis.Line2.GradientExpr, 0
TestParameter, AutoAnalysis.Marker.Enabled, false
TestParameter, AutoAnalysis.Marker.Data.Var, 
TestParameter, AutoAnalysis.Marker.Data.Condition, 
TestParameter, AutoAnalysis.Marker.Data.Start, false
TestParameter, AutoAnalysis.Marker.Data.StartVar, 
TestParameter, AutoAnalysis.Marker.Data.StartCondition, 
MetaData, TestRecord.EntryPoint, true
MetaData, TestRecord.RecordTime, 04/15/2020 15:08:26
MetaData, TestRecord.TestTarget, S48_ExtFET_3D-C06_[10k-RES]_[TiN-BE]
MetaData, TestRecord.IterationIndex, 62
MetaData, TestRecord.Preservation, true
MetaData, TestRecord.Flag, 
MetaData, TestRecord.Remarks, 
MetaData, TestRecord.LinkKey, 5cc558fa-a014-43a3-b9dd-9c6e0ad7c186
MetaData, TestRecord.Parameters, 
Dimension1, 402, 402, 402, 402, 402
Dimension2, 1, 1, 1, 1, 1
DataName, V_TE, I_TE, absITE, V1, I2abs
DataValue, 0, 1.9588E-09, 1.9588E-09, , 
DataValue, -0.01, -5.4434E-07, 5.4434E-07, , 
DataValue, -0.02, -1.09304E-06, 1.09304E-06, , 
DataValue, -0.030000000000000002, -1.6480000000000002E-06, 1.6480000000000002E-06, , 
DataValue, -0.04, -2.194E-06, 2.194E-06, , 
DataValue, -0.05, -2.7399000000000002E-06, 2.7399000000000002E-06, , 
DataValue, -0.060000000000000005, -3.2877000000000003E-06, 3.2877000000000003E-06, , 
DataValue, -0.07, -3.8218E-06, 3.8218E-06, , 
DataValue, -0.08, -4.3651000000000008E-06, 4.3651000000000008E-06, , 
DataValue, -0.090000000000000011, -4.9136000000000007E-06, 4.9136000000000007E-06, , 
DataValue, -0.1, -5.4512000000000004E-06, 5.4512000000000004E-06, , 
DataValue, -0.11, -5.9943E-06, 5.9943E-06, , 
DataValue, -0.12000000000000001, -6.5307000000000008E-06, 6.5307000000000008E-06, , 
DataValue, -0.13, -7.0692000000000009E-06, 7.0692000000000009E-06, , 
DataValue, -0.14, -7.6185000000000008E-06, 7.6185000000000008E-06, , 
DataValue, -0.15, -8.1563E-06, 8.1563E-06, , 
DataValue, -0.16, -8.6974E-06, 8.6974E-06, , 
DataValue, -0.17, -9.2266E-06, 9.2266E-06, , 
DataValue, -0.18000000000000002, -9.728900000000001E-06, 9.728900000000001E-06, , 
DataValue, -0.19, -1.0277700000000002E-05, 1.0277700000000002E-05, , 
DataValue, -0.2, -1.0811600000000002E-05, 1.0811600000000002E-05, , 
DataValue, -0.21000000000000002, -1.1313500000000001E-05, 1.1313500000000001E-05, , 
DataValue, -0.22, -1.184E-05, 1.184E-05, , 
DataValue, -0.23, -1.2368E-05, 1.2368E-05, , 
DataValue, -0.24000000000000002, -1.2908E-05, 1.2908E-05, , 
DataValue, -0.25, -1.3436E-05, 1.3436E-05, , 
DataValue, -0.26, -1.3972000000000001E-05, 1.3972000000000001E-05, , 
DataValue, -0.27, -1.4488000000000001E-05, 1.4488000000000001E-05, , 
DataValue, -0.28, -1.5E-05, 1.5E-05, , 
DataValue, -0.29000000000000004, -1.552E-05, 1.552E-05, , 
DataValue, -0.3, -1.5978000000000002E-05, 1.5978000000000002E-05, , 
DataValue, -0.31, -1.6516E-05, 1.6516E-05, , 
DataValue, -0.32, -1.7064E-05, 1.7064E-05, , 
DataValue, -0.33, -1.7522E-05, 1.7522E-05, , 
DataValue, -0.34, -1.798E-05, 1.798E-05, , 
DataValue, -0.35000000000000003, -1.8548E-05, 1.8548E-05, , 
DataValue, -0.36000000000000004, -1.9144000000000002E-05, 1.9144000000000002E-05, , 
DataValue, -0.37, -1.9592E-05, 1.9592E-05, , 
DataValue, -0.38, -2.0036E-05, 2.0036E-05, , 
DataValue, -0.39, -2.0606000000000002E-05, 2.0606000000000002E-05, , 
DataValue, -0.4, -2.1106E-05, 2.1106E-05, , 
DataValue, -0.41000000000000003, -2.1578000000000002E-05, 2.1578000000000002E-05, , 
DataValue, -0.42000000000000004, -2.2006000000000002E-05, 2.2006000000000002E-05, , 
DataValue, -0.43, -3.8015E-09, 3.8015E-09, , 
DataValue, -0.44, -3.9419E-09, 3.9419E-09, , 
DataValue, -0.45, -4.204E-09, 4.204E-09, , 
DataValue, -0.46, -5.983E-09, 5.983E-09, , 
DataValue, -0.47000000000000003, -4.8073E-09, 4.8073E-09, , 
DataValue, -0.48000000000000004, -7.6607E-09, 7.6607E-09, , 
DataValue, -0.49000000000000005, -7.445E-09, 7.445E-09, , 
DataValue, -0.5, -8.7962E-09, 8.7962E-09, , 
DataValue, -0.51, -8.4081E-09, 8.4081E-09, , 
DataValue, -0.52, -8.8286E-09, 8.8286E-09, , 
DataValue, -0.53, -9.7487E-09, 9.7487E-09, , 
DataValue, -0.54, -1.05437E-08, 1.05437E-08, , 
DataValue, -0.55, -1.15974E-08, 1.15974E-08, , 
DataValue, -0.56, -1.1343199999999999E-08, 1.1343199999999999E-08, , 
DataValue, -0.57000000000000006, -1.2579199999999999E-08, 1.2579199999999999E-08, , 
DataValue, -0.58000000000000007, -1.2531199999999999E-08, 1.2531199999999999E-08, , 
DataValue, -0.59000000000000008, -1.2797599999999998E-08, 1.2797599999999998E-08, , 
DataValue, -0.6, -1.4048399999999998E-08, 1.4048399999999998E-08, , 
DataValue, -0.61, -1.4777999999999998E-08, 1.4777999999999998E-08, , 
DataValue, -0.62, -1.57398E-08, 1.57398E-08, , 
DataValue, -0.63, -1.6302E-08, 1.6302E-08, , 
DataValue, -0.64, -1.66812E-08, 1.66812E-08, , 
DataValue, -0.65, -1.6579399999999998E-08, 1.6579399999999998E-08, , 
DataValue, -0.66, -1.86322E-08, 1.86322E-08, , 
DataValue, -0.67, -1.8783199999999998E-08, 1.8783199999999998E-08, , 
DataValue, -0.68, -2.0986999999999998E-08, 2.0986999999999998E-08, , 
DataValue, -0.69000000000000006, -2.0629399999999997E-08, 2.0629399999999997E-08, , 
DataValue, -0.70000000000000007, -2.13484E-08, 2.13484E-08, , 
DataValue, -0.71000000000000008, -2.27606E-08, 2.27606E-08, , 
DataValue, -0.72000000000000008, -2.32498E-08, 2.32498E-08, , 
DataValue, -0.73, -2.2650799999999998E-08, 2.2650799999999998E-08, , 
DataValue, -0.74, -2.42382E-08, 2.42382E-08, , 
DataValue, -0.75, -2.5913199999999996E-08, 2.5913199999999996E-08, , 
DataValue, -0.76, -2.5941999999999998E-08, 2.5941999999999998E-08, , 
DataValue, -0.77, -2.4253999999999997E-08, 2.4253999999999997E-08, , 
DataValue, -0.78, -2.3851199999999997E-08, 2.3851199999999997E-08, , 
DataValue, -0.79, -2.5717599999999997E-08, 2.5717599999999997E-08, , 
DataValue, -0.8, -2.7557199999999997E-08, 2.7557199999999997E-08, , 
DataValue, -0.81, -2.9399199999999998E-08, 2.9399199999999998E-08, , 
DataValue, -0.82000000000000006, -3.51414E-08, 3.51414E-08, , 
DataValue, -0.83000000000000007, -3.2422799999999994E-08, 3.2422799999999994E-08, , 
DataValue, -0.84000000000000008, -2.9783199999999997E-08, 2.9783199999999997E-08, , 
DataValue, -0.85000000000000009, -3.1214799999999994E-08, 3.1214799999999994E-08, , 
DataValue, -0.86, -3.12052E-08, 3.12052E-08, , 
DataValue, -0.87, -3.61056E-08, 3.61056E-08, , 
DataValue, -0.88, -3.6554799999999995E-08, 3.6554799999999995E-08, , 
DataValue, -0.89, -3.7197199999999996E-08, 3.7197199999999996E-08, , 
DataValue, -0.9, -4.03102E-08, 4.03102E-08, , 
DataValue, -0.91, -4.04482E-08, 4.04482E-08, , 
DataValue, -0.92, -4.2890199999999993E-08, 4.2890199999999993E-08, , 
DataValue, -0.93, -4.3640399999999994E-08, 4.3640399999999994E-08, , 
DataValue, -0.94000000000000006, -4.1975E-08, 4.1975E-08, , 
DataValue, -0.95000000000000007, -4.31616E-08, 4.31616E-08, , 
DataValue, -0.96000000000000008, -4.7580599999999993E-08, 4.7580599999999993E-08, , 
DataValue, -0.97000000000000008, -4.43046E-08, 4.43046E-08, , 
DataValue, -0.98000000000000009, -4.1059599999999997E-08, 4.1059599999999997E-08, , 
DataValue, -0.9900000000000001, -4.3953199999999994E-08, 4.3953199999999994E-08, , 
DataValue, -1, -4.3883199999999994E-08, 4.3883199999999994E-08, , 
DataValue, -1.01, -4.6079399999999994E-08, 4.6079399999999994E-08, , 
DataValue, -1.02, -4.9610399999999994E-08, 4.9610399999999994E-08, , 
DataValue, -1.03, -5.1715799999999994E-08, 5.1715799999999994E-08, , 
DataValue, -1.04, -5.26544E-08, 5.26544E-08, , 
DataValue, -1.05, -5.4265799999999993E-08, 5.4265799999999993E-08, , 
DataValue, -1.06, -5.7237199999999996E-08, 5.7237199999999996E-08, , 
DataValue, -1.07, -5.4856199999999996E-08, 5.4856199999999996E-08, , 
DataValue, -1.08, -5.95552E-08, 5.95552E-08, , 
DataValue, -1.09, -5.61292E-08, 5.61292E-08, , 
DataValue, -1.1, -6.0632599999999989E-08, 6.0632599999999989E-08, , 
DataValue, -1.11, -6.40312E-08, 6.40312E-08, , 
DataValue, -1.12, -6.46252E-08, 6.46252E-08, , 
DataValue, -1.1300000000000001, -6.45222E-08, 6.45222E-08, , 
DataValue, -1.1400000000000001, -6.9477599999999987E-08, 6.9477599999999987E-08, , 
DataValue, -1.1500000000000001, -7.240079999999999E-08, 7.240079999999999E-08, , 
DataValue, -1.1600000000000001, -7.31252E-08, 7.31252E-08, , 
DataValue, -1.1700000000000002, -7.8330599999999993E-08, 7.8330599999999993E-08, , 
DataValue, -1.1800000000000002, -8.09936E-08, 8.09936E-08, , 
DataValue, -1.19, -8.254159999999999E-08, 8.254159999999999E-08, , 
DataValue, -1.2, -8.6406999999999988E-08, 8.6406999999999988E-08, , 
DataValue, -1.21, -8.9192E-08, 8.9192E-08, , 
DataValue, -1.22, -9.1239599999999993E-08, 9.1239599999999993E-08, , 
DataValue, -1.23, -9.66882E-08, 9.66882E-08, , 
DataValue, -1.24, -9.437879999999999E-08, 9.437879999999999E-08, , 
DataValue, -1.25, -9.80126E-08, 9.80126E-08, , 
DataValue, -1.26, -1.0098039999999999E-07, 1.0098039999999999E-07, , 
DataValue, -1.27, -1.0486079999999999E-07, 1.0486079999999999E-07, , 
DataValue, -1.28, -1.0770559999999999E-07, 1.0770559999999999E-07, , 
DataValue, -1.29, -1.2236E-07, 1.2236E-07, , 
DataValue, -1.3, -1.2434E-07, 1.2434E-07, , 
DataValue, -1.31, -1.3474E-07, 1.3474E-07, , 
DataValue, -1.32, -1.3312E-07, 1.3312E-07, , 
DataValue, -1.33, -1.384E-07, 1.384E-07, , 
DataValue, -1.34, -1.3476E-07, 1.3476E-07, , 
DataValue, -1.35, -1.3834E-07, 1.3834E-07, , 
DataValue, -1.36, -1.442E-07, 1.442E-07, , 
DataValue, -1.37, -1.4772E-07, 1.4772E-07, , 
DataValue, -1.3800000000000001, -1.4658E-07, 1.4658E-07, , 
DataValue, -1.3900000000000001, -1.6356E-07, 1.6356E-07, , 
DataValue, -1.4000000000000001, -1.6448E-07, 1.6448E-07, , 
DataValue, -1.4100000000000001, -1.7528E-07, 1.7528E-07, , 
DataValue, -1.4200000000000002, -1.7846E-07, 1.7846E-07, , 
DataValue, -1.4300000000000002, -1.8008E-07, 1.8008E-07, , 
DataValue, -1.4400000000000002, -1.914E-07, 1.914E-07, , 
DataValue, -1.4500000000000002, -2.0008E-07, 2.0008E-07, , 
DataValue, -1.46, -2.09E-07, 2.09E-07, , 
DataValue, -1.47, -2.175E-07, 2.175E-07, , 
DataValue, -1.48, -2.1746E-07, 2.1746E-07, , 
DataValue, -1.49, -2.2122E-07, 2.2122E-07, , 
DataValue, -1.5, -2.2688E-07, 2.2688E-07, , 
DataValue, -1.51, -2.5292E-07, 2.5292E-07, , 
DataValue, -1.52, -2.5413999999999997E-07, 2.5413999999999997E-07, , 
DataValue, -1.53, -2.4798E-07, 2.4798E-07, , 
DataValue, -1.54, -2.726E-07, 2.726E-07, , 
DataValue, -1.55, -2.7856E-07, 2.7856E-07, , 
DataValue, -1.56, -2.6028E-07, 2.6028E-07, , 
DataValue, -1.57, -3.008E-07, 3.008E-07, , 
DataValue, -1.58, -2.9042E-07, 2.9042E-07, , 
DataValue, -1.59, -2.9528E-07, 2.9528E-07, , 
DataValue, -1.6, -3.0224E-07, 3.0224E-07, , 
DataValue, -1.61, -3.0768E-07, 3.0768E-07, , 
DataValue, -1.62, -3.0834E-07, 3.0834E-07, , 
DataValue, -1.6300000000000001, -3.1711999999999997E-07, 3.1711999999999997E-07, , 
DataValue, -1.6400000000000001, -3.407E-07, 3.407E-07, , 
DataValue, -1.6500000000000001, -3.462E-07, 3.462E-07, , 
DataValue, -1.6600000000000001, -3.4492E-07, 3.4492E-07, , 
DataValue, -1.6700000000000002, -3.5654E-07, 3.5654E-07, , 
DataValue, -1.6800000000000002, -3.411E-07, 3.411E-07, , 
DataValue, -1.6900000000000002, -3.6142E-07, 3.6142E-07, , 
DataValue, -1.7000000000000002, -3.8406E-07, 3.8406E-07, , 
DataValue, -1.7100000000000002, -3.7138E-07, 3.7138E-07, , 
DataValue, -1.72, -4.0829999999999997E-07, 4.0829999999999997E-07, , 
DataValue, -1.73, -4.0798E-07, 4.0798E-07, , 
DataValue, -1.74, -4.3074E-07, 4.3074E-07, , 
DataValue, -1.75, -4.2043999999999997E-07, 4.2043999999999997E-07, , 
DataValue, -1.76, -4.3212E-07, 4.3212E-07, , 
DataValue, -1.77, -4.5784E-07, 4.5784E-07, , 
DataValue, -1.78, -5.0939999999999994E-07, 5.0939999999999994E-07, , 
DataValue, -1.79, -4.7612E-07, 4.7612E-07, , 
DataValue, -1.8, -4.8804E-07, 4.8804E-07, , 
DataValue, -1.81, -4.9146E-07, 4.9146E-07, , 
DataValue, -1.82, -5.0692E-07, 5.0692E-07, , 
DataValue, -1.83, -4.4092E-07, 4.4092E-07, , 
DataValue, -1.84, -5.6942E-07, 5.6942E-07, , 
DataValue, -1.85, -6.0752E-07, 6.0752E-07, , 
DataValue, -1.86, -6.3008E-07, 6.3008E-07, , 
DataValue, -1.87, -6.219E-07, 6.219E-07, , 
DataValue, -1.8800000000000001, -6.9296E-07, 6.9296E-07, , 
DataValue, -1.8900000000000001, -6.3716E-07, 6.3716E-07, , 
DataValue, -1.9000000000000001, -6.3698E-07, 6.3698E-07, , 
DataValue, -1.9100000000000001, -6.0834E-07, 6.0834E-07, , 
DataValue, -1.9200000000000002, -6.198E-07, 6.198E-07, , 
DataValue, -1.9300000000000002, -7.1138E-07, 7.1138E-07, , 
DataValue, -1.9400000000000002, -7.3654E-07, 7.3654E-07, , 
DataValue, -1.9500000000000002, -7.904E-07, 7.904E-07, , 
DataValue, -1.9600000000000002, -7.9172E-07, 7.9172E-07, , 
DataValue, -1.9700000000000002, -7.7662E-07, 7.7662E-07, , 
DataValue, -1.9800000000000002, -7.8554E-07, 7.8554E-07, , 
DataValue, -1.99, -8.1434E-07, 8.1434E-07, , 
DataValue, -2, -8.5444E-07, 8.5444E-07, , 
DataValue, -2, -9.1715999999999994E-07, 9.1715999999999994E-07, , 
DataValue, -1.99, -8.9112E-07, 8.9112E-07, , 
DataValue, -1.9800000000000002, -8.752E-07, 8.752E-07, , 
DataValue, -1.9700000000000002, -7.9238E-07, 7.9238E-07, , 
DataValue, -1.9600000000000002, -8.1892E-07, 8.1892E-07, , 
DataValue, -1.9500000000000002, -8.2956E-07, 8.2956E-07, , 
DataValue, -1.9400000000000002, -8.0412E-07, 8.0412E-07, , 
DataValue, -1.9300000000000002, -7.502E-07, 7.502E-07, , 
DataValue, -1.9200000000000002, -7.0628E-07, 7.0628E-07, , 
DataValue, -1.9100000000000001, -7.0036E-07, 7.0036E-07, , 
DataValue, -1.9000000000000001, -6.6836E-07, 6.6836E-07, , 
DataValue, -1.8900000000000001, -7.4021999999999994E-07, 7.4021999999999994E-07, , 
DataValue, -1.8800000000000001, -6.9276E-07, 6.9276E-07, , 
DataValue, -1.87, -6.5944E-07, 6.5944E-07, , 
DataValue, -1.86, -6.5113999999999994E-07, 6.5113999999999994E-07, , 
DataValue, -1.85, -5.7625999999999995E-07, 5.7625999999999995E-07, , 
DataValue, -1.84, -5.2248E-07, 5.2248E-07, , 
DataValue, -1.83, -5.1104E-07, 5.1104E-07, , 
DataValue, -1.82, -5.1906E-07, 5.1906E-07, , 
DataValue, -1.81, -4.8048E-07, 4.8048E-07, , 
DataValue, -1.8, -4.6602E-07, 4.6602E-07, , 
DataValue, -1.79, -4.787E-07, 4.787E-07, , 
DataValue, -1.78, -4.6444E-07, 4.6444E-07, , 
DataValue, -1.77, -4.4848E-07, 4.4848E-07, , 
DataValue, -1.76, -4.207E-07, 4.207E-07, , 
DataValue, -1.75, -4.2392E-07, 4.2392E-07, , 
