
SetupTitle, ExtFET - NEG RESET BE-2.0V
PrimitiveTest, I/V Sweep
TestParameter, Context.MainFrame, B1500A
TestParameter, Channel.UnitType, SMU, SMU, SMU
TestParameter, Channel.Unit, SMU2:HR, SMU4:HR, SMU3:HR
TestParameter, Channel.IName, I_TE, I_BE, I_G
TestParameter, Channel.VName, V_TE, V_BE, V_G
TestParameter, Channel.Mode, V, COMMON, V
TestParameter, Channel.Func, VAR1, CONST, CONST
TestParameter, Channel.Index, 
TestParameter, Channel.Time, 
TestParameter, Measurement.Port.Unit, SMU2:HR, SMU4:HR, SMU3:HR
TestParameter, Measurement.Port.SeriesResistor, NONE, NONE, NONE
TestParameter, Measurement.Port.Filter, ON, ON, ON
TestParameter, Measurement.Port.OutputVoltageComparison, 0, 0, 0
TestParameter, Measurement.Primary.Locus, Double
TestParameter, Measurement.Primary.Scale, LINEAR
TestParameter, Measurement.Primary.Start, 0
TestParameter, Measurement.Primary.Stop, -2
TestParameter, Measurement.Primary.Step, -0.01
TestParameter, Measurement.Primary.Compliance, 0.01
TestParameter, Measurement.Primary.PowerCompliance, 0
TestParameter, Measurement.Aborting.Condition, CONTINUE AT ANY
TestParameter, Measurement.PostOutput.Value, START
TestParameter, Measurement.PostOutput.Retention, OFF
TestParameter, Measurement.Bias.Source, 0, 0, 2
TestParameter, Measurement.Bias.Compliance, 0.01, 0.1, 0.0001
TestParameter, Measurement.Monitor.Unit, SMU2:HR, SMU4:HR, SMU3:HR
TestParameter, Measurement.Monitor.Adc, HR ADC, HR ADC, HR ADC
TestParameter, Measurement.Monitor.Measurement, Compliance Side, Compliance Side, Compliance Side
TestParameter, Measurement.Monitor.RangingMode, LIMITED, LIMITED, LIMITED
TestParameter, Measurement.Monitor.RangeBoundary, 1nA, 1nA, 1nA
TestParameter, Measurement.Monitor.RangeRating, BY FULL RANGE, BY FULL RANGE, BY FULL RANGE
TestParameter, Measurement.Monitor.RangeRatingCoeff, 50, 50, 50
TestParameter, Measurement.Timing.Hold, 0
TestParameter, Measurement.Timing.Delay, 0
TestParameter, Measurement.Adc.HighSpeed.Mode, AUTO
TestParameter, Measurement.Adc.HighSpeed.Coeff, 1
TestParameter, Measurement.Adc.HighResolution.AutoZero, OFF
TestParameter, Measurement.Adc.HighResolution.Mode, AUTO
TestParameter, Measurement.Adc.HighResolution.Coeff, 6
TestParameter, Measurement.WaitTime.Source.Coeff, 1
TestParameter, Measurement.WaitTime.Source.Offset, 0
TestParameter, Measurement.WaitTime.Monitor.Coeff, 1
TestParameter, Measurement.WaitTime.Monitor.Offset, 0
TestParameter, Function.User.Name, absITE
TestParameter, Function.User.Unit, A
TestParameter, Function.User.Definition, abs(I_TE)
TestParameter, Output.Graph.Enabled, true
TestParameter, Output.Graph.AutoScaling, false
TestParameter, Output.Graph.XAxis.Data, V_TE
TestParameter, Output.Graph.XAxis.Scale, Linear
TestParameter, Output.Graph.XAxis.Left, 0
TestParameter, Output.Graph.XAxis.Right, 10
TestParameter, Output.Graph.XAxis.RunTimeAutoScale, true
TestParameter, Output.Graph.YAxis.Data, absITE
TestParameter, Output.Graph.YAxis.Scale, Log
TestParameter, Output.Graph.YAxis.Bottom, 0
TestParameter, Output.Graph.YAxis.Top, 1
TestParameter, Output.Graph.YAxis.Group, 
TestParameter, Output.Graph.YAxis.RunTimeAutoScale, true
TestParameter, Output.List.Data, V1, I2abs
TestParameter, AutoAnalysis.Interpolation, false
TestParameter, AutoAnalysis.Var2StepCount, 1
TestParameter, AutoAnalysis.Var2StepScript, 
TestParameter, AutoAnalysis.Line1.Enabled, false
TestParameter, AutoAnalysis.Line1.Type, 1
TestParameter, AutoAnalysis.Line1.Fix, True
TestParameter, AutoAnalysis.Line1.YAxis, 0
TestParameter, AutoAnalysis.Line1.Point1.Type, 0
TestParameter, AutoAnalysis.Line1.Point1.XY.X, 
TestParameter, AutoAnalysis.Line1.Point1.XY.Y, 
TestParameter, AutoAnalysis.Line1.Point1.Data.Var, 
TestParameter, AutoAnalysis.Line1.Point1.Data.Condition, 
TestParameter, AutoAnalysis.Line1.Point1.Data.Start, false
TestParameter, AutoAnalysis.Line1.Point1.Data.StartVar, 
TestParameter, AutoAnalysis.Line1.Point1.Data.StartCondition, 
TestParameter, AutoAnalysis.Line1.Point2.Type, 0
TestParameter, AutoAnalysis.Line1.Point2.XY.X, 
TestParameter, AutoAnalysis.Line1.Point2.XY.Y, 
TestParameter, AutoAnalysis.Line1.Point2.Data.Var, 
TestParameter, AutoAnalysis.Line1.Point2.Data.Condition, 
TestParameter, AutoAnalysis.Line1.Point2.Data.Start, false
TestParameter, AutoAnalysis.Line1.Point2.Data.StartVar, 
TestParameter, AutoAnalysis.Line1.Point2.Data.StartCondition, 
TestParameter, AutoAnalysis.Line1.GradientExpr, 0
TestParameter, AutoAnalysis.Line2.Enabled, false
TestParameter, AutoAnalysis.Line2.Type, 1
TestParameter, AutoAnalysis.Line2.Fix, True
TestParameter, AutoAnalysis.Line2.YAxis, 0
TestParameter, AutoAnalysis.Line2.Point1.Type, 0
TestParameter, AutoAnalysis.Line2.Point1.XY.X, 
TestParameter, AutoAnalysis.Line2.Point1.XY.Y, 
TestParameter, AutoAnalysis.Line2.Point1.Data.Var, 
TestParameter, AutoAnalysis.Line2.Point1.Data.Condition, 
TestParameter, AutoAnalysis.Line2.Point1.Data.Start, false
TestParameter, AutoAnalysis.Line2.Point1.Data.StartVar, 
TestParameter, AutoAnalysis.Line2.Point1.Data.StartCondition, 
TestParameter, AutoAnalysis.Line2.Point2.Type, 0
TestParameter, AutoAnalysis.Line2.Point2.XY.X, 
TestParameter, AutoAnalysis.Line2.Point2.XY.Y, 
TestParameter, AutoAnalysis.Line2.Point2.Data.Var, 
TestParameter, AutoAnalysis.Line2.Point2.Data.Condition, 
TestParameter, AutoAnalysis.Line2.Point2.Data.Start, false
TestParameter, AutoAnalysis.Line2.Point2.Data.StartVar, 
TestParameter, AutoAnalysis.Line2.Point2.Data.StartCondition, 
TestParameter, AutoAnalysis.Line2.GradientExpr, 0
TestParameter, AutoAnalysis.Marker.Enabled, false
TestParameter, AutoAnalysis.Marker.Data.Var, 
TestParameter, AutoAnalysis.Marker.Data.Condition, 
TestParameter, AutoAnalysis.Marker.Data.Start, false
TestParameter, AutoAnalysis.Marker.Data.StartVar, 
TestParameter, AutoAnalysis.Marker.Data.StartCondition, 
MetaData, TestRecord.EntryPoint, true
MetaData, TestRecord.RecordTime, 04/15/2020 15:09:39
MetaData, TestRecord.TestTarget, S48_ExtFET_3D-C06_[10k-RES]_[TiN-BE]
MetaData, TestRecord.IterationIndex, 69
MetaData, TestRecord.Preservation, true
MetaData, TestRecord.Flag, 
MetaData, TestRecord.Remarks, 
MetaData, TestRecord.LinkKey, 5b1a4e08-2a05-4c48-86d9-38dc5abd2dcf
MetaData, TestRecord.Parameters, 
Dimension1, 402, 402, 402, 402, 402
Dimension2, 1, 1, 1, 1, 1
DataName, V_TE, I_TE, absITE, V1, I2abs
DataValue, 0, 1.7978E-09, 1.7978E-09, , 
DataValue, -0.01, -5.4646E-07, 5.4646E-07, , 
DataValue, -0.02, -1.09412E-06, 1.09412E-06, , 
DataValue, -0.030000000000000002, -1.6467000000000003E-06, 1.6467000000000003E-06, , 
DataValue, -0.04, -2.1943000000000003E-06, 2.1943000000000003E-06, , 
DataValue, -0.05, -2.7454000000000004E-06, 2.7454000000000004E-06, , 
DataValue, -0.060000000000000005, -3.2941000000000004E-06, 3.2941000000000004E-06, , 
DataValue, -0.07, -3.839E-06, 3.839E-06, , 
DataValue, -0.08, -4.3812000000000005E-06, 4.3812000000000005E-06, , 
DataValue, -0.090000000000000011, -4.9304E-06, 4.9304E-06, , 
DataValue, -0.1, -5.4578000000000005E-06, 5.4578000000000005E-06, , 
DataValue, -0.11, -6.0001E-06, 6.0001E-06, , 
DataValue, -0.12000000000000001, -6.5267000000000005E-06, 6.5267000000000005E-06, , 
DataValue, -0.13, -7.0833000000000004E-06, 7.0833000000000004E-06, , 
DataValue, -0.14, -7.6264E-06, 7.6264E-06, , 
DataValue, -0.15, -8.1520000000000009E-06, 8.1520000000000009E-06, , 
DataValue, -0.16, -8.6915000000000014E-06, 8.6915000000000014E-06, , 
DataValue, -0.17, -9.216700000000001E-06, 9.216700000000001E-06, , 
DataValue, -0.18000000000000002, -9.7615000000000013E-06, 9.7615000000000013E-06, , 
DataValue, -0.19, -1.02896E-05, 1.02896E-05, , 
DataValue, -0.2, -1.0823900000000002E-05, 1.0823900000000002E-05, , 
DataValue, -0.21000000000000002, -1.13472E-05, 1.13472E-05, , 
DataValue, -0.22, -1.1876000000000001E-05, 1.1876000000000001E-05, , 
DataValue, -0.23, -1.2434E-05, 1.2434E-05, , 
DataValue, -0.24000000000000002, -1.2976E-05, 1.2976E-05, , 
DataValue, -0.25, -1.3512E-05, 1.3512E-05, , 
DataValue, -0.26, -1.4042E-05, 1.4042E-05, , 
DataValue, -0.27, -1.4534E-05, 1.4534E-05, , 
DataValue, -0.28, -1.5074E-05, 1.5074E-05, , 
DataValue, -0.29000000000000004, -1.5592E-05, 1.5592E-05, , 
DataValue, -0.3, -1.6112E-05, 1.6112E-05, , 
DataValue, -0.31, -1.6672E-05, 1.6672E-05, , 
DataValue, -0.32, -1.717E-05, 1.717E-05, , 
DataValue, -0.33, -1.7706E-05, 1.7706E-05, , 
DataValue, -0.34, -1.826E-05, 1.826E-05, , 
DataValue, -0.35000000000000003, -1.8778000000000002E-05, 1.8778000000000002E-05, , 
DataValue, -0.36000000000000004, -1.9280000000000002E-05, 1.9280000000000002E-05, , 
DataValue, -0.37, -1.9826E-05, 1.9826E-05, , 
DataValue, -0.38, -2.0346E-05, 2.0346E-05, , 
DataValue, -0.39, -2.0870000000000002E-05, 2.0870000000000002E-05, , 
DataValue, -0.4, -2.135E-05, 2.135E-05, , 
DataValue, -0.41000000000000003, -2.1678E-05, 2.1678E-05, , 
DataValue, -0.42000000000000004, -2.2102E-05, 2.2102E-05, , 
DataValue, -0.43, -2.2622E-05, 2.2622E-05, , 
DataValue, -0.44, -2.3216E-05, 2.3216E-05, , 
DataValue, -0.45, -2.3692E-05, 2.3692E-05, , 
DataValue, -0.46, -2.4242E-05, 2.4242E-05, , 
DataValue, -0.47000000000000003, -2.4728E-05, 2.4728E-05, , 
DataValue, -0.48000000000000004, -2.5252E-05, 2.5252E-05, , 
DataValue, -0.49000000000000005, -2.548E-05, 2.548E-05, , 
DataValue, -0.5, -2.6206E-05, 2.6206E-05, , 
DataValue, -0.51, -2.6708000000000002E-05, 2.6708000000000002E-05, , 
DataValue, -0.52, -2.6826E-05, 2.6826E-05, , 
DataValue, -0.53, -2.7288E-05, 2.7288E-05, , 
DataValue, -0.54, -2.784E-05, 2.784E-05, , 
DataValue, -0.55, -2.8478E-05, 2.8478E-05, , 
DataValue, -0.56, -2.8998000000000003E-05, 2.8998000000000003E-05, , 
DataValue, -0.57000000000000006, -2.9108E-05, 2.9108E-05, , 
DataValue, -0.58000000000000007, -2.9782E-05, 2.9782E-05, , 
DataValue, -0.59000000000000008, -3.0370000000000002E-05, 3.0370000000000002E-05, , 
DataValue, -0.6, -3.0682E-05, 3.0682E-05, , 
DataValue, -0.61, -3.088E-05, 3.088E-05, , 
DataValue, -0.62, -3.1254E-05, 3.1254E-05, , 
DataValue, -0.63, -3.1524E-05, 3.1524E-05, , 
DataValue, -0.64, -3.1782E-05, 3.1782E-05, , 
DataValue, -0.65, -3.2186E-05, 3.2186E-05, , 
DataValue, -0.66, -3.277E-05, 3.277E-05, , 
DataValue, -0.67, -3.2564E-05, 3.2564E-05, , 
DataValue, -0.68, -3.2096E-05, 3.2096E-05, , 
DataValue, -0.69000000000000006, -3.2018000000000004E-05, 3.2018000000000004E-05, , 
DataValue, -0.70000000000000007, -3.2306E-05, 3.2306E-05, , 
DataValue, -0.71000000000000008, -3.259E-05, 3.259E-05, , 
DataValue, -0.72000000000000008, -3.1698E-05, 3.1698E-05, , 
DataValue, -0.73, -3.1868E-05, 3.1868E-05, , 
DataValue, -0.74, -3.073E-05, 3.073E-05, , 
DataValue, -0.75, -2.8968E-05, 2.8968E-05, , 
DataValue, -0.76, -2.9582000000000002E-05, 2.9582000000000002E-05, , 
DataValue, -0.77, -2.7732E-05, 2.7732E-05, , 
DataValue, -0.78, -2.6046E-05, 2.6046E-05, , 
DataValue, -0.79, -2.1588E-05, 2.1588E-05, , 
DataValue, -0.8, -2.0046E-05, 2.0046E-05, , 
DataValue, -0.81, -2.2976E-05, 2.2976E-05, , 
DataValue, -0.82000000000000006, -2.2038E-05, 2.2038E-05, , 
DataValue, -0.83000000000000007, -2.1702E-05, 2.1702E-05, , 
DataValue, -0.84000000000000008, -2.2714E-05, 2.2714E-05, , 
DataValue, -0.85000000000000009, -2.2536000000000002E-05, 2.2536000000000002E-05, , 
DataValue, -0.86, -1.8698E-05, 1.8698E-05, , 
DataValue, -0.87, -2.0852E-05, 2.0852E-05, , 
DataValue, -0.88, -1.9566000000000002E-05, 1.9566000000000002E-05, , 
DataValue, -0.89, -1.8164E-05, 1.8164E-05, , 
DataValue, -0.9, -1.8884E-05, 1.8884E-05, , 
DataValue, -0.91, -1.5048E-05, 1.5048E-05, , 
DataValue, -0.92, -2.0598E-05, 2.0598E-05, , 
DataValue, -0.93, -1.8096E-05, 1.8096E-05, , 
DataValue, -0.94000000000000006, -2.0716E-05, 2.0716E-05, , 
DataValue, -0.95000000000000007, -2.0624E-05, 2.0624E-05, , 
DataValue, -0.96000000000000008, -1.5E-05, 1.5E-05, , 
DataValue, -0.97000000000000008, -1.9348000000000002E-05, 1.9348000000000002E-05, , 
DataValue, -0.98000000000000009, -1.8268000000000002E-05, 1.8268000000000002E-05, , 
DataValue, -0.9900000000000001, -1.7006E-05, 1.7006E-05, , 
DataValue, -1, -1.5380000000000002E-05, 1.5380000000000002E-05, , 
DataValue, -1.01, -1.0982000000000001E-05, 1.0982000000000001E-05, , 
DataValue, -1.02, -1.8758000000000002E-05, 1.8758000000000002E-05, , 
DataValue, -1.03, -1.4846E-05, 1.4846E-05, , 
DataValue, -1.04, -1.5162E-05, 1.5162E-05, , 
DataValue, -1.05, -1.2658E-05, 1.2658E-05, , 
DataValue, -1.06, -1.202E-05, 1.202E-05, , 
DataValue, -1.07, -1.6426E-05, 1.6426E-05, , 
DataValue, -1.08, -1.5078E-05, 1.5078E-05, , 
DataValue, -1.09, -1.0868E-05, 1.0868E-05, , 
DataValue, -1.1, -1.4292E-05, 1.4292E-05, , 
DataValue, -1.11, -1.5748E-05, 1.5748E-05, , 
DataValue, -1.12, -1.2218E-05, 1.2218E-05, , 
DataValue, -1.1300000000000001, -1.1082E-05, 1.1082E-05, , 
DataValue, -1.1400000000000001, -9.064E-06, 9.064E-06, , 
DataValue, -1.1500000000000001, -9.88E-06, 9.88E-06, , 
DataValue, -1.1600000000000001, -1.0616E-05, 1.0616E-05, , 
DataValue, -1.1700000000000002, -1.531E-05, 1.531E-05, , 
DataValue, -1.1800000000000002, -1.5366E-05, 1.5366E-05, , 
DataValue, -1.19, -1.1494E-05, 1.1494E-05, , 
DataValue, -1.2, -1.3648E-05, 1.3648E-05, , 
DataValue, -1.21, -1.4718E-05, 1.4718E-05, , 
DataValue, -1.22, -1.2268E-05, 1.2268E-05, , 
DataValue, -1.23, -1.355E-05, 1.355E-05, , 
DataValue, -1.24, -1.4118000000000001E-05, 1.4118000000000001E-05, , 
DataValue, -1.25, -1.377E-05, 1.377E-05, , 
DataValue, -1.26, -1.8776E-05, 1.8776E-05, , 
DataValue, -1.27, -1.6552E-05, 1.6552E-05, , 
DataValue, -1.28, -1.4718E-05, 1.4718E-05, , 
DataValue, -1.29, -1.6238E-05, 1.6238E-05, , 
DataValue, -1.3, -1.5678E-05, 1.5678E-05, , 
DataValue, -1.31, -1.0638E-05, 1.0638E-05, , 
DataValue, -1.32, -1.4614E-07, 1.4614E-07, , 
DataValue, -1.33, -1.595E-07, 1.595E-07, , 
DataValue, -1.34, -1.6034E-07, 1.6034E-07, , 
DataValue, -1.35, -1.637E-07, 1.637E-07, , 
DataValue, -1.36, -1.378E-07, 1.378E-07, , 
DataValue, -1.37, -1.4221999999999999E-07, 1.4221999999999999E-07, , 
DataValue, -1.3800000000000001, -1.5006E-07, 1.5006E-07, , 
DataValue, -1.3900000000000001, -1.5072E-07, 1.5072E-07, , 
DataValue, -1.4000000000000001, -1.6706E-07, 1.6706E-07, , 
DataValue, -1.4100000000000001, -1.688E-07, 1.688E-07, , 
DataValue, -1.4200000000000002, -1.8772E-07, 1.8772E-07, , 
DataValue, -1.4300000000000002, -1.6861999999999998E-07, 1.6861999999999998E-07, , 
DataValue, -1.4400000000000002, -1.7534E-07, 1.7534E-07, , 
DataValue, -1.4500000000000002, -1.8154E-07, 1.8154E-07, , 
DataValue, -1.46, -1.9681999999999999E-07, 1.9681999999999999E-07, , 
DataValue, -1.47, -2.7086E-07, 2.7086E-07, , 
DataValue, -1.48, -2.4728E-07, 2.4728E-07, , 
DataValue, -1.49, -2.6666E-07, 2.6666E-07, , 
DataValue, -1.5, -2.5637999999999997E-07, 2.5637999999999997E-07, , 
DataValue, -1.51, -2.8986E-07, 2.8986E-07, , 
DataValue, -1.52, -2.9368E-07, 2.9368E-07, , 
DataValue, -1.53, -3.0184E-07, 3.0184E-07, , 
DataValue, -1.54, -2.9466E-07, 2.9466E-07, , 
DataValue, -1.55, -2.8718E-07, 2.8718E-07, , 
DataValue, -1.56, -3.0702E-07, 3.0702E-07, , 
DataValue, -1.57, -3.598E-07, 3.598E-07, , 
DataValue, -1.58, -3.4806E-07, 3.4806E-07, , 
DataValue, -1.59, -3.859E-07, 3.859E-07, , 
DataValue, -1.6, -3.4601999999999997E-07, 3.4601999999999997E-07, , 
DataValue, -1.61, -3.6906E-07, 3.6906E-07, , 
DataValue, -1.62, -3.6636E-07, 3.6636E-07, , 
DataValue, -1.6300000000000001, -3.6382E-07, 3.6382E-07, , 
DataValue, -1.6400000000000001, -4.0348E-07, 4.0348E-07, , 
DataValue, -1.6500000000000001, -3.9124E-07, 3.9124E-07, , 
DataValue, -1.6600000000000001, -4.0894E-07, 4.0894E-07, , 
DataValue, -1.6700000000000002, -4.0208E-07, 4.0208E-07, , 
DataValue, -1.6800000000000002, -4.1734E-07, 4.1734E-07, , 
DataValue, -1.6900000000000002, -3.8714E-07, 3.8714E-07, , 
DataValue, -1.7000000000000002, -4.5768E-07, 4.5768E-07, , 
DataValue, -1.7100000000000002, -4.4335999999999997E-07, 4.4335999999999997E-07, , 
DataValue, -1.72, -5.0198E-07, 5.0198E-07, , 
DataValue, -1.73, -5.0015999999999995E-07, 5.0015999999999995E-07, , 
DataValue, -1.74, -5.1086E-07, 5.1086E-07, , 
DataValue, -1.75, -4.5364E-07, 4.5364E-07, , 
DataValue, -1.76, -5.5144E-07, 5.5144E-07, , 
DataValue, -1.77, -5.4522E-07, 5.4522E-07, , 
DataValue, -1.78, -4.5336E-07, 4.5336E-07, , 
DataValue, -1.79, -4.3156E-07, 4.3156E-07, , 
DataValue, -1.8, -4.6856E-07, 4.6856E-07, , 
DataValue, -1.81, -4.7172E-07, 4.7172E-07, , 
DataValue, -1.82, -4.4968E-07, 4.4968E-07, , 
DataValue, -1.83, -4.6462E-07, 4.6462E-07, , 
DataValue, -1.84, -4.634E-07, 4.634E-07, , 
DataValue, -1.85, -4.8178E-07, 4.8178E-07, , 
DataValue, -1.86, -5.159E-07, 5.159E-07, , 
DataValue, -1.87, -5.07E-07, 5.07E-07, , 
DataValue, -1.8800000000000001, -5.8062E-07, 5.8062E-07, , 
DataValue, -1.8900000000000001, -5.6149999999999994E-07, 5.6149999999999994E-07, , 
DataValue, -1.9000000000000001, -6.0295999999999994E-07, 6.0295999999999994E-07, , 
DataValue, -1.9100000000000001, -6.2846E-07, 6.2846E-07, , 
DataValue, -1.9200000000000002, -5.457E-07, 5.457E-07, , 
DataValue, -1.9300000000000002, -6.0566E-07, 6.0566E-07, , 
DataValue, -1.9400000000000002, -5.5928E-07, 5.5928E-07, , 
DataValue, -1.9500000000000002, -6.0696E-07, 6.0696E-07, , 
DataValue, -1.9600000000000002, -6.2124E-07, 6.2124E-07, , 
DataValue, -1.9700000000000002, -5.7466E-07, 5.7466E-07, , 
DataValue, -1.9800000000000002, -5.7214E-07, 5.7214E-07, , 
DataValue, -1.99, -6.459E-07, 6.459E-07, , 
DataValue, -2, -6.0784E-07, 6.0784E-07, , 
DataValue, -2, -5.6803999999999994E-07, 5.6803999999999994E-07, , 
DataValue, -1.99, -5.632E-07, 5.632E-07, , 
DataValue, -1.9800000000000002, -5.2806E-07, 5.2806E-07, , 
DataValue, -1.9700000000000002, -6.118E-07, 6.118E-07, , 
DataValue, -1.9600000000000002, -5.6844E-07, 5.6844E-07, , 
DataValue, -1.9500000000000002, -5.3746E-07, 5.3746E-07, , 
DataValue, -1.9400000000000002, -4.6076E-07, 4.6076E-07, , 
DataValue, -1.9300000000000002, -4.878E-07, 4.878E-07, , 
DataValue, -1.9200000000000002, -4.9444E-07, 4.9444E-07, , 
DataValue, -1.9100000000000001, -4.8958E-07, 4.8958E-07, , 
DataValue, -1.9000000000000001, -4.6002E-07, 4.6002E-07, , 
DataValue, -1.8900000000000001, -4.3292E-07, 4.3292E-07, , 
DataValue, -1.8800000000000001, -4.4298E-07, 4.4298E-07, , 
DataValue, -1.87, -4.0736E-07, 4.0736E-07, , 
DataValue, -1.86, -4.1496E-07, 4.1496E-07, , 
DataValue, -1.85, -3.9386E-07, 3.9386E-07, , 
DataValue, -1.84, -3.944E-07, 3.944E-07, , 
DataValue, -1.83, -3.7834E-07, 3.7834E-07, , 
DataValue, -1.82, -3.859E-07, 3.859E-07, , 
DataValue, -1.81, -3.7208E-07, 3.7208E-07, , 
DataValue, -1.8, -3.499E-07, 3.499E-07, , 
DataValue, -1.79, -3.486E-07, 3.486E-07, , 
DataValue, -1.78, -3.0604E-07, 3.0604E-07, , 
DataValue, -1.77, -3.12E-07, 3.12E-07, , 
DataValue, -1.76, -2.9624E-07, 2.9624E-07, , 
DataValue, -1.75, -2.7712E-07, 2.7712E-07, , 
DataValue, -1.74, -2.908E-07, 2.908E-07, , 
DataValue, -1.73, -2.7005999999999997E-07, 2.7005999999999997E-07, , 
DataValue, -1.72, -2.6086E-07, 2.6086E-07, , 
DataValue, -1.7100000000000002, -2.6316E-07, 2.6316E-07, , 
DataValue, -1.7000000000000002, -2.6422E-07, 2.6422E-07, , 
DataValue, -1.6900000000000002, -2.3716E-07, 2.3716E-07, , 
DataValue, -1.6800000000000002, -2.3586E-07, 2.3586E-07, , 
DataValue, -1.6700000000000002, -2.1718E-07, 2.1718E-07, , 
DataValue, -1.6600000000000001, -2.254E-07, 2.254E-07, , 
DataValue, -1.6500000000000001, -2.0376E-07, 2.0376E-07, , 
DataValue, -1.6400000000000001, -1.931E-07, 1.931E-07, , 
DataValue, -1.6300000000000001, -1.9476E-07, 1.9476E-07, , 
DataValue, -1.62, -1.9536E-07, 1.9536E-07, , 
DataValue, -1.61, -1.813E-07, 1.813E-07, , 
DataValue, -1.6, -1.7952E-07, 1.7952E-07, , 
DataValue, -1.59, -1.7419999999999999E-07, 1.7419999999999999E-07, , 
