
SetupTitle, ExtFET - NEG RESET BE-2.0V
PrimitiveTest, I/V Sweep
TestParameter, Context.MainFrame, B1500A
TestParameter, Channel.UnitType, SMU, SMU, SMU
TestParameter, Channel.Unit, SMU2:HR, SMU4:HR, SMU3:HR
TestParameter, Channel.IName, I_TE, I_BE, I_G
TestParameter, Channel.VName, V_TE, V_BE, V_G
TestParameter, Channel.Mode, V, COMMON, V
TestParameter, Channel.Func, VAR1, CONST, CONST
TestParameter, Channel.Index, 
TestParameter, Channel.Time, 
TestParameter, Measurement.Port.Unit, SMU2:HR, SMU4:HR, SMU3:HR
TestParameter, Measurement.Port.SeriesResistor, NONE, NONE, NONE
TestParameter, Measurement.Port.Filter, ON, ON, ON
TestParameter, Measurement.Port.OutputVoltageComparison, 0, 0, 0
TestParameter, Measurement.Primary.Locus, Double
TestParameter, Measurement.Primary.Scale, LINEAR
TestParameter, Measurement.Primary.Start, 0
TestParameter, Measurement.Primary.Stop, -2
TestParameter, Measurement.Primary.Step, -0.01
TestParameter, Measurement.Primary.Compliance, 0.01
TestParameter, Measurement.Primary.PowerCompliance, 0
TestParameter, Measurement.Aborting.Condition, CONTINUE AT ANY
TestParameter, Measurement.PostOutput.Value, START
TestParameter, Measurement.PostOutput.Retention, OFF
TestParameter, Measurement.Bias.Source, 0, 0, 2
TestParameter, Measurement.Bias.Compliance, 0.01, 0.1, 0.0001
TestParameter, Measurement.Monitor.Unit, SMU2:HR, SMU4:HR, SMU3:HR
TestParameter, Measurement.Monitor.Adc, HR ADC, HR ADC, HR ADC
TestParameter, Measurement.Monitor.Measurement, Compliance Side, Compliance Side, Compliance Side
TestParameter, Measurement.Monitor.RangingMode, LIMITED, LIMITED, LIMITED
TestParameter, Measurement.Monitor.RangeBoundary, 1nA, 1nA, 1nA
TestParameter, Measurement.Monitor.RangeRating, BY FULL RANGE, BY FULL RANGE, BY FULL RANGE
TestParameter, Measurement.Monitor.RangeRatingCoeff, 50, 50, 50
TestParameter, Measurement.Timing.Hold, 0
TestParameter, Measurement.Timing.Delay, 0
TestParameter, Measurement.Adc.HighSpeed.Mode, AUTO
TestParameter, Measurement.Adc.HighSpeed.Coeff, 1
TestParameter, Measurement.Adc.HighResolution.AutoZero, OFF
TestParameter, Measurement.Adc.HighResolution.Mode, AUTO
TestParameter, Measurement.Adc.HighResolution.Coeff, 6
TestParameter, Measurement.WaitTime.Source.Coeff, 1
TestParameter, Measurement.WaitTime.Source.Offset, 0
TestParameter, Measurement.WaitTime.Monitor.Coeff, 1
TestParameter, Measurement.WaitTime.Monitor.Offset, 0
TestParameter, Function.User.Name, absITE
TestParameter, Function.User.Unit, A
TestParameter, Function.User.Definition, abs(I_TE)
TestParameter, Output.Graph.Enabled, true
TestParameter, Output.Graph.AutoScaling, false
TestParameter, Output.Graph.XAxis.Data, V_TE
TestParameter, Output.Graph.XAxis.Scale, Linear
TestParameter, Output.Graph.XAxis.Left, 0
TestParameter, Output.Graph.XAxis.Right, 10
TestParameter, Output.Graph.XAxis.RunTimeAutoScale, true
TestParameter, Output.Graph.YAxis.Data, absITE
TestParameter, Output.Graph.YAxis.Scale, Log
TestParameter, Output.Graph.YAxis.Bottom, 0
TestParameter, Output.Graph.YAxis.Top, 1
TestParameter, Output.Graph.YAxis.Group, 
TestParameter, Output.Graph.YAxis.RunTimeAutoScale, true
TestParameter, Output.List.Data, V1, I2abs
TestParameter, AutoAnalysis.Interpolation, false
TestParameter, AutoAnalysis.Var2StepCount, 1
TestParameter, AutoAnalysis.Var2StepScript, 
TestParameter, AutoAnalysis.Line1.Enabled, false
TestParameter, AutoAnalysis.Line1.Type, 1
TestParameter, AutoAnalysis.Line1.Fix, True
TestParameter, AutoAnalysis.Line1.YAxis, 0
TestParameter, AutoAnalysis.Line1.Point1.Type, 0
TestParameter, AutoAnalysis.Line1.Point1.XY.X, 
TestParameter, AutoAnalysis.Line1.Point1.XY.Y, 
TestParameter, AutoAnalysis.Line1.Point1.Data.Var, 
TestParameter, AutoAnalysis.Line1.Point1.Data.Condition, 
TestParameter, AutoAnalysis.Line1.Point1.Data.Start, false
TestParameter, AutoAnalysis.Line1.Point1.Data.StartVar, 
TestParameter, AutoAnalysis.Line1.Point1.Data.StartCondition, 
TestParameter, AutoAnalysis.Line1.Point2.Type, 0
TestParameter, AutoAnalysis.Line1.Point2.XY.X, 
TestParameter, AutoAnalysis.Line1.Point2.XY.Y, 
TestParameter, AutoAnalysis.Line1.Point2.Data.Var, 
TestParameter, AutoAnalysis.Line1.Point2.Data.Condition, 
TestParameter, AutoAnalysis.Line1.Point2.Data.Start, false
TestParameter, AutoAnalysis.Line1.Point2.Data.StartVar, 
TestParameter, AutoAnalysis.Line1.Point2.Data.StartCondition, 
TestParameter, AutoAnalysis.Line1.GradientExpr, 0
TestParameter, AutoAnalysis.Line2.Enabled, false
TestParameter, AutoAnalysis.Line2.Type, 1
TestParameter, AutoAnalysis.Line2.Fix, True
TestParameter, AutoAnalysis.Line2.YAxis, 0
TestParameter, AutoAnalysis.Line2.Point1.Type, 0
TestParameter, AutoAnalysis.Line2.Point1.XY.X, 
TestParameter, AutoAnalysis.Line2.Point1.XY.Y, 
TestParameter, AutoAnalysis.Line2.Point1.Data.Var, 
TestParameter, AutoAnalysis.Line2.Point1.Data.Condition, 
TestParameter, AutoAnalysis.Line2.Point1.Data.Start, false
TestParameter, AutoAnalysis.Line2.Point1.Data.StartVar, 
TestParameter, AutoAnalysis.Line2.Point1.Data.StartCondition, 
TestParameter, AutoAnalysis.Line2.Point2.Type, 0
TestParameter, AutoAnalysis.Line2.Point2.XY.X, 
TestParameter, AutoAnalysis.Line2.Point2.XY.Y, 
TestParameter, AutoAnalysis.Line2.Point2.Data.Var, 
TestParameter, AutoAnalysis.Line2.Point2.Data.Condition, 
TestParameter, AutoAnalysis.Line2.Point2.Data.Start, false
TestParameter, AutoAnalysis.Line2.Point2.Data.StartVar, 
TestParameter, AutoAnalysis.Line2.Point2.Data.StartCondition, 
TestParameter, AutoAnalysis.Line2.GradientExpr, 0
TestParameter, AutoAnalysis.Marker.Enabled, false
TestParameter, AutoAnalysis.Marker.Data.Var, 
TestParameter, AutoAnalysis.Marker.Data.Condition, 
TestParameter, AutoAnalysis.Marker.Data.Start, false
TestParameter, AutoAnalysis.Marker.Data.StartVar, 
TestParameter, AutoAnalysis.Marker.Data.StartCondition, 
MetaData, TestRecord.EntryPoint, true
MetaData, TestRecord.RecordTime, 04/15/2020 15:09:08
MetaData, TestRecord.TestTarget, S48_ExtFET_3D-C06_[10k-RES]_[TiN-BE]
MetaData, TestRecord.IterationIndex, 66
MetaData, TestRecord.Preservation, true
MetaData, TestRecord.Flag, 
MetaData, TestRecord.Remarks, 
MetaData, TestRecord.LinkKey, 5e5ae17e-9215-4a06-aa91-e6230578d9a7
MetaData, TestRecord.Parameters, 
Dimension1, 402, 402, 402, 402, 402
Dimension2, 1, 1, 1, 1, 1
DataName, V_TE, I_TE, absITE, V1, I2abs
DataValue, 0, 1.652E-09, 1.652E-09, , 
DataValue, -0.01, -5.5006E-07, 5.5006E-07, , 
DataValue, -0.02, -1.10384E-06, 1.10384E-06, , 
DataValue, -0.030000000000000002, -1.6651000000000002E-06, 1.6651000000000002E-06, , 
DataValue, -0.04, -2.2121000000000004E-06, 2.2121000000000004E-06, , 
DataValue, -0.05, -2.7692E-06, 2.7692E-06, , 
DataValue, -0.060000000000000005, -3.3221000000000003E-06, 3.3221000000000003E-06, , 
DataValue, -0.07, -3.8714000000000007E-06, 3.8714000000000007E-06, , 
DataValue, -0.08, -4.4204E-06, 4.4204E-06, , 
DataValue, -0.090000000000000011, -4.9706E-06, 4.9706E-06, , 
DataValue, -0.1, -5.5162000000000007E-06, 5.5162000000000007E-06, , 
DataValue, -0.11, -6.0616000000000005E-06, 6.0616000000000005E-06, , 
DataValue, -0.12000000000000001, -6.6106000000000007E-06, 6.6106000000000007E-06, , 
DataValue, -0.13, -7.146900000000001E-06, 7.146900000000001E-06, , 
DataValue, -0.14, -7.697000000000001E-06, 7.697000000000001E-06, , 
DataValue, -0.15, -8.2337E-06, 8.2337E-06, , 
DataValue, -0.16, -8.7708E-06, 8.7708E-06, , 
DataValue, -0.17, -9.3336000000000016E-06, 9.3336000000000016E-06, , 
DataValue, -0.18000000000000002, -9.8457000000000013E-06, 9.8457000000000013E-06, , 
DataValue, -0.19, -1.0392000000000002E-05, 1.0392000000000002E-05, , 
DataValue, -0.2, -1.09294E-05, 1.09294E-05, , 
DataValue, -0.21000000000000002, -1.1487000000000002E-05, 1.1487000000000002E-05, , 
DataValue, -0.22, -1.202E-05, 1.202E-05, , 
DataValue, -0.23, -1.2524E-05, 1.2524E-05, , 
DataValue, -0.24000000000000002, -1.3014000000000001E-05, 1.3014000000000001E-05, , 
DataValue, -0.25, -1.3582E-05, 1.3582E-05, , 
DataValue, -0.26, -1.4096E-05, 1.4096E-05, , 
DataValue, -0.27, -1.4656E-05, 1.4656E-05, , 
DataValue, -0.28, -1.519E-05, 1.519E-05, , 
DataValue, -0.29000000000000004, -1.5738E-05, 1.5738E-05, , 
DataValue, -0.3, -1.6222E-05, 1.6222E-05, , 
DataValue, -0.31, -1.6766000000000002E-05, 1.6766000000000002E-05, , 
DataValue, -0.32, -1.7314E-05, 1.7314E-05, , 
DataValue, -0.33, -1.7834E-05, 1.7834E-05, , 
DataValue, -0.34, -1.8334E-05, 1.8334E-05, , 
DataValue, -0.35000000000000003, -1.8862E-05, 1.8862E-05, , 
DataValue, -0.36000000000000004, -1.9356000000000002E-05, 1.9356000000000002E-05, , 
DataValue, -0.37, -1.9920000000000002E-05, 1.9920000000000002E-05, , 
DataValue, -0.38, -2.0482E-05, 2.0482E-05, , 
DataValue, -0.39, -2.09E-05, 2.09E-05, , 
DataValue, -0.4, -2.1304E-05, 2.1304E-05, , 
DataValue, -0.41000000000000003, -2.1796E-05, 2.1796E-05, , 
DataValue, -0.42000000000000004, -2.218E-05, 2.218E-05, , 
DataValue, -0.43, -2.2892E-05, 2.2892E-05, , 
DataValue, -0.44, -2.334E-05, 2.334E-05, , 
DataValue, -0.45, -2.3914000000000002E-05, 2.3914000000000002E-05, , 
DataValue, -0.46, -2.4336000000000002E-05, 2.4336000000000002E-05, , 
DataValue, -0.47000000000000003, -2.4942E-05, 2.4942E-05, , 
DataValue, -0.48000000000000004, -2.5262E-05, 2.5262E-05, , 
DataValue, -0.49000000000000005, -2.5922E-05, 2.5922E-05, , 
DataValue, -0.5, -2.619E-05, 2.619E-05, , 
DataValue, -0.51, -2.6872E-05, 2.6872E-05, , 
DataValue, -0.52, -2.718E-05, 2.718E-05, , 
DataValue, -0.53, -2.775E-05, 2.775E-05, , 
DataValue, -0.54, -2.8278000000000003E-05, 2.8278000000000003E-05, , 
DataValue, -0.55, -2.8946E-05, 2.8946E-05, , 
DataValue, -0.56, -2.9382E-05, 2.9382E-05, , 
DataValue, -0.57000000000000006, -2.9482E-05, 2.9482E-05, , 
DataValue, -0.58000000000000007, -3.0008E-05, 3.0008E-05, , 
DataValue, -0.59000000000000008, -2.9556E-05, 2.9556E-05, , 
DataValue, -0.6, -3.0052E-05, 3.0052E-05, , 
DataValue, -0.61, -3.0064000000000002E-05, 3.0064000000000002E-05, , 
DataValue, -0.62, -2.9504E-05, 2.9504E-05, , 
DataValue, -0.63, -3.0324E-05, 3.0324E-05, , 
DataValue, -0.64, -2.92E-05, 2.92E-05, , 
DataValue, -0.65, -2.9764E-05, 2.9764E-05, , 
DataValue, -0.66, -2.938E-05, 2.938E-05, , 
DataValue, -0.67, -2.7894E-05, 2.7894E-05, , 
DataValue, -0.68, -2.9814E-05, 2.9814E-05, , 
DataValue, -0.69000000000000006, -8.4017E-09, 8.4017E-09, , 
DataValue, -0.70000000000000007, -8.3647E-09, 8.3647E-09, , 
DataValue, -0.71000000000000008, -1.00896E-08, 1.00896E-08, , 
DataValue, -0.72000000000000008, -9.4625E-09, 9.4625E-09, , 
DataValue, -0.73, -9.3712E-09, 9.3712E-09, , 
DataValue, -0.74, -9.856E-09, 9.856E-09, , 
DataValue, -0.75, -1.08452E-08, 1.08452E-08, , 
DataValue, -0.76, -1.03911E-08, 1.03911E-08, , 
DataValue, -0.77, -1.0787E-08, 1.0787E-08, , 
DataValue, -0.78, -1.2132999999999999E-08, 1.2132999999999999E-08, , 
DataValue, -0.79, -1.3161599999999999E-08, 1.3161599999999999E-08, , 
DataValue, -0.8, -1.2625799999999999E-08, 1.2625799999999999E-08, , 
DataValue, -0.81, -1.3257599999999999E-08, 1.3257599999999999E-08, , 
DataValue, -0.82000000000000006, -1.42092E-08, 1.42092E-08, , 
DataValue, -0.83000000000000007, -1.61522E-08, 1.61522E-08, , 
DataValue, -0.84000000000000008, -1.86578E-08, 1.86578E-08, , 
DataValue, -0.85000000000000009, -1.8395199999999998E-08, 1.8395199999999998E-08, , 
DataValue, -0.86, -2.0222799999999998E-08, 2.0222799999999998E-08, , 
DataValue, -0.87, -2.1324999999999997E-08, 2.1324999999999997E-08, , 
DataValue, -0.88, -2.1886599999999998E-08, 2.1886599999999998E-08, , 
DataValue, -0.89, -2.3914999999999996E-08, 2.3914999999999996E-08, , 
DataValue, -0.9, -2.53732E-08, 2.53732E-08, , 
DataValue, -0.91, -2.5286E-08, 2.5286E-08, , 
DataValue, -0.92, -2.6168599999999996E-08, 2.6168599999999996E-08, , 
DataValue, -0.93, -2.6329999999999998E-08, 2.6329999999999998E-08, , 
DataValue, -0.94000000000000006, -2.6790599999999996E-08, 2.6790599999999996E-08, , 
DataValue, -0.95000000000000007, -2.8371199999999997E-08, 2.8371199999999997E-08, , 
DataValue, -0.96000000000000008, -2.73184E-08, 2.73184E-08, , 
DataValue, -0.97000000000000008, -2.8376599999999998E-08, 2.8376599999999998E-08, , 
DataValue, -0.98000000000000009, -2.9797E-08, 2.9797E-08, , 
DataValue, -0.9900000000000001, -3.2686199999999997E-08, 3.2686199999999997E-08, , 
DataValue, -1, -3.13762E-08, 3.13762E-08, , 
DataValue, -1.01, -3.3619E-08, 3.3619E-08, , 
DataValue, -1.02, -3.62788E-08, 3.62788E-08, , 
DataValue, -1.03, -3.5777599999999996E-08, 3.5777599999999996E-08, , 
DataValue, -1.04, -3.53552E-08, 3.53552E-08, , 
DataValue, -1.05, -3.52272E-08, 3.52272E-08, , 
DataValue, -1.06, -3.5563999999999993E-08, 3.5563999999999993E-08, , 
DataValue, -1.07, -3.91318E-08, 3.91318E-08, , 
DataValue, -1.08, -4.3440799999999994E-08, 4.3440799999999994E-08, , 
DataValue, -1.09, -4.7388999999999995E-08, 4.7388999999999995E-08, , 
DataValue, -1.1, -4.9783199999999994E-08, 4.9783199999999994E-08, , 
DataValue, -1.11, -5.0634599999999995E-08, 5.0634599999999995E-08, , 
DataValue, -1.12, -5.4182199999999993E-08, 5.4182199999999993E-08, , 
DataValue, -1.1300000000000001, -5.6547199999999994E-08, 5.6547199999999994E-08, , 
DataValue, -1.1400000000000001, -5.7895399999999992E-08, 5.7895399999999992E-08, , 
DataValue, -1.1500000000000001, -5.7779999999999992E-08, 5.7779999999999992E-08, , 
DataValue, -1.1600000000000001, -6.0738799999999988E-08, 6.0738799999999988E-08, , 
DataValue, -1.1700000000000002, -5.9569799999999993E-08, 5.9569799999999993E-08, , 
DataValue, -1.1800000000000002, -5.8904599999999995E-08, 5.8904599999999995E-08, , 
DataValue, -1.19, -5.5095199999999996E-08, 5.5095199999999996E-08, , 
DataValue, -1.2, -5.9123799999999996E-08, 5.9123799999999996E-08, , 
DataValue, -1.21, -6.3966999999999993E-08, 6.3966999999999993E-08, , 
DataValue, -1.22, -6.605399999999999E-08, 6.605399999999999E-08, , 
DataValue, -1.23, -6.66986E-08, 6.66986E-08, , 
DataValue, -1.24, -6.8770599999999992E-08, 6.8770599999999992E-08, , 
DataValue, -1.25, -7.4708E-08, 7.4708E-08, , 
DataValue, -1.26, -7.9897999999999992E-08, 7.9897999999999992E-08, , 
DataValue, -1.27, -7.7468199999999987E-08, 7.7468199999999987E-08, , 
DataValue, -1.28, -7.9010199999999988E-08, 7.9010199999999988E-08, , 
DataValue, -1.29, -7.83128E-08, 7.83128E-08, , 
DataValue, -1.3, -8.4039199999999987E-08, 8.4039199999999987E-08, , 
DataValue, -1.31, -8.7595999999999986E-08, 8.7595999999999986E-08, , 
DataValue, -1.32, -9.26832E-08, 9.26832E-08, , 
DataValue, -1.33, -9.46944E-08, 9.46944E-08, , 
DataValue, -1.34, -9.6212199999999986E-08, 9.6212199999999986E-08, , 
DataValue, -1.35, -9.5957199999999988E-08, 9.5957199999999988E-08, , 
DataValue, -1.36, -9.8070399999999986E-08, 9.8070399999999986E-08, , 
DataValue, -1.37, -1.048244E-07, 1.048244E-07, , 
DataValue, -1.3800000000000001, -1.0385999999999999E-07, 1.0385999999999999E-07, , 
DataValue, -1.3900000000000001, -1.0096E-07, 1.0096E-07, , 
DataValue, -1.4000000000000001, -1.1506E-07, 1.1506E-07, , 
DataValue, -1.4100000000000001, -1.03E-07, 1.03E-07, , 
DataValue, -1.4200000000000002, -1.0514E-07, 1.0514E-07, , 
DataValue, -1.4300000000000002, -1.1304E-07, 1.1304E-07, , 
DataValue, -1.4400000000000002, -1.206E-07, 1.206E-07, , 
DataValue, -1.4500000000000002, -1.3038E-07, 1.3038E-07, , 
DataValue, -1.46, -1.287E-07, 1.287E-07, , 
DataValue, -1.47, -1.3794E-07, 1.3794E-07, , 
DataValue, -1.48, -1.3936E-07, 1.3936E-07, , 
DataValue, -1.49, -1.5869999999999999E-07, 1.5869999999999999E-07, , 
DataValue, -1.5, -1.6942E-07, 1.6942E-07, , 
DataValue, -1.51, -1.7682E-07, 1.7682E-07, , 
DataValue, -1.52, -1.5964E-07, 1.5964E-07, , 
DataValue, -1.53, -1.699E-07, 1.699E-07, , 
DataValue, -1.54, -1.8052E-07, 1.8052E-07, , 
DataValue, -1.55, -1.8726E-07, 1.8726E-07, , 
DataValue, -1.56, -1.7528E-07, 1.7528E-07, , 
DataValue, -1.57, -1.814E-07, 1.814E-07, , 
DataValue, -1.58, -1.8838E-07, 1.8838E-07, , 
DataValue, -1.59, -1.9758E-07, 1.9758E-07, , 
DataValue, -1.6, -1.9412E-07, 1.9412E-07, , 
DataValue, -1.61, -2.0536E-07, 2.0536E-07, , 
DataValue, -1.62, -2.2492E-07, 2.2492E-07, , 
DataValue, -1.6300000000000001, -2.1422E-07, 2.1422E-07, , 
DataValue, -1.6400000000000001, -2.152E-07, 2.152E-07, , 
DataValue, -1.6500000000000001, -2.0986E-07, 2.0986E-07, , 
DataValue, -1.6600000000000001, -2.2026E-07, 2.2026E-07, , 
DataValue, -1.6700000000000002, -2.2334E-07, 2.2334E-07, , 
DataValue, -1.6800000000000002, -2.2655999999999999E-07, 2.2655999999999999E-07, , 
DataValue, -1.6900000000000002, -2.3124E-07, 2.3124E-07, , 
DataValue, -1.7000000000000002, -2.5934E-07, 2.5934E-07, , 
DataValue, -1.7100000000000002, -2.4696E-07, 2.4696E-07, , 
DataValue, -1.72, -2.5762E-07, 2.5762E-07, , 
DataValue, -1.73, -2.7544E-07, 2.7544E-07, , 
DataValue, -1.74, -2.8672E-07, 2.8672E-07, , 
DataValue, -1.75, -2.9016E-07, 2.9016E-07, , 
DataValue, -1.76, -3.4466E-07, 3.4466E-07, , 
DataValue, -1.77, -3.6092E-07, 3.6092E-07, , 
DataValue, -1.78, -3.8044E-07, 3.8044E-07, , 
DataValue, -1.79, -3.4968E-07, 3.4968E-07, , 
DataValue, -1.8, -3.3E-07, 3.3E-07, , 
DataValue, -1.81, -3.3466E-07, 3.3466E-07, , 
DataValue, -1.82, -3.372E-07, 3.372E-07, , 
DataValue, -1.83, -3.606E-07, 3.606E-07, , 
DataValue, -1.84, -3.7351999999999997E-07, 3.7351999999999997E-07, , 
DataValue, -1.85, -3.9484E-07, 3.9484E-07, , 
DataValue, -1.86, -3.8429999999999997E-07, 3.8429999999999997E-07, , 
DataValue, -1.87, -4.1342E-07, 4.1342E-07, , 
DataValue, -1.8800000000000001, -4.209E-07, 4.209E-07, , 
DataValue, -1.8900000000000001, -4.352E-07, 4.352E-07, , 
DataValue, -1.9000000000000001, -4.722E-07, 4.722E-07, , 
DataValue, -1.9100000000000001, -5.1804E-07, 5.1804E-07, , 
DataValue, -1.9200000000000002, -5.1832E-07, 5.1832E-07, , 
DataValue, -1.9300000000000002, -5.3158E-07, 5.3158E-07, , 
DataValue, -1.9400000000000002, -4.431E-07, 4.431E-07, , 
DataValue, -1.9500000000000002, -5.1824E-07, 5.1824E-07, , 
DataValue, -1.9600000000000002, -4.6142E-07, 4.6142E-07, , 
DataValue, -1.9700000000000002, -5.1608E-07, 5.1608E-07, , 
DataValue, -1.9800000000000002, -5.0584E-07, 5.0584E-07, , 
DataValue, -1.99, -5.5124E-07, 5.5124E-07, , 
DataValue, -2, -4.8816E-07, 4.8816E-07, , 
DataValue, -2, -4.5754E-07, 4.5754E-07, , 
DataValue, -1.99, -4.6749999999999997E-07, 4.6749999999999997E-07, , 
DataValue, -1.9800000000000002, -4.3568E-07, 4.3568E-07, , 
DataValue, -1.9700000000000002, -4.366E-07, 4.366E-07, , 
DataValue, -1.9600000000000002, -4.2812E-07, 4.2812E-07, , 
DataValue, -1.9500000000000002, -3.9816E-07, 3.9816E-07, , 
DataValue, -1.9400000000000002, -3.7116E-07, 3.7116E-07, , 
DataValue, -1.9300000000000002, -3.1462E-07, 3.1462E-07, , 
DataValue, -1.9200000000000002, -3.0898E-07, 3.0898E-07, , 
DataValue, -1.9100000000000001, -3.249E-07, 3.249E-07, , 
DataValue, -1.9000000000000001, -3.1192E-07, 3.1192E-07, , 
DataValue, -1.8900000000000001, -2.9244E-07, 2.9244E-07, , 
DataValue, -1.8800000000000001, -3.119E-07, 3.119E-07, , 
DataValue, -1.87, -2.9797999999999997E-07, 2.9797999999999997E-07, , 
DataValue, -1.86, -2.5668E-07, 2.5668E-07, , 
DataValue, -1.85, -2.7526E-07, 2.7526E-07, , 
DataValue, -1.84, -2.3874E-07, 2.3874E-07, , 
DataValue, -1.83, -2.3044E-07, 2.3044E-07, , 
DataValue, -1.82, -2.4454E-07, 2.4454E-07, , 
DataValue, -1.81, -2.5446E-07, 2.5446E-07, , 
DataValue, -1.8, -2.3192E-07, 2.3192E-07, , 
DataValue, -1.79, -2.0762E-07, 2.0762E-07, , 
DataValue, -1.78, -2.0172E-07, 2.0172E-07, , 
DataValue, -1.77, -1.9394E-07, 1.9394E-07, , 
DataValue, -1.76, -1.881E-07, 1.881E-07, , 
DataValue, -1.75, -1.8568E-07, 1.8568E-07, , 
DataValue, -1.74, -1.6958E-07, 1.6958E-07, , 
DataValue, -1.73, -1.7492E-07, 1.7492E-07, , 
DataValue, -1.72, -1.597E-07, 1.597E-07, , 
