
SetupTitle, ExtFET - NEG RESET BE-2.0V
PrimitiveTest, I/V Sweep
TestParameter, Context.MainFrame, B1500A
TestParameter, Channel.UnitType, SMU, SMU, SMU
TestParameter, Channel.Unit, SMU2:HR, SMU4:HR, SMU3:HR
TestParameter, Channel.IName, I_TE, I_BE, I_G
TestParameter, Channel.VName, V_TE, V_BE, V_G
TestParameter, Channel.Mode, V, COMMON, V
TestParameter, Channel.Func, VAR1, CONST, CONST
TestParameter, Channel.Index, 
TestParameter, Channel.Time, 
TestParameter, Measurement.Port.Unit, SMU2:HR, SMU4:HR, SMU3:HR
TestParameter, Measurement.Port.SeriesResistor, NONE, NONE, NONE
TestParameter, Measurement.Port.Filter, ON, ON, ON
TestParameter, Measurement.Port.OutputVoltageComparison, 0, 0, 0
TestParameter, Measurement.Primary.Locus, Double
TestParameter, Measurement.Primary.Scale, LINEAR
TestParameter, Measurement.Primary.Start, 0
TestParameter, Measurement.Primary.Stop, -2
TestParameter, Measurement.Primary.Step, -0.01
TestParameter, Measurement.Primary.Compliance, 0.01
TestParameter, Measurement.Primary.PowerCompliance, 0
TestParameter, Measurement.Aborting.Condition, CONTINUE AT ANY
TestParameter, Measurement.PostOutput.Value, START
TestParameter, Measurement.PostOutput.Retention, OFF
TestParameter, Measurement.Bias.Source, 0, 0, 2
TestParameter, Measurement.Bias.Compliance, 0.01, 0.1, 0.0001
TestParameter, Measurement.Monitor.Unit, SMU2:HR, SMU4:HR, SMU3:HR
TestParameter, Measurement.Monitor.Adc, HR ADC, HR ADC, HR ADC
TestParameter, Measurement.Monitor.Measurement, Compliance Side, Compliance Side, Compliance Side
TestParameter, Measurement.Monitor.RangingMode, LIMITED, LIMITED, LIMITED
TestParameter, Measurement.Monitor.RangeBoundary, 1nA, 1nA, 1nA
TestParameter, Measurement.Monitor.RangeRating, BY FULL RANGE, BY FULL RANGE, BY FULL RANGE
TestParameter, Measurement.Monitor.RangeRatingCoeff, 50, 50, 50
TestParameter, Measurement.Timing.Hold, 0
TestParameter, Measurement.Timing.Delay, 0
TestParameter, Measurement.Adc.HighSpeed.Mode, AUTO
TestParameter, Measurement.Adc.HighSpeed.Coeff, 1
TestParameter, Measurement.Adc.HighResolution.AutoZero, OFF
TestParameter, Measurement.Adc.HighResolution.Mode, AUTO
TestParameter, Measurement.Adc.HighResolution.Coeff, 6
TestParameter, Measurement.WaitTime.Source.Coeff, 1
TestParameter, Measurement.WaitTime.Source.Offset, 0
TestParameter, Measurement.WaitTime.Monitor.Coeff, 1
TestParameter, Measurement.WaitTime.Monitor.Offset, 0
TestParameter, Function.User.Name, absITE
TestParameter, Function.User.Unit, A
TestParameter, Function.User.Definition, abs(I_TE)
TestParameter, Output.Graph.Enabled, true
TestParameter, Output.Graph.AutoScaling, false
TestParameter, Output.Graph.XAxis.Data, V_TE
TestParameter, Output.Graph.XAxis.Scale, Linear
TestParameter, Output.Graph.XAxis.Left, 0
TestParameter, Output.Graph.XAxis.Right, 10
TestParameter, Output.Graph.XAxis.RunTimeAutoScale, true
TestParameter, Output.Graph.YAxis.Data, absITE
TestParameter, Output.Graph.YAxis.Scale, Log
TestParameter, Output.Graph.YAxis.Bottom, 0
TestParameter, Output.Graph.YAxis.Top, 1
TestParameter, Output.Graph.YAxis.Group, 
TestParameter, Output.Graph.YAxis.RunTimeAutoScale, true
TestParameter, Output.List.Data, V1, I2abs
TestParameter, AutoAnalysis.Interpolation, false
TestParameter, AutoAnalysis.Var2StepCount, 1
TestParameter, AutoAnalysis.Var2StepScript, 
TestParameter, AutoAnalysis.Line1.Enabled, false
TestParameter, AutoAnalysis.Line1.Type, 1
TestParameter, AutoAnalysis.Line1.Fix, True
TestParameter, AutoAnalysis.Line1.YAxis, 0
TestParameter, AutoAnalysis.Line1.Point1.Type, 0
TestParameter, AutoAnalysis.Line1.Point1.XY.X, 
TestParameter, AutoAnalysis.Line1.Point1.XY.Y, 
TestParameter, AutoAnalysis.Line1.Point1.Data.Var, 
TestParameter, AutoAnalysis.Line1.Point1.Data.Condition, 
TestParameter, AutoAnalysis.Line1.Point1.Data.Start, false
TestParameter, AutoAnalysis.Line1.Point1.Data.StartVar, 
TestParameter, AutoAnalysis.Line1.Point1.Data.StartCondition, 
TestParameter, AutoAnalysis.Line1.Point2.Type, 0
TestParameter, AutoAnalysis.Line1.Point2.XY.X, 
TestParameter, AutoAnalysis.Line1.Point2.XY.Y, 
TestParameter, AutoAnalysis.Line1.Point2.Data.Var, 
TestParameter, AutoAnalysis.Line1.Point2.Data.Condition, 
TestParameter, AutoAnalysis.Line1.Point2.Data.Start, false
TestParameter, AutoAnalysis.Line1.Point2.Data.StartVar, 
TestParameter, AutoAnalysis.Line1.Point2.Data.StartCondition, 
TestParameter, AutoAnalysis.Line1.GradientExpr, 0
TestParameter, AutoAnalysis.Line2.Enabled, false
TestParameter, AutoAnalysis.Line2.Type, 1
TestParameter, AutoAnalysis.Line2.Fix, True
TestParameter, AutoAnalysis.Line2.YAxis, 0
TestParameter, AutoAnalysis.Line2.Point1.Type, 0
TestParameter, AutoAnalysis.Line2.Point1.XY.X, 
TestParameter, AutoAnalysis.Line2.Point1.XY.Y, 
TestParameter, AutoAnalysis.Line2.Point1.Data.Var, 
TestParameter, AutoAnalysis.Line2.Point1.Data.Condition, 
TestParameter, AutoAnalysis.Line2.Point1.Data.Start, false
TestParameter, AutoAnalysis.Line2.Point1.Data.StartVar, 
TestParameter, AutoAnalysis.Line2.Point1.Data.StartCondition, 
TestParameter, AutoAnalysis.Line2.Point2.Type, 0
TestParameter, AutoAnalysis.Line2.Point2.XY.X, 
TestParameter, AutoAnalysis.Line2.Point2.XY.Y, 
TestParameter, AutoAnalysis.Line2.Point2.Data.Var, 
TestParameter, AutoAnalysis.Line2.Point2.Data.Condition, 
TestParameter, AutoAnalysis.Line2.Point2.Data.Start, false
TestParameter, AutoAnalysis.Line2.Point2.Data.StartVar, 
TestParameter, AutoAnalysis.Line2.Point2.Data.StartCondition, 
TestParameter, AutoAnalysis.Line2.GradientExpr, 0
TestParameter, AutoAnalysis.Marker.Enabled, false
TestParameter, AutoAnalysis.Marker.Data.Var, 
TestParameter, AutoAnalysis.Marker.Data.Condition, 
TestParameter, AutoAnalysis.Marker.Data.Start, false
TestParameter, AutoAnalysis.Marker.Data.StartVar, 
TestParameter, AutoAnalysis.Marker.Data.StartCondition, 
MetaData, TestRecord.EntryPoint, true
MetaData, TestRecord.RecordTime, 04/15/2020 15:09:29
MetaData, TestRecord.TestTarget, S48_ExtFET_3D-C06_[10k-RES]_[TiN-BE]
MetaData, TestRecord.IterationIndex, 68
MetaData, TestRecord.Preservation, true
MetaData, TestRecord.Flag, 
MetaData, TestRecord.Remarks, 
MetaData, TestRecord.LinkKey, bb126fb6-4d4d-42b3-9d06-ea08d6fd96fe
MetaData, TestRecord.Parameters, 
Dimension1, 402, 402, 402, 402, 402
Dimension2, 1, 1, 1, 1, 1
DataName, V_TE, I_TE, absITE, V1, I2abs
DataValue, 0, 1.8654E-09, 1.8654E-09, , 
DataValue, -0.01, -5.4864E-07, 5.4864E-07, , 
DataValue, -0.02, -1.09758E-06, 1.09758E-06, , 
DataValue, -0.030000000000000002, -1.6553000000000003E-06, 1.6553000000000003E-06, , 
DataValue, -0.04, -2.205E-06, 2.205E-06, , 
DataValue, -0.05, -2.7514000000000005E-06, 2.7514000000000005E-06, , 
DataValue, -0.060000000000000005, -3.2977E-06, 3.2977E-06, , 
DataValue, -0.07, -3.8456E-06, 3.8456E-06, , 
DataValue, -0.08, -4.397E-06, 4.397E-06, , 
DataValue, -0.090000000000000011, -4.9293E-06, 4.9293E-06, , 
DataValue, -0.1, -5.4829000000000005E-06, 5.4829000000000005E-06, , 
DataValue, -0.11, -6.028200000000001E-06, 6.028200000000001E-06, , 
DataValue, -0.12000000000000001, -6.5651000000000009E-06, 6.5651000000000009E-06, , 
DataValue, -0.13, -7.1103E-06, 7.1103E-06, , 
DataValue, -0.14, -7.6497E-06, 7.6497E-06, , 
DataValue, -0.15, -8.1916000000000013E-06, 8.1916000000000013E-06, , 
DataValue, -0.16, -8.7124000000000015E-06, 8.7124000000000015E-06, , 
DataValue, -0.17, -9.2368000000000011E-06, 9.2368000000000011E-06, , 
DataValue, -0.18000000000000002, -9.760600000000001E-06, 9.760600000000001E-06, , 
DataValue, -0.19, -1.0334600000000001E-05, 1.0334600000000001E-05, , 
DataValue, -0.2, -1.07888E-05, 1.07888E-05, , 
DataValue, -0.21000000000000002, -1.13543E-05, 1.13543E-05, , 
DataValue, -0.22, -1.1876000000000001E-05, 1.1876000000000001E-05, , 
DataValue, -0.23, -1.2382000000000001E-05, 1.2382000000000001E-05, , 
DataValue, -0.24000000000000002, -1.2918E-05, 1.2918E-05, , 
DataValue, -0.25, -1.3406E-05, 1.3406E-05, , 
DataValue, -0.26, -1.3946E-05, 1.3946E-05, , 
DataValue, -0.27, -1.4436E-05, 1.4436E-05, , 
DataValue, -0.28, -1.496E-05, 1.496E-05, , 
DataValue, -0.29000000000000004, -1.5426E-05, 1.5426E-05, , 
DataValue, -0.3, -1.593E-05, 1.593E-05, , 
DataValue, -0.31, -1.6474000000000002E-05, 1.6474000000000002E-05, , 
DataValue, -0.32, -1.6984000000000002E-05, 1.6984000000000002E-05, , 
DataValue, -0.33, -1.7578E-05, 1.7578E-05, , 
DataValue, -0.34, -1.7994E-05, 1.7994E-05, , 
DataValue, -0.35000000000000003, -1.8520000000000002E-05, 1.8520000000000002E-05, , 
DataValue, -0.36000000000000004, -1.9098E-05, 1.9098E-05, , 
DataValue, -0.37, -1.9546000000000002E-05, 1.9546000000000002E-05, , 
DataValue, -0.38, -2.0102E-05, 2.0102E-05, , 
DataValue, -0.39, -2.059E-05, 2.059E-05, , 
DataValue, -0.4, -2.1138E-05, 2.1138E-05, , 
DataValue, -0.41000000000000003, -2.1386E-05, 2.1386E-05, , 
DataValue, -0.42000000000000004, -2.2210000000000002E-05, 2.2210000000000002E-05, , 
DataValue, -0.43, -2.2434000000000002E-05, 2.2434000000000002E-05, , 
DataValue, -0.44, -2.2752000000000002E-05, 2.2752000000000002E-05, , 
DataValue, -0.45, -2.2966E-05, 2.2966E-05, , 
DataValue, -0.46, -2.3954E-05, 2.3954E-05, , 
DataValue, -0.47000000000000003, -2.4152000000000002E-05, 2.4152000000000002E-05, , 
DataValue, -0.48000000000000004, -2.4702E-05, 2.4702E-05, , 
DataValue, -0.49000000000000005, -2.5454E-05, 2.5454E-05, , 
DataValue, -0.5, -2.5528E-05, 2.5528E-05, , 
DataValue, -0.51, -2.5602E-05, 2.5602E-05, , 
DataValue, -0.52, -2.6416000000000003E-05, 2.6416000000000003E-05, , 
DataValue, -0.53, -2.6506E-05, 2.6506E-05, , 
DataValue, -0.54, -2.7056E-05, 2.7056E-05, , 
DataValue, -0.55, -2.7708E-05, 2.7708E-05, , 
DataValue, -0.56, -2.8186E-05, 2.8186E-05, , 
DataValue, -0.57000000000000006, -2.8738E-05, 2.8738E-05, , 
DataValue, -0.58000000000000007, -2.836E-05, 2.836E-05, , 
DataValue, -0.59000000000000008, -2.9460000000000003E-05, 2.9460000000000003E-05, , 
DataValue, -0.6, -2.9788E-05, 2.9788E-05, , 
DataValue, -0.61, -2.9996000000000002E-05, 2.9996000000000002E-05, , 
DataValue, -0.62, -3.028E-05, 3.028E-05, , 
DataValue, -0.63, -3.116E-05, 3.116E-05, , 
DataValue, -0.64, -3.1230000000000004E-05, 3.1230000000000004E-05, , 
DataValue, -0.65, -3.1382E-05, 3.1382E-05, , 
DataValue, -0.66, -3.0954E-05, 3.0954E-05, , 
DataValue, -0.67, -3.1312E-05, 3.1312E-05, , 
DataValue, -0.68, -3.1954E-05, 3.1954E-05, , 
DataValue, -0.69000000000000006, -3.0756E-05, 3.0756E-05, , 
DataValue, -0.70000000000000007, -2.9812000000000002E-05, 2.9812000000000002E-05, , 
DataValue, -0.71000000000000008, -3.171E-05, 3.171E-05, , 
DataValue, -0.72000000000000008, -3.1752000000000004E-05, 3.1752000000000004E-05, , 
DataValue, -0.73, -3.0044000000000002E-05, 3.0044000000000002E-05, , 
DataValue, -0.74, -2.9578E-05, 2.9578E-05, , 
DataValue, -0.75, -3.15E-05, 3.15E-05, , 
DataValue, -0.76, -3.011E-05, 3.011E-05, , 
DataValue, -0.77, -3.2368E-05, 3.2368E-05, , 
DataValue, -0.78, -3.0552E-05, 3.0552E-05, , 
DataValue, -0.79, -3.081E-05, 3.081E-05, , 
DataValue, -0.8, -3.0958000000000004E-05, 3.0958000000000004E-05, , 
DataValue, -0.81, -2.9024000000000002E-05, 2.9024000000000002E-05, , 
DataValue, -0.82000000000000006, -2.9874000000000002E-05, 2.9874000000000002E-05, , 
DataValue, -0.83000000000000007, -2.8342E-05, 2.8342E-05, , 
DataValue, -0.84000000000000008, -2.8654E-05, 2.8654E-05, , 
DataValue, -0.85000000000000009, -2.7884E-05, 2.7884E-05, , 
DataValue, -0.86, -2.6314000000000003E-05, 2.6314000000000003E-05, , 
DataValue, -0.87, -2.1154E-05, 2.1154E-05, , 
DataValue, -0.88, -2.0604E-05, 2.0604E-05, , 
DataValue, -0.89, -2.2752000000000002E-05, 2.2752000000000002E-05, , 
DataValue, -0.9, -2.0758E-05, 2.0758E-05, , 
DataValue, -0.91, -1.9066E-05, 1.9066E-05, , 
DataValue, -0.92, -2.0232000000000002E-05, 2.0232000000000002E-05, , 
DataValue, -0.93, -1.8522E-05, 1.8522E-05, , 
DataValue, -0.94000000000000006, -2.1334E-05, 2.1334E-05, , 
DataValue, -0.95000000000000007, -2.373E-05, 2.373E-05, , 
DataValue, -0.96000000000000008, -2.0308E-05, 2.0308E-05, , 
DataValue, -0.97000000000000008, -2.0484000000000002E-05, 2.0484000000000002E-05, , 
DataValue, -0.98000000000000009, -1.7216E-05, 1.7216E-05, , 
DataValue, -0.9900000000000001, -2.1182E-05, 2.1182E-05, , 
DataValue, -1, -1.9978E-05, 1.9978E-05, , 
DataValue, -1.01, -1.8284E-05, 1.8284E-05, , 
DataValue, -1.02, -1.9032E-05, 1.9032E-05, , 
DataValue, -1.03, -1.8176E-05, 1.8176E-05, , 
DataValue, -1.04, -2.1194E-05, 2.1194E-05, , 
DataValue, -1.05, -2.0356E-05, 2.0356E-05, , 
DataValue, -1.06, -1.4272E-05, 1.4272E-05, , 
DataValue, -1.07, -1.6434000000000002E-05, 1.6434000000000002E-05, , 
DataValue, -1.08, -1.7978E-05, 1.7978E-05, , 
DataValue, -1.09, -1.4380000000000001E-05, 1.4380000000000001E-05, , 
DataValue, -1.1, -1.3870000000000001E-05, 1.3870000000000001E-05, , 
DataValue, -1.11, -1.7486E-05, 1.7486E-05, , 
DataValue, -1.12, -1.1252E-05, 1.1252E-05, , 
DataValue, -1.1300000000000001, -1.4154E-05, 1.4154E-05, , 
DataValue, -1.1400000000000001, -1.5896E-05, 1.5896E-05, , 
DataValue, -1.1500000000000001, -1.5206E-05, 1.5206E-05, , 
DataValue, -1.1600000000000001, -1.549E-05, 1.549E-05, , 
DataValue, -1.1700000000000002, -1.6038E-05, 1.6038E-05, , 
DataValue, -1.1800000000000002, -1.5918E-05, 1.5918E-05, , 
DataValue, -1.19, -1.127E-05, 1.127E-05, , 
DataValue, -1.2, -1.249E-05, 1.249E-05, , 
DataValue, -1.21, -1.2298E-05, 1.2298E-05, , 
DataValue, -1.22, -1.1706000000000001E-05, 1.1706000000000001E-05, , 
DataValue, -1.23, -1.4390000000000001E-05, 1.4390000000000001E-05, , 
DataValue, -1.24, -1.0848E-05, 1.0848E-05, , 
DataValue, -1.25, -9.382000000000001E-06, 9.382000000000001E-06, , 
DataValue, -1.26, -1.3978E-05, 1.3978E-05, , 
DataValue, -1.27, -1.1122E-05, 1.1122E-05, , 
DataValue, -1.28, -1.0486000000000001E-05, 1.0486000000000001E-05, , 
DataValue, -1.29, -6.528E-06, 6.528E-06, , 
DataValue, -1.3, -6.25E-06, 6.25E-06, , 
DataValue, -1.31, -7.9373000000000011E-06, 7.9373000000000011E-06, , 
DataValue, -1.32, -7.0446000000000011E-06, 7.0446000000000011E-06, , 
DataValue, -1.33, -4.7408E-06, 4.7408E-06, , 
DataValue, -1.34, -1.066E-07, 1.066E-07, , 
DataValue, -1.35, -9.908E-08, 9.908E-08, , 
DataValue, -1.36, -1.0612E-07, 1.0612E-07, , 
DataValue, -1.37, -1.1006E-07, 1.1006E-07, , 
DataValue, -1.3800000000000001, -1.0825999999999999E-07, 1.0825999999999999E-07, , 
DataValue, -1.3900000000000001, -1.2294E-07, 1.2294E-07, , 
DataValue, -1.4000000000000001, -1.3628E-07, 1.3628E-07, , 
DataValue, -1.4100000000000001, -1.3276E-07, 1.3276E-07, , 
DataValue, -1.4200000000000002, -1.2912E-07, 1.2912E-07, , 
DataValue, -1.4300000000000002, -1.2984E-07, 1.2984E-07, , 
DataValue, -1.4400000000000002, -1.4498E-07, 1.4498E-07, , 
DataValue, -1.4500000000000002, -1.5564E-07, 1.5564E-07, , 
DataValue, -1.46, -1.3868E-07, 1.3868E-07, , 
DataValue, -1.47, -1.5478E-07, 1.5478E-07, , 
DataValue, -1.48, -1.6665999999999999E-07, 1.6665999999999999E-07, , 
DataValue, -1.49, -1.455E-07, 1.455E-07, , 
DataValue, -1.5, -1.5472E-07, 1.5472E-07, , 
DataValue, -1.51, -1.5598E-07, 1.5598E-07, , 
DataValue, -1.52, -1.6048E-07, 1.6048E-07, , 
DataValue, -1.53, -1.7736E-07, 1.7736E-07, , 
DataValue, -1.54, -1.716E-07, 1.716E-07, , 
DataValue, -1.55, -1.9681999999999999E-07, 1.9681999999999999E-07, , 
DataValue, -1.56, -1.8688E-07, 1.8688E-07, , 
DataValue, -1.57, -1.9989999999999998E-07, 1.9989999999999998E-07, , 
DataValue, -1.58, -2.2272E-07, 2.2272E-07, , 
DataValue, -1.59, -2.2279999999999998E-07, 2.2279999999999998E-07, , 
DataValue, -1.6, -2.0244E-07, 2.0244E-07, , 
DataValue, -1.61, -2.4254E-07, 2.4254E-07, , 
DataValue, -1.62, -2.4428E-07, 2.4428E-07, , 
DataValue, -1.6300000000000001, -2.3254E-07, 2.3254E-07, , 
DataValue, -1.6400000000000001, -2.3196E-07, 2.3196E-07, , 
DataValue, -1.6500000000000001, -2.2674E-07, 2.2674E-07, , 
DataValue, -1.6600000000000001, -2.4548E-07, 2.4548E-07, , 
DataValue, -1.6700000000000002, -2.5175999999999997E-07, 2.5175999999999997E-07, , 
DataValue, -1.6800000000000002, -2.5144E-07, 2.5144E-07, , 
DataValue, -1.6900000000000002, -2.5539999999999997E-07, 2.5539999999999997E-07, , 
DataValue, -1.7000000000000002, -2.4748E-07, 2.4748E-07, , 
DataValue, -1.7100000000000002, -2.9858E-07, 2.9858E-07, , 
DataValue, -1.72, -2.8818E-07, 2.8818E-07, , 
DataValue, -1.73, -2.7816E-07, 2.7816E-07, , 
DataValue, -1.74, -3.098E-07, 3.098E-07, , 
DataValue, -1.75, -3.5454E-07, 3.5454E-07, , 
DataValue, -1.76, -3.1592E-07, 3.1592E-07, , 
DataValue, -1.77, -3.2468E-07, 3.2468E-07, , 
DataValue, -1.78, -3.1728E-07, 3.1728E-07, , 
DataValue, -1.79, -3.4804E-07, 3.4804E-07, , 
DataValue, -1.8, -3.2855999999999997E-07, 3.2855999999999997E-07, , 
DataValue, -1.81, -3.395E-07, 3.395E-07, , 
DataValue, -1.82, -3.8316E-07, 3.8316E-07, , 
DataValue, -1.83, -3.7194E-07, 3.7194E-07, , 
DataValue, -1.84, -3.8564E-07, 3.8564E-07, , 
DataValue, -1.85, -3.5712E-07, 3.5712E-07, , 
DataValue, -1.86, -3.4582E-07, 3.4582E-07, , 
DataValue, -1.87, -4.2692E-07, 4.2692E-07, , 
DataValue, -1.8800000000000001, -3.8564E-07, 3.8564E-07, , 
DataValue, -1.8900000000000001, -4.4214E-07, 4.4214E-07, , 
DataValue, -1.9000000000000001, -4.0632E-07, 4.0632E-07, , 
DataValue, -1.9100000000000001, -4.1945999999999997E-07, 4.1945999999999997E-07, , 
DataValue, -1.9200000000000002, -4.3576E-07, 4.3576E-07, , 
DataValue, -1.9300000000000002, -4.4262E-07, 4.4262E-07, , 
DataValue, -1.9400000000000002, -5.0752E-07, 5.0752E-07, , 
DataValue, -1.9500000000000002, -4.5962E-07, 4.5962E-07, , 
DataValue, -1.9600000000000002, -5.3566E-07, 5.3566E-07, , 
DataValue, -1.9700000000000002, -5.483E-07, 5.483E-07, , 
DataValue, -1.9800000000000002, -4.8976E-07, 4.8976E-07, , 
DataValue, -1.99, -5.4263999999999994E-07, 5.4263999999999994E-07, , 
DataValue, -2, -5.8598E-07, 5.8598E-07, , 
DataValue, -2, -5.5586E-07, 5.5586E-07, , 
DataValue, -1.99, -5.8174E-07, 5.8174E-07, , 
DataValue, -1.9800000000000002, -6.8752E-07, 6.8752E-07, , 
DataValue, -1.9700000000000002, -5.8678E-07, 5.8678E-07, , 
DataValue, -1.9600000000000002, -5.5928E-07, 5.5928E-07, , 
DataValue, -1.9500000000000002, -5.3932E-07, 5.3932E-07, , 
DataValue, -1.9400000000000002, -5.363E-07, 5.363E-07, , 
DataValue, -1.9300000000000002, -5.0738E-07, 5.0738E-07, , 
DataValue, -1.9200000000000002, -4.3816E-07, 4.3816E-07, , 
DataValue, -1.9100000000000001, -5.4262E-07, 5.4262E-07, , 
DataValue, -1.9000000000000001, -4.94E-07, 4.94E-07, , 
DataValue, -1.8900000000000001, -4.0024E-07, 4.0024E-07, , 
DataValue, -1.8800000000000001, -4.5395999999999997E-07, 4.5395999999999997E-07, , 
DataValue, -1.87, -4.4226E-07, 4.4226E-07, , 
DataValue, -1.86, -4.302E-07, 4.302E-07, , 
DataValue, -1.85, -4.1976E-07, 4.1976E-07, , 
DataValue, -1.84, -4.3299999999999997E-07, 4.3299999999999997E-07, , 
DataValue, -1.83, -3.9536E-07, 3.9536E-07, , 
DataValue, -1.82, -3.8918E-07, 3.8918E-07, , 
DataValue, -1.81, -4.0666E-07, 4.0666E-07, , 
DataValue, -1.8, -3.848E-07, 3.848E-07, , 
DataValue, -1.79, -3.6132E-07, 3.6132E-07, , 
DataValue, -1.78, -2.701E-07, 2.701E-07, , 
DataValue, -1.77, -3.355E-07, 3.355E-07, , 
DataValue, -1.76, -3.356E-07, 3.356E-07, , 
DataValue, -1.75, -3.2222E-07, 3.2222E-07, , 
DataValue, -1.74, -2.6186E-07, 2.6186E-07, , 
DataValue, -1.73, -2.4808E-07, 2.4808E-07, , 
DataValue, -1.72, -3.0378E-07, 3.0378E-07, , 
DataValue, -1.7100000000000002, -2.9713999999999997E-07, 2.9713999999999997E-07, , 
DataValue, -1.7000000000000002, -2.811E-07, 2.811E-07, , 
DataValue, -1.6900000000000002, -2.7316E-07, 2.7316E-07, , 
DataValue, -1.6800000000000002, -2.814E-07, 2.814E-07, , 
DataValue, -1.6700000000000002, -2.7308E-07, 2.7308E-07, , 
DataValue, -1.6600000000000001, -2.5326E-07, 2.5326E-07, , 
