
SetupTitle, ExtFET - NEG RESET BE-2.0V
PrimitiveTest, I/V Sweep
TestParameter, Context.MainFrame, B1500A
TestParameter, Channel.UnitType, SMU, SMU, SMU
TestParameter, Channel.Unit, SMU2:HR, SMU4:HR, SMU3:HR
TestParameter, Channel.IName, I_TE, I_BE, I_G
TestParameter, Channel.VName, V_TE, V_BE, V_G
TestParameter, Channel.Mode, V, COMMON, V
TestParameter, Channel.Func, VAR1, CONST, CONST
TestParameter, Channel.Index, 
TestParameter, Channel.Time, 
TestParameter, Measurement.Port.Unit, SMU2:HR, SMU4:HR, SMU3:HR
TestParameter, Measurement.Port.SeriesResistor, NONE, NONE, NONE
TestParameter, Measurement.Port.Filter, ON, ON, ON
TestParameter, Measurement.Port.OutputVoltageComparison, 0, 0, 0
TestParameter, Measurement.Primary.Locus, Double
TestParameter, Measurement.Primary.Scale, LINEAR
TestParameter, Measurement.Primary.Start, 0
TestParameter, Measurement.Primary.Stop, -2
TestParameter, Measurement.Primary.Step, -0.01
TestParameter, Measurement.Primary.Compliance, 0.01
TestParameter, Measurement.Primary.PowerCompliance, 0
TestParameter, Measurement.Aborting.Condition, CONTINUE AT ANY
TestParameter, Measurement.PostOutput.Value, START
TestParameter, Measurement.PostOutput.Retention, OFF
TestParameter, Measurement.Bias.Source, 0, 0, 2
TestParameter, Measurement.Bias.Compliance, 0.01, 0.1, 0.0001
TestParameter, Measurement.Monitor.Unit, SMU2:HR, SMU4:HR, SMU3:HR
TestParameter, Measurement.Monitor.Adc, HR ADC, HR ADC, HR ADC
TestParameter, Measurement.Monitor.Measurement, Compliance Side, Compliance Side, Compliance Side
TestParameter, Measurement.Monitor.RangingMode, LIMITED, LIMITED, LIMITED
TestParameter, Measurement.Monitor.RangeBoundary, 1nA, 1nA, 1nA
TestParameter, Measurement.Monitor.RangeRating, BY FULL RANGE, BY FULL RANGE, BY FULL RANGE
TestParameter, Measurement.Monitor.RangeRatingCoeff, 50, 50, 50
TestParameter, Measurement.Timing.Hold, 0
TestParameter, Measurement.Timing.Delay, 0
TestParameter, Measurement.Adc.HighSpeed.Mode, AUTO
TestParameter, Measurement.Adc.HighSpeed.Coeff, 1
TestParameter, Measurement.Adc.HighResolution.AutoZero, OFF
TestParameter, Measurement.Adc.HighResolution.Mode, AUTO
TestParameter, Measurement.Adc.HighResolution.Coeff, 6
TestParameter, Measurement.WaitTime.Source.Coeff, 1
TestParameter, Measurement.WaitTime.Source.Offset, 0
TestParameter, Measurement.WaitTime.Monitor.Coeff, 1
TestParameter, Measurement.WaitTime.Monitor.Offset, 0
TestParameter, Function.User.Name, absITE
TestParameter, Function.User.Unit, A
TestParameter, Function.User.Definition, abs(I_TE)
TestParameter, Output.Graph.Enabled, true
TestParameter, Output.Graph.AutoScaling, false
TestParameter, Output.Graph.XAxis.Data, V_TE
TestParameter, Output.Graph.XAxis.Scale, Linear
TestParameter, Output.Graph.XAxis.Left, 0
TestParameter, Output.Graph.XAxis.Right, 10
TestParameter, Output.Graph.XAxis.RunTimeAutoScale, true
TestParameter, Output.Graph.YAxis.Data, absITE
TestParameter, Output.Graph.YAxis.Scale, Log
TestParameter, Output.Graph.YAxis.Bottom, 0
TestParameter, Output.Graph.YAxis.Top, 1
TestParameter, Output.Graph.YAxis.Group, 
TestParameter, Output.Graph.YAxis.RunTimeAutoScale, true
TestParameter, Output.List.Data, V1, I2abs
TestParameter, AutoAnalysis.Interpolation, false
TestParameter, AutoAnalysis.Var2StepCount, 1
TestParameter, AutoAnalysis.Var2StepScript, 
TestParameter, AutoAnalysis.Line1.Enabled, false
TestParameter, AutoAnalysis.Line1.Type, 1
TestParameter, AutoAnalysis.Line1.Fix, True
TestParameter, AutoAnalysis.Line1.YAxis, 0
TestParameter, AutoAnalysis.Line1.Point1.Type, 0
TestParameter, AutoAnalysis.Line1.Point1.XY.X, 
TestParameter, AutoAnalysis.Line1.Point1.XY.Y, 
TestParameter, AutoAnalysis.Line1.Point1.Data.Var, 
TestParameter, AutoAnalysis.Line1.Point1.Data.Condition, 
TestParameter, AutoAnalysis.Line1.Point1.Data.Start, false
TestParameter, AutoAnalysis.Line1.Point1.Data.StartVar, 
TestParameter, AutoAnalysis.Line1.Point1.Data.StartCondition, 
TestParameter, AutoAnalysis.Line1.Point2.Type, 0
TestParameter, AutoAnalysis.Line1.Point2.XY.X, 
TestParameter, AutoAnalysis.Line1.Point2.XY.Y, 
TestParameter, AutoAnalysis.Line1.Point2.Data.Var, 
TestParameter, AutoAnalysis.Line1.Point2.Data.Condition, 
TestParameter, AutoAnalysis.Line1.Point2.Data.Start, false
TestParameter, AutoAnalysis.Line1.Point2.Data.StartVar, 
TestParameter, AutoAnalysis.Line1.Point2.Data.StartCondition, 
TestParameter, AutoAnalysis.Line1.GradientExpr, 0
TestParameter, AutoAnalysis.Line2.Enabled, false
TestParameter, AutoAnalysis.Line2.Type, 1
TestParameter, AutoAnalysis.Line2.Fix, True
TestParameter, AutoAnalysis.Line2.YAxis, 0
TestParameter, AutoAnalysis.Line2.Point1.Type, 0
TestParameter, AutoAnalysis.Line2.Point1.XY.X, 
TestParameter, AutoAnalysis.Line2.Point1.XY.Y, 
TestParameter, AutoAnalysis.Line2.Point1.Data.Var, 
TestParameter, AutoAnalysis.Line2.Point1.Data.Condition, 
TestParameter, AutoAnalysis.Line2.Point1.Data.Start, false
TestParameter, AutoAnalysis.Line2.Point1.Data.StartVar, 
TestParameter, AutoAnalysis.Line2.Point1.Data.StartCondition, 
TestParameter, AutoAnalysis.Line2.Point2.Type, 0
TestParameter, AutoAnalysis.Line2.Point2.XY.X, 
TestParameter, AutoAnalysis.Line2.Point2.XY.Y, 
TestParameter, AutoAnalysis.Line2.Point2.Data.Var, 
TestParameter, AutoAnalysis.Line2.Point2.Data.Condition, 
TestParameter, AutoAnalysis.Line2.Point2.Data.Start, false
TestParameter, AutoAnalysis.Line2.Point2.Data.StartVar, 
TestParameter, AutoAnalysis.Line2.Point2.Data.StartCondition, 
TestParameter, AutoAnalysis.Line2.GradientExpr, 0
TestParameter, AutoAnalysis.Marker.Enabled, false
TestParameter, AutoAnalysis.Marker.Data.Var, 
TestParameter, AutoAnalysis.Marker.Data.Condition, 
TestParameter, AutoAnalysis.Marker.Data.Start, false
TestParameter, AutoAnalysis.Marker.Data.StartVar, 
TestParameter, AutoAnalysis.Marker.Data.StartCondition, 
MetaData, TestRecord.EntryPoint, true
MetaData, TestRecord.RecordTime, 04/15/2020 15:08:57
MetaData, TestRecord.TestTarget, S48_ExtFET_3D-C06_[10k-RES]_[TiN-BE]
MetaData, TestRecord.IterationIndex, 65
MetaData, TestRecord.Preservation, true
MetaData, TestRecord.Flag, 
MetaData, TestRecord.Remarks, 
MetaData, TestRecord.LinkKey, b9aaefab-e70e-4d1b-80d5-4ebafae6496f
MetaData, TestRecord.Parameters, 
Dimension1, 402, 402, 402, 402, 402
Dimension2, 1, 1, 1, 1, 1
DataName, V_TE, I_TE, absITE, V1, I2abs
DataValue, 0, 1.8377E-09, 1.8377E-09, , 
DataValue, -0.01, -5.4764E-07, 5.4764E-07, , 
DataValue, -0.02, -1.09912E-06, 1.09912E-06, , 
DataValue, -0.030000000000000002, -1.6539000000000002E-06, 1.6539000000000002E-06, , 
DataValue, -0.04, -2.2045000000000002E-06, 2.2045000000000002E-06, , 
DataValue, -0.05, -2.7559E-06, 2.7559E-06, , 
DataValue, -0.060000000000000005, -3.3E-06, 3.3E-06, , 
DataValue, -0.07, -3.8247E-06, 3.8247E-06, , 
DataValue, -0.08, -4.3793000000000006E-06, 4.3793000000000006E-06, , 
DataValue, -0.090000000000000011, -4.9229000000000008E-06, 4.9229000000000008E-06, , 
DataValue, -0.1, -5.4693E-06, 5.4693E-06, , 
DataValue, -0.11, -6.0253000000000006E-06, 6.0253000000000006E-06, , 
DataValue, -0.12000000000000001, -6.575200000000001E-06, 6.575200000000001E-06, , 
DataValue, -0.13, -7.0838000000000007E-06, 7.0838000000000007E-06, , 
DataValue, -0.14, -7.6215000000000006E-06, 7.6215000000000006E-06, , 
DataValue, -0.15, -8.1623000000000015E-06, 8.1623000000000015E-06, , 
DataValue, -0.16, -8.6907000000000013E-06, 8.6907000000000013E-06, , 
DataValue, -0.17, -9.2714E-06, 9.2714E-06, , 
DataValue, -0.18000000000000002, -9.7689E-06, 9.7689E-06, , 
DataValue, -0.19, -1.0302300000000001E-05, 1.0302300000000001E-05, , 
DataValue, -0.2, -1.08336E-05, 1.08336E-05, , 
DataValue, -0.21000000000000002, -1.1355400000000001E-05, 1.1355400000000001E-05, , 
DataValue, -0.22, -1.1900000000000001E-05, 1.1900000000000001E-05, , 
DataValue, -0.23, -1.2430000000000001E-05, 1.2430000000000001E-05, , 
DataValue, -0.24000000000000002, -1.2960000000000001E-05, 1.2960000000000001E-05, , 
DataValue, -0.25, -1.3490000000000001E-05, 1.3490000000000001E-05, , 
DataValue, -0.26, -1.4008E-05, 1.4008E-05, , 
DataValue, -0.27, -1.4542E-05, 1.4542E-05, , 
DataValue, -0.28, -1.5082E-05, 1.5082E-05, , 
DataValue, -0.29000000000000004, -1.5646E-05, 1.5646E-05, , 
DataValue, -0.3, -1.6084E-05, 1.6084E-05, , 
DataValue, -0.31, -1.6610000000000002E-05, 1.6610000000000002E-05, , 
DataValue, -0.32, -1.7116E-05, 1.7116E-05, , 
DataValue, -0.33, -1.7630000000000002E-05, 1.7630000000000002E-05, , 
DataValue, -0.34, -1.8152000000000002E-05, 1.8152000000000002E-05, , 
DataValue, -0.35000000000000003, -1.8664E-05, 1.8664E-05, , 
DataValue, -0.36000000000000004, -1.9222E-05, 1.9222E-05, , 
DataValue, -0.37, -1.9772E-05, 1.9772E-05, , 
DataValue, -0.38, -2.0266000000000002E-05, 2.0266000000000002E-05, , 
DataValue, -0.39, -2.0776000000000002E-05, 2.0776000000000002E-05, , 
DataValue, -0.4, -2.1282E-05, 2.1282E-05, , 
DataValue, -0.41000000000000003, -2.1822000000000002E-05, 2.1822000000000002E-05, , 
DataValue, -0.42000000000000004, -2.2288E-05, 2.2288E-05, , 
DataValue, -0.43, -2.2754E-05, 2.2754E-05, , 
DataValue, -0.44, -2.3296000000000002E-05, 2.3296000000000002E-05, , 
DataValue, -0.45, -2.3840000000000002E-05, 2.3840000000000002E-05, , 
DataValue, -0.46, -2.4352E-05, 2.4352E-05, , 
DataValue, -0.47000000000000003, -1.499E-05, 1.499E-05, , 
DataValue, -0.48000000000000004, -1.6366000000000002E-05, 1.6366000000000002E-05, , 
DataValue, -0.49000000000000005, -1.6074E-05, 1.6074E-05, , 
DataValue, -0.5, -6.678E-06, 6.678E-06, , 
DataValue, -0.51, -1.9896E-05, 1.9896E-05, , 
DataValue, -0.52, -1.8104E-05, 1.8104E-05, , 
DataValue, -0.53, -1.904E-05, 1.904E-05, , 
DataValue, -0.54, -1.8098000000000002E-05, 1.8098000000000002E-05, , 
DataValue, -0.55, -1.672E-05, 1.672E-05, , 
DataValue, -0.56, -2.5588E-05, 2.5588E-05, , 
DataValue, -0.57000000000000006, -2.1516000000000002E-05, 2.1516000000000002E-05, , 
DataValue, -0.58000000000000007, -2.163E-05, 2.163E-05, , 
DataValue, -0.59000000000000008, -2.1802000000000002E-05, 2.1802000000000002E-05, , 
DataValue, -0.6, -2.3786000000000002E-05, 2.3786000000000002E-05, , 
DataValue, -0.61, -2.5102E-05, 2.5102E-05, , 
DataValue, -0.62, -2.2764E-05, 2.2764E-05, , 
DataValue, -0.63, -2.5394E-05, 2.5394E-05, , 
DataValue, -0.64, -2.5898000000000002E-05, 2.5898000000000002E-05, , 
DataValue, -0.65, -2.6342E-05, 2.6342E-05, , 
DataValue, -0.66, -2.8242E-05, 2.8242E-05, , 
DataValue, -0.67, -2.803E-05, 2.803E-05, , 
DataValue, -0.68, -2.8404E-05, 2.8404E-05, , 
DataValue, -0.69000000000000006, -2.839E-05, 2.839E-05, , 
DataValue, -0.70000000000000007, -2.8858E-05, 2.8858E-05, , 
DataValue, -0.71000000000000008, -2.9368E-05, 2.9368E-05, , 
DataValue, -0.72000000000000008, -2.814E-05, 2.814E-05, , 
DataValue, -0.73, -2.6604E-05, 2.6604E-05, , 
DataValue, -0.74, -2.7322E-05, 2.7322E-05, , 
DataValue, -0.75, -2.684E-05, 2.684E-05, , 
DataValue, -0.76, -2.7866E-05, 2.7866E-05, , 
DataValue, -0.77, -2.773E-05, 2.773E-05, , 
DataValue, -0.78, -2.6946000000000003E-05, 2.6946000000000003E-05, , 
DataValue, -0.79, -2.6342E-05, 2.6342E-05, , 
DataValue, -0.8, -2.4348E-05, 2.4348E-05, , 
DataValue, -0.81, -2.289E-05, 2.289E-05, , 
DataValue, -0.82000000000000006, -2.1122000000000002E-05, 2.1122000000000002E-05, , 
DataValue, -0.83000000000000007, -2.4184E-05, 2.4184E-05, , 
DataValue, -0.84000000000000008, -2.5584E-05, 2.5584E-05, , 
DataValue, -0.85000000000000009, -2.3438E-05, 2.3438E-05, , 
DataValue, -0.86, -2.2266E-05, 2.2266E-05, , 
DataValue, -0.87, -2.3458E-05, 2.3458E-05, , 
DataValue, -0.88, -2.0544000000000002E-05, 2.0544000000000002E-05, , 
DataValue, -0.89, -2.3458E-05, 2.3458E-05, , 
DataValue, -0.9, -2.0052E-05, 2.0052E-05, , 
DataValue, -0.91, -2.0572000000000002E-05, 2.0572000000000002E-05, , 
DataValue, -0.92, -1.7460000000000002E-05, 1.7460000000000002E-05, , 
DataValue, -0.93, -1.8138E-05, 1.8138E-05, , 
DataValue, -0.94000000000000006, -1.8332E-05, 1.8332E-05, , 
DataValue, -0.95000000000000007, -1.584E-05, 1.584E-05, , 
DataValue, -0.96000000000000008, -1.5546E-05, 1.5546E-05, , 
DataValue, -0.97000000000000008, -1.554E-05, 1.554E-05, , 
DataValue, -0.98000000000000009, -1.9262E-05, 1.9262E-05, , 
DataValue, -0.9900000000000001, -1.5902E-05, 1.5902E-05, , 
DataValue, -1, -1.7206E-05, 1.7206E-05, , 
DataValue, -1.01, -1.6772E-05, 1.6772E-05, , 
DataValue, -1.02, -1.4596E-05, 1.4596E-05, , 
DataValue, -1.03, -1.2084E-05, 1.2084E-05, , 
DataValue, -1.04, -1.3424E-05, 1.3424E-05, , 
DataValue, -1.05, -1.0834E-05, 1.0834E-05, , 
DataValue, -1.06, -1.3638E-05, 1.3638E-05, , 
DataValue, -1.07, -1.3338E-05, 1.3338E-05, , 
DataValue, -1.08, -1.1786E-05, 1.1786E-05, , 
DataValue, -1.09, -1.4708E-05, 1.4708E-05, , 
DataValue, -1.1, -1.2990000000000001E-05, 1.2990000000000001E-05, , 
DataValue, -1.11, -1.2042000000000001E-05, 1.2042000000000001E-05, , 
DataValue, -1.12, -1.2166E-05, 1.2166E-05, , 
DataValue, -1.1300000000000001, -1.2866E-05, 1.2866E-05, , 
DataValue, -1.1400000000000001, -1.2166E-05, 1.2166E-05, , 
DataValue, -1.1500000000000001, -1.3314E-05, 1.3314E-05, , 
DataValue, -1.1600000000000001, -1.3988E-05, 1.3988E-05, , 
DataValue, -1.1700000000000002, -1.2926000000000001E-05, 1.2926000000000001E-05, , 
DataValue, -1.1800000000000002, -1.2866E-05, 1.2866E-05, , 
DataValue, -1.19, -1.2164E-05, 1.2164E-05, , 
DataValue, -1.2, -1.2642E-05, 1.2642E-05, , 
DataValue, -1.21, -1.4304E-05, 1.4304E-05, , 
DataValue, -1.22, -1.4852000000000001E-05, 1.4852000000000001E-05, , 
DataValue, -1.23, -1.4002E-05, 1.4002E-05, , 
DataValue, -1.24, -9.058E-06, 9.058E-06, , 
DataValue, -1.25, -1.2004E-05, 1.2004E-05, , 
DataValue, -1.26, -1.2592E-05, 1.2592E-05, , 
DataValue, -1.27, -1.3412E-05, 1.3412E-05, , 
DataValue, -1.28, -1.2552000000000001E-05, 1.2552000000000001E-05, , 
DataValue, -1.29, -1.0966E-05, 1.0966E-05, , 
DataValue, -1.3, -1.2976E-05, 1.2976E-05, , 
DataValue, -1.31, -1.483E-07, 1.483E-07, , 
DataValue, -1.32, -1.5656E-07, 1.5656E-07, , 
DataValue, -1.33, -1.923E-07, 1.923E-07, , 
DataValue, -1.34, -1.6566E-07, 1.6566E-07, , 
DataValue, -1.35, -1.5708E-07, 1.5708E-07, , 
DataValue, -1.36, -1.7176E-07, 1.7176E-07, , 
DataValue, -1.37, -1.8128E-07, 1.8128E-07, , 
DataValue, -1.3800000000000001, -1.9288E-07, 1.9288E-07, , 
DataValue, -1.3900000000000001, -2.0888E-07, 2.0888E-07, , 
DataValue, -1.4000000000000001, -2.0092E-07, 2.0092E-07, , 
DataValue, -1.4100000000000001, -2.2108E-07, 2.2108E-07, , 
DataValue, -1.4200000000000002, -2.1882E-07, 2.1882E-07, , 
DataValue, -1.4300000000000002, -2.1552E-07, 2.1552E-07, , 
DataValue, -1.4400000000000002, -2.0505999999999999E-07, 2.0505999999999999E-07, , 
DataValue, -1.4500000000000002, -2.4532E-07, 2.4532E-07, , 
DataValue, -1.46, -2.4852E-07, 2.4852E-07, , 
DataValue, -1.47, -1.6796E-07, 1.6796E-07, , 
DataValue, -1.48, -1.8952E-07, 1.8952E-07, , 
DataValue, -1.49, -1.9368E-07, 1.9368E-07, , 
DataValue, -1.5, -1.9835999999999998E-07, 1.9835999999999998E-07, , 
DataValue, -1.51, -2.2532E-07, 2.2532E-07, , 
DataValue, -1.52, -2.6566E-07, 2.6566E-07, , 
DataValue, -1.53, -2.5242E-07, 2.5242E-07, , 
DataValue, -1.54, -2.6888E-07, 2.6888E-07, , 
DataValue, -1.55, -2.4864E-07, 2.4864E-07, , 
DataValue, -1.56, -2.8574E-07, 2.8574E-07, , 
DataValue, -1.57, -2.8238E-07, 2.8238E-07, , 
DataValue, -1.58, -3.4356E-07, 3.4356E-07, , 
DataValue, -1.59, -3.3784E-07, 3.3784E-07, , 
DataValue, -1.6, -2.992E-07, 2.992E-07, , 
DataValue, -1.61, -3.1431999999999997E-07, 3.1431999999999997E-07, , 
DataValue, -1.62, -3.1752E-07, 3.1752E-07, , 
DataValue, -1.6300000000000001, -3.3824E-07, 3.3824E-07, , 
DataValue, -1.6400000000000001, -3.2718E-07, 3.2718E-07, , 
DataValue, -1.6500000000000001, -3.7446E-07, 3.7446E-07, , 
DataValue, -1.6600000000000001, -4.4424E-07, 4.4424E-07, , 
DataValue, -1.6700000000000002, -4.105E-07, 4.105E-07, , 
DataValue, -1.6800000000000002, -4.1543999999999997E-07, 4.1543999999999997E-07, , 
DataValue, -1.6900000000000002, -4.0848E-07, 4.0848E-07, , 
DataValue, -1.7000000000000002, -4.2868E-07, 4.2868E-07, , 
DataValue, -1.7100000000000002, -4.3964E-07, 4.3964E-07, , 
DataValue, -1.72, -4.6136E-07, 4.6136E-07, , 
DataValue, -1.73, -4.9305999999999994E-07, 4.9305999999999994E-07, , 
DataValue, -1.74, -5.1198E-07, 5.1198E-07, , 
DataValue, -1.75, -5.4683999999999994E-07, 5.4683999999999994E-07, , 
DataValue, -1.76, -5.7204E-07, 5.7204E-07, , 
DataValue, -1.77, -5.6544E-07, 5.6544E-07, , 
DataValue, -1.78, -5.3934E-07, 5.3934E-07, , 
DataValue, -1.79, -5.753E-07, 5.753E-07, , 
DataValue, -1.8, -6.2764E-07, 6.2764E-07, , 
DataValue, -1.81, -6.571E-07, 6.571E-07, , 
DataValue, -1.82, -6.9838E-07, 6.9838E-07, , 
DataValue, -1.83, -6.6308E-07, 6.6308E-07, , 
DataValue, -1.84, -7.2352E-07, 7.2352E-07, , 
DataValue, -1.85, -6.596E-07, 6.596E-07, , 
DataValue, -1.86, -6.8286E-07, 6.8286E-07, , 
DataValue, -1.87, -7.3802E-07, 7.3802E-07, , 
DataValue, -1.8800000000000001, -7.3208E-07, 7.3208E-07, , 
DataValue, -1.8900000000000001, -7.4184E-07, 7.4184E-07, , 
DataValue, -1.9000000000000001, -9.0752E-07, 9.0752E-07, , 
DataValue, -1.9100000000000001, -8.0122E-07, 8.0122E-07, , 
DataValue, -1.9200000000000002, -7.9437999999999994E-07, 7.9437999999999994E-07, , 
DataValue, -1.9300000000000002, -7.9829999999999994E-07, 7.9829999999999994E-07, , 
DataValue, -1.9400000000000002, -7.7574E-07, 7.7574E-07, , 
DataValue, -1.9500000000000002, -6.9532E-07, 6.9532E-07, , 
DataValue, -1.9600000000000002, -6.8414E-07, 6.8414E-07, , 
DataValue, -1.9700000000000002, -7.1542E-07, 7.1542E-07, , 
DataValue, -1.9800000000000002, -7.6141999999999995E-07, 7.6141999999999995E-07, , 
DataValue, -1.99, -8.0828E-07, 8.0828E-07, , 
DataValue, -2, -8.3024E-07, 8.3024E-07, , 
DataValue, -2, -8.2614E-07, 8.2614E-07, , 
DataValue, -1.99, -7.8352E-07, 7.8352E-07, , 
DataValue, -1.9800000000000002, -7.8094E-07, 7.8094E-07, , 
DataValue, -1.9700000000000002, -6.2426E-07, 6.2426E-07, , 
DataValue, -1.9600000000000002, -6.2222E-07, 6.2222E-07, , 
DataValue, -1.9500000000000002, -6.9872E-07, 6.9872E-07, , 
DataValue, -1.9400000000000002, -6.3802E-07, 6.3802E-07, , 
DataValue, -1.9300000000000002, -7.213E-07, 7.213E-07, , 
DataValue, -1.9200000000000002, -5.3282E-07, 5.3282E-07, , 
DataValue, -1.9100000000000001, -5.9012E-07, 5.9012E-07, , 
DataValue, -1.9000000000000001, -5.9538E-07, 5.9538E-07, , 
DataValue, -1.8900000000000001, -6.468E-07, 6.468E-07, , 
DataValue, -1.8800000000000001, -6.0626E-07, 6.0626E-07, , 
DataValue, -1.87, -5.8628E-07, 5.8628E-07, , 
DataValue, -1.86, -5.4912E-07, 5.4912E-07, , 
DataValue, -1.85, -6.4424E-07, 6.4424E-07, , 
DataValue, -1.84, -5.5729999999999994E-07, 5.5729999999999994E-07, , 
DataValue, -1.83, -5.611E-07, 5.611E-07, , 
DataValue, -1.82, -5.4316E-07, 5.4316E-07, , 
DataValue, -1.81, -5.2724E-07, 5.2724E-07, , 
DataValue, -1.8, -5.9256E-07, 5.9256E-07, , 
DataValue, -1.79, -5.4402E-07, 5.4402E-07, , 
DataValue, -1.78, -4.7015999999999997E-07, 4.7015999999999997E-07, , 
DataValue, -1.77, -4.5742E-07, 4.5742E-07, , 
DataValue, -1.76, -4.1882E-07, 4.1882E-07, , 
DataValue, -1.75, -4.0854E-07, 4.0854E-07, , 
DataValue, -1.74, -4.1128E-07, 4.1128E-07, , 
DataValue, -1.73, -3.8398E-07, 3.8398E-07, , 
DataValue, -1.72, -3.6548E-07, 3.6548E-07, , 
DataValue, -1.7100000000000002, -3.897E-07, 3.897E-07, , 
DataValue, -1.7000000000000002, -4.464E-07, 4.464E-07, , 
DataValue, -1.6900000000000002, -4.1378E-07, 4.1378E-07, , 
DataValue, -1.6800000000000002, -4.0192E-07, 4.0192E-07, , 
DataValue, -1.6700000000000002, -3.9496E-07, 3.9496E-07, , 
DataValue, -1.6600000000000001, -3.4746E-07, 3.4746E-07, , 
DataValue, -1.6500000000000001, -2.975E-07, 2.975E-07, , 
DataValue, -1.6400000000000001, -2.9878E-07, 2.9878E-07, , 
