
SetupTitle, ExtFET - NEG RESET BE-2.0V
PrimitiveTest, I/V Sweep
TestParameter, Context.MainFrame, B1500A
TestParameter, Channel.UnitType, SMU, SMU, SMU
TestParameter, Channel.Unit, SMU2:HR, SMU4:HR, SMU3:HR
TestParameter, Channel.IName, I_TE, I_BE, I_G
TestParameter, Channel.VName, V_TE, V_BE, V_G
TestParameter, Channel.Mode, V, COMMON, V
TestParameter, Channel.Func, VAR1, CONST, CONST
TestParameter, Channel.Index, 
TestParameter, Channel.Time, 
TestParameter, Measurement.Port.Unit, SMU2:HR, SMU4:HR, SMU3:HR
TestParameter, Measurement.Port.SeriesResistor, NONE, NONE, NONE
TestParameter, Measurement.Port.Filter, ON, ON, ON
TestParameter, Measurement.Port.OutputVoltageComparison, 0, 0, 0
TestParameter, Measurement.Primary.Locus, Double
TestParameter, Measurement.Primary.Scale, LINEAR
TestParameter, Measurement.Primary.Start, 0
TestParameter, Measurement.Primary.Stop, -2
TestParameter, Measurement.Primary.Step, -0.01
TestParameter, Measurement.Primary.Compliance, 0.01
TestParameter, Measurement.Primary.PowerCompliance, 0
TestParameter, Measurement.Aborting.Condition, CONTINUE AT ANY
TestParameter, Measurement.PostOutput.Value, START
TestParameter, Measurement.PostOutput.Retention, OFF
TestParameter, Measurement.Bias.Source, 0, 0, 2
TestParameter, Measurement.Bias.Compliance, 0.01, 0.1, 0.0001
TestParameter, Measurement.Monitor.Unit, SMU2:HR, SMU4:HR, SMU3:HR
TestParameter, Measurement.Monitor.Adc, HR ADC, HR ADC, HR ADC
TestParameter, Measurement.Monitor.Measurement, Compliance Side, Compliance Side, Compliance Side
TestParameter, Measurement.Monitor.RangingMode, LIMITED, LIMITED, LIMITED
TestParameter, Measurement.Monitor.RangeBoundary, 1nA, 1nA, 1nA
TestParameter, Measurement.Monitor.RangeRating, BY FULL RANGE, BY FULL RANGE, BY FULL RANGE
TestParameter, Measurement.Monitor.RangeRatingCoeff, 50, 50, 50
TestParameter, Measurement.Timing.Hold, 0
TestParameter, Measurement.Timing.Delay, 0
TestParameter, Measurement.Adc.HighSpeed.Mode, AUTO
TestParameter, Measurement.Adc.HighSpeed.Coeff, 1
TestParameter, Measurement.Adc.HighResolution.AutoZero, OFF
TestParameter, Measurement.Adc.HighResolution.Mode, AUTO
TestParameter, Measurement.Adc.HighResolution.Coeff, 6
TestParameter, Measurement.WaitTime.Source.Coeff, 1
TestParameter, Measurement.WaitTime.Source.Offset, 0
TestParameter, Measurement.WaitTime.Monitor.Coeff, 1
TestParameter, Measurement.WaitTime.Monitor.Offset, 0
TestParameter, Function.User.Name, absITE
TestParameter, Function.User.Unit, A
TestParameter, Function.User.Definition, abs(I_TE)
TestParameter, Output.Graph.Enabled, true
TestParameter, Output.Graph.AutoScaling, false
TestParameter, Output.Graph.XAxis.Data, V_TE
TestParameter, Output.Graph.XAxis.Scale, Linear
TestParameter, Output.Graph.XAxis.Left, 0
TestParameter, Output.Graph.XAxis.Right, 10
TestParameter, Output.Graph.XAxis.RunTimeAutoScale, true
TestParameter, Output.Graph.YAxis.Data, absITE
TestParameter, Output.Graph.YAxis.Scale, Log
TestParameter, Output.Graph.YAxis.Bottom, 0
TestParameter, Output.Graph.YAxis.Top, 1
TestParameter, Output.Graph.YAxis.Group, 
TestParameter, Output.Graph.YAxis.RunTimeAutoScale, true
TestParameter, Output.List.Data, V1, I2abs
TestParameter, AutoAnalysis.Interpolation, false
TestParameter, AutoAnalysis.Var2StepCount, 1
TestParameter, AutoAnalysis.Var2StepScript, 
TestParameter, AutoAnalysis.Line1.Enabled, false
TestParameter, AutoAnalysis.Line1.Type, 1
TestParameter, AutoAnalysis.Line1.Fix, True
TestParameter, AutoAnalysis.Line1.YAxis, 0
TestParameter, AutoAnalysis.Line1.Point1.Type, 0
TestParameter, AutoAnalysis.Line1.Point1.XY.X, 
TestParameter, AutoAnalysis.Line1.Point1.XY.Y, 
TestParameter, AutoAnalysis.Line1.Point1.Data.Var, 
TestParameter, AutoAnalysis.Line1.Point1.Data.Condition, 
TestParameter, AutoAnalysis.Line1.Point1.Data.Start, false
TestParameter, AutoAnalysis.Line1.Point1.Data.StartVar, 
TestParameter, AutoAnalysis.Line1.Point1.Data.StartCondition, 
TestParameter, AutoAnalysis.Line1.Point2.Type, 0
TestParameter, AutoAnalysis.Line1.Point2.XY.X, 
TestParameter, AutoAnalysis.Line1.Point2.XY.Y, 
TestParameter, AutoAnalysis.Line1.Point2.Data.Var, 
TestParameter, AutoAnalysis.Line1.Point2.Data.Condition, 
TestParameter, AutoAnalysis.Line1.Point2.Data.Start, false
TestParameter, AutoAnalysis.Line1.Point2.Data.StartVar, 
TestParameter, AutoAnalysis.Line1.Point2.Data.StartCondition, 
TestParameter, AutoAnalysis.Line1.GradientExpr, 0
TestParameter, AutoAnalysis.Line2.Enabled, false
TestParameter, AutoAnalysis.Line2.Type, 1
TestParameter, AutoAnalysis.Line2.Fix, True
TestParameter, AutoAnalysis.Line2.YAxis, 0
TestParameter, AutoAnalysis.Line2.Point1.Type, 0
TestParameter, AutoAnalysis.Line2.Point1.XY.X, 
TestParameter, AutoAnalysis.Line2.Point1.XY.Y, 
TestParameter, AutoAnalysis.Line2.Point1.Data.Var, 
TestParameter, AutoAnalysis.Line2.Point1.Data.Condition, 
TestParameter, AutoAnalysis.Line2.Point1.Data.Start, false
TestParameter, AutoAnalysis.Line2.Point1.Data.StartVar, 
TestParameter, AutoAnalysis.Line2.Point1.Data.StartCondition, 
TestParameter, AutoAnalysis.Line2.Point2.Type, 0
TestParameter, AutoAnalysis.Line2.Point2.XY.X, 
TestParameter, AutoAnalysis.Line2.Point2.XY.Y, 
TestParameter, AutoAnalysis.Line2.Point2.Data.Var, 
TestParameter, AutoAnalysis.Line2.Point2.Data.Condition, 
TestParameter, AutoAnalysis.Line2.Point2.Data.Start, false
TestParameter, AutoAnalysis.Line2.Point2.Data.StartVar, 
TestParameter, AutoAnalysis.Line2.Point2.Data.StartCondition, 
TestParameter, AutoAnalysis.Line2.GradientExpr, 0
TestParameter, AutoAnalysis.Marker.Enabled, false
TestParameter, AutoAnalysis.Marker.Data.Var, 
TestParameter, AutoAnalysis.Marker.Data.Condition, 
TestParameter, AutoAnalysis.Marker.Data.Start, false
TestParameter, AutoAnalysis.Marker.Data.StartVar, 
TestParameter, AutoAnalysis.Marker.Data.StartCondition, 
MetaData, TestRecord.EntryPoint, true
MetaData, TestRecord.RecordTime, 04/15/2020 15:09:19
MetaData, TestRecord.TestTarget, S48_ExtFET_3D-C06_[10k-RES]_[TiN-BE]
MetaData, TestRecord.IterationIndex, 67
MetaData, TestRecord.Preservation, true
MetaData, TestRecord.Flag, 
MetaData, TestRecord.Remarks, 
MetaData, TestRecord.LinkKey, 8e0aaaa8-6ca0-45a5-be6f-2793f1004f62
MetaData, TestRecord.Parameters, 
Dimension1, 402, 402, 402, 402, 402
Dimension2, 1, 1, 1, 1, 1
DataName, V_TE, I_TE, absITE, V1, I2abs
DataValue, 0, 2.0207E-09, 2.0207E-09, , 
DataValue, -0.01, -5.5044E-07, 5.5044E-07, , 
DataValue, -0.02, -1.09934E-06, 1.09934E-06, , 
DataValue, -0.030000000000000002, -1.6555E-06, 1.6555E-06, , 
DataValue, -0.04, -2.2086000000000003E-06, 2.2086000000000003E-06, , 
DataValue, -0.05, -2.7533000000000004E-06, 2.7533000000000004E-06, , 
DataValue, -0.060000000000000005, -3.3101000000000003E-06, 3.3101000000000003E-06, , 
DataValue, -0.07, -3.8540000000000007E-06, 3.8540000000000007E-06, , 
DataValue, -0.08, -4.3873E-06, 4.3873E-06, , 
DataValue, -0.090000000000000011, -4.94E-06, 4.94E-06, , 
DataValue, -0.1, -5.4877000000000008E-06, 5.4877000000000008E-06, , 
DataValue, -0.11, -6.0375E-06, 6.0375E-06, , 
DataValue, -0.12000000000000001, -6.5846000000000004E-06, 6.5846000000000004E-06, , 
DataValue, -0.13, -7.1094000000000009E-06, 7.1094000000000009E-06, , 
DataValue, -0.14, -7.6722E-06, 7.6722E-06, , 
DataValue, -0.15, -8.2004E-06, 8.2004E-06, , 
DataValue, -0.16, -8.7269000000000011E-06, 8.7269000000000011E-06, , 
DataValue, -0.17, -9.2782E-06, 9.2782E-06, , 
DataValue, -0.18000000000000002, -9.7983E-06, 9.7983E-06, , 
DataValue, -0.19, -1.0365000000000002E-05, 1.0365000000000002E-05, , 
DataValue, -0.2, -1.08799E-05, 1.08799E-05, , 
DataValue, -0.21000000000000002, -1.1394000000000001E-05, 1.1394000000000001E-05, , 
DataValue, -0.22, -1.1896000000000001E-05, 1.1896000000000001E-05, , 
DataValue, -0.23, -1.2430000000000001E-05, 1.2430000000000001E-05, , 
DataValue, -0.24000000000000002, -1.2988E-05, 1.2988E-05, , 
DataValue, -0.25, -1.3522E-05, 1.3522E-05, , 
DataValue, -0.26, -1.4002E-05, 1.4002E-05, , 
DataValue, -0.27, -1.4528E-05, 1.4528E-05, , 
DataValue, -0.28, -1.5078E-05, 1.5078E-05, , 
DataValue, -0.29000000000000004, -1.5524E-05, 1.5524E-05, , 
DataValue, -0.3, -1.6054E-05, 1.6054E-05, , 
DataValue, -0.31, -1.6526E-05, 1.6526E-05, , 
DataValue, -0.32, -1.7014E-05, 1.7014E-05, , 
DataValue, -0.33, -1.7592E-05, 1.7592E-05, , 
DataValue, -0.34, -1.8006E-05, 1.8006E-05, , 
DataValue, -0.35000000000000003, -1.8690000000000002E-05, 1.8690000000000002E-05, , 
DataValue, -0.36000000000000004, -1.9276E-05, 1.9276E-05, , 
DataValue, -0.37, -1.9784000000000002E-05, 1.9784000000000002E-05, , 
DataValue, -0.38, -2.0352E-05, 2.0352E-05, , 
DataValue, -0.39, -2.0678E-05, 2.0678E-05, , 
DataValue, -0.4, -2.1214E-05, 2.1214E-05, , 
DataValue, -0.41000000000000003, -2.1744E-05, 2.1744E-05, , 
DataValue, -0.42000000000000004, -2.2230000000000002E-05, 2.2230000000000002E-05, , 
DataValue, -0.43, -2.2728E-05, 2.2728E-05, , 
DataValue, -0.44, -2.34E-05, 2.34E-05, , 
DataValue, -0.45, -2.3484E-05, 2.3484E-05, , 
DataValue, -0.46, -2.3906E-05, 2.3906E-05, , 
DataValue, -0.47000000000000003, -2.4824E-05, 2.4824E-05, , 
DataValue, -0.48000000000000004, -2.5394E-05, 2.5394E-05, , 
DataValue, -0.49000000000000005, -2.585E-05, 2.585E-05, , 
DataValue, -0.5, -2.6422000000000002E-05, 2.6422000000000002E-05, , 
DataValue, -0.51, -2.6934E-05, 2.6934E-05, , 
DataValue, -0.52, -2.7078E-05, 2.7078E-05, , 
DataValue, -0.53, -2.7358E-05, 2.7358E-05, , 
DataValue, -0.54, -2.7814000000000002E-05, 2.7814000000000002E-05, , 
DataValue, -0.55, -2.8408E-05, 2.8408E-05, , 
DataValue, -0.56, -2.8694E-05, 2.8694E-05, , 
DataValue, -0.57000000000000006, -2.964E-05, 2.964E-05, , 
DataValue, -0.58000000000000007, -1.1813799999999998E-08, 1.1813799999999998E-08, , 
DataValue, -0.59000000000000008, -1.2931399999999999E-08, 1.2931399999999999E-08, , 
DataValue, -0.6, -1.585E-08, 1.585E-08, , 
DataValue, -0.61, -1.5902999999999997E-08, 1.5902999999999997E-08, , 
DataValue, -0.62, -1.0624599999999999E-08, 1.0624599999999999E-08, , 
DataValue, -0.63, -1.1171599999999999E-08, 1.1171599999999999E-08, , 
DataValue, -0.64, -1.1225599999999999E-08, 1.1225599999999999E-08, , 
DataValue, -0.65, -1.1651999999999999E-08, 1.1651999999999999E-08, , 
DataValue, -0.66, -1.1290599999999998E-08, 1.1290599999999998E-08, , 
DataValue, -0.67, -1.1529799999999999E-08, 1.1529799999999999E-08, , 
DataValue, -0.68, -1.2293799999999998E-08, 1.2293799999999998E-08, , 
DataValue, -0.69000000000000006, -1.2463599999999998E-08, 1.2463599999999998E-08, , 
DataValue, -0.70000000000000007, -1.2344199999999999E-08, 1.2344199999999999E-08, , 
DataValue, -0.71000000000000008, -1.3588199999999998E-08, 1.3588199999999998E-08, , 
DataValue, -0.72000000000000008, -1.4478999999999999E-08, 1.4478999999999999E-08, , 
DataValue, -0.73, -1.55186E-08, 1.55186E-08, , 
DataValue, -0.74, -1.5902399999999998E-08, 1.5902399999999998E-08, , 
DataValue, -0.75, -1.56914E-08, 1.56914E-08, , 
DataValue, -0.76, -1.71456E-08, 1.71456E-08, , 
DataValue, -0.77, -1.7405399999999998E-08, 1.7405399999999998E-08, , 
DataValue, -0.78, -1.7343599999999998E-08, 1.7343599999999998E-08, , 
DataValue, -0.79, -1.80252E-08, 1.80252E-08, , 
DataValue, -0.8, -1.9793599999999997E-08, 1.9793599999999997E-08, , 
DataValue, -0.81, -2.0924999999999997E-08, 2.0924999999999997E-08, , 
DataValue, -0.82000000000000006, -2.26658E-08, 2.26658E-08, , 
DataValue, -0.83000000000000007, -2.2625399999999998E-08, 2.2625399999999998E-08, , 
DataValue, -0.84000000000000008, -2.4085599999999996E-08, 2.4085599999999996E-08, , 
DataValue, -0.85000000000000009, -2.6567199999999997E-08, 2.6567199999999997E-08, , 
DataValue, -0.86, -2.8131599999999998E-08, 2.8131599999999998E-08, , 
DataValue, -0.87, -3.2358199999999995E-08, 3.2358199999999995E-08, , 
DataValue, -0.88, -3.5097999999999994E-08, 3.5097999999999994E-08, , 
DataValue, -0.89, -3.5703199999999996E-08, 3.5703199999999996E-08, , 
DataValue, -0.9, -3.3547599999999995E-08, 3.3547599999999995E-08, , 
DataValue, -0.91, -3.30028E-08, 3.30028E-08, , 
DataValue, -0.92, -3.49216E-08, 3.49216E-08, , 
DataValue, -0.93, -3.6967599999999995E-08, 3.6967599999999995E-08, , 
DataValue, -0.94000000000000006, -3.9216999999999993E-08, 3.9216999999999993E-08, , 
DataValue, -0.95000000000000007, -4.0763799999999996E-08, 4.0763799999999996E-08, , 
DataValue, -0.96000000000000008, -3.90148E-08, 3.90148E-08, , 
DataValue, -0.97000000000000008, -4.0566399999999996E-08, 4.0566399999999996E-08, , 
DataValue, -0.98000000000000009, -4.40776E-08, 4.40776E-08, , 
DataValue, -0.9900000000000001, -4.33048E-08, 4.33048E-08, , 
DataValue, -1, -4.5148999999999996E-08, 4.5148999999999996E-08, , 
DataValue, -1.01, -4.7162199999999993E-08, 4.7162199999999993E-08, , 
DataValue, -1.02, -5.0846E-08, 5.0846E-08, , 
DataValue, -1.03, -5.0486799999999997E-08, 5.0486799999999997E-08, , 
DataValue, -1.04, -5.4303399999999995E-08, 5.4303399999999995E-08, , 
DataValue, -1.05, -5.43754E-08, 5.43754E-08, , 
DataValue, -1.06, -5.6018999999999994E-08, 5.6018999999999994E-08, , 
DataValue, -1.07, -5.96674E-08, 5.96674E-08, , 
DataValue, -1.08, -6.0503E-08, 6.0503E-08, , 
DataValue, -1.09, -6.4382999999999988E-08, 6.4382999999999988E-08, , 
DataValue, -1.1, -6.6316E-08, 6.6316E-08, , 
DataValue, -1.11, -6.22146E-08, 6.22146E-08, , 
DataValue, -1.12, -6.71548E-08, 6.71548E-08, , 
DataValue, -1.1300000000000001, -7.3109599999999989E-08, 7.3109599999999989E-08, , 
DataValue, -1.1400000000000001, -7.47388E-08, 7.47388E-08, , 
DataValue, -1.1500000000000001, -7.59218E-08, 7.59218E-08, , 
DataValue, -1.1600000000000001, -7.07094E-08, 7.07094E-08, , 
DataValue, -1.1700000000000002, -7.5180799999999993E-08, 7.5180799999999993E-08, , 
DataValue, -1.1800000000000002, -7.72278E-08, 7.72278E-08, , 
DataValue, -1.19, -7.9361399999999987E-08, 7.9361399999999987E-08, , 
DataValue, -1.2, -7.77966E-08, 7.77966E-08, , 
DataValue, -1.21, -9.8224199999999991E-08, 9.8224199999999991E-08, , 
DataValue, -1.22, -1.037896E-07, 1.037896E-07, , 
DataValue, -1.23, -9.5363599999999984E-08, 9.5363599999999984E-08, , 
DataValue, -1.24, -1.0176119999999999E-07, 1.0176119999999999E-07, , 
DataValue, -1.25, -1.2126E-07, 1.2126E-07, , 
DataValue, -1.26, -1.247E-07, 1.247E-07, , 
DataValue, -1.27, -1.1972E-07, 1.1972E-07, , 
DataValue, -1.28, -1.191E-07, 1.191E-07, , 
DataValue, -1.29, -1.0202E-07, 1.0202E-07, , 
DataValue, -1.3, -1.28E-07, 1.28E-07, , 
DataValue, -1.31, -1.305E-07, 1.305E-07, , 
DataValue, -1.32, -1.2902E-07, 1.2902E-07, , 
DataValue, -1.33, -1.4358E-07, 1.4358E-07, , 
DataValue, -1.34, -1.5882E-07, 1.5882E-07, , 
DataValue, -1.35, -1.4688E-07, 1.4688E-07, , 
DataValue, -1.36, -1.4854E-07, 1.4854E-07, , 
DataValue, -1.37, -1.449E-07, 1.449E-07, , 
DataValue, -1.3800000000000001, -1.711E-07, 1.711E-07, , 
DataValue, -1.3900000000000001, -1.8369999999999998E-07, 1.8369999999999998E-07, , 
DataValue, -1.4000000000000001, -1.6777999999999998E-07, 1.6777999999999998E-07, , 
DataValue, -1.4100000000000001, -1.7562E-07, 1.7562E-07, , 
DataValue, -1.4200000000000002, -1.7405999999999999E-07, 1.7405999999999999E-07, , 
DataValue, -1.4300000000000002, -1.8768E-07, 1.8768E-07, , 
DataValue, -1.4400000000000002, -1.753E-07, 1.753E-07, , 
DataValue, -1.4500000000000002, -1.6763999999999998E-07, 1.6763999999999998E-07, , 
DataValue, -1.46, -1.8264E-07, 1.8264E-07, , 
DataValue, -1.47, -2.0006E-07, 2.0006E-07, , 
DataValue, -1.48, -2.2921999999999998E-07, 2.2921999999999998E-07, , 
DataValue, -1.49, -2.139E-07, 2.139E-07, , 
DataValue, -1.5, -2.015E-07, 2.015E-07, , 
DataValue, -1.51, -1.979E-07, 1.979E-07, , 
DataValue, -1.52, -2.0085999999999999E-07, 2.0085999999999999E-07, , 
DataValue, -1.53, -1.858E-07, 1.858E-07, , 
DataValue, -1.54, -1.927E-07, 1.927E-07, , 
DataValue, -1.55, -1.8122E-07, 1.8122E-07, , 
DataValue, -1.56, -2.3164E-07, 2.3164E-07, , 
DataValue, -1.57, -2.0108E-07, 2.0108E-07, , 
DataValue, -1.58, -2.0197999999999999E-07, 2.0197999999999999E-07, , 
DataValue, -1.59, -2.1259999999999999E-07, 2.1259999999999999E-07, , 
DataValue, -1.6, -2.5016E-07, 2.5016E-07, , 
DataValue, -1.61, -2.4036E-07, 2.4036E-07, , 
DataValue, -1.62, -2.614E-07, 2.614E-07, , 
DataValue, -1.6300000000000001, -2.3422E-07, 2.3422E-07, , 
DataValue, -1.6400000000000001, -2.9844E-07, 2.9844E-07, , 
DataValue, -1.6500000000000001, -2.8086E-07, 2.8086E-07, , 
DataValue, -1.6600000000000001, -2.799E-07, 2.799E-07, , 
DataValue, -1.6700000000000002, -2.856E-07, 2.856E-07, , 
DataValue, -1.6800000000000002, -2.7327999999999997E-07, 2.7327999999999997E-07, , 
DataValue, -1.6900000000000002, -2.5842E-07, 2.5842E-07, , 
DataValue, -1.7000000000000002, -2.5858E-07, 2.5858E-07, , 
DataValue, -1.7100000000000002, -2.6602E-07, 2.6602E-07, , 
DataValue, -1.72, -2.4752E-07, 2.4752E-07, , 
DataValue, -1.73, -2.8191999999999997E-07, 2.8191999999999997E-07, , 
DataValue, -1.74, -2.8625999999999997E-07, 2.8625999999999997E-07, , 
DataValue, -1.75, -3.109E-07, 3.109E-07, , 
DataValue, -1.76, -2.9974E-07, 2.9974E-07, , 
DataValue, -1.77, -3.5208E-07, 3.5208E-07, , 
DataValue, -1.78, -3.6374E-07, 3.6374E-07, , 
DataValue, -1.79, -3.5974E-07, 3.5974E-07, , 
DataValue, -1.8, -3.8198E-07, 3.8198E-07, , 
DataValue, -1.81, -4.1648E-07, 4.1648E-07, , 
DataValue, -1.82, -4.3467999999999997E-07, 4.3467999999999997E-07, , 
DataValue, -1.83, -4.3868E-07, 4.3868E-07, , 
DataValue, -1.84, -4.946E-07, 4.946E-07, , 
DataValue, -1.85, -5.1598E-07, 5.1598E-07, , 
DataValue, -1.86, -5.4088E-07, 5.4088E-07, , 
DataValue, -1.87, -5.645E-07, 5.645E-07, , 
DataValue, -1.8800000000000001, -5.132E-07, 5.132E-07, , 
DataValue, -1.8900000000000001, -5.2368E-07, 5.2368E-07, , 
DataValue, -1.9000000000000001, -5.6138E-07, 5.6138E-07, , 
DataValue, -1.9100000000000001, -6.6584E-07, 6.6584E-07, , 
DataValue, -1.9200000000000002, -6.704E-07, 6.704E-07, , 
DataValue, -1.9300000000000002, -7.0608E-07, 7.0608E-07, , 
DataValue, -1.9400000000000002, -6.8096E-07, 6.8096E-07, , 
DataValue, -1.9500000000000002, -6.8904E-07, 6.8904E-07, , 
DataValue, -1.9600000000000002, -7.4776E-07, 7.4776E-07, , 
DataValue, -1.9700000000000002, -7.646E-07, 7.646E-07, , 
DataValue, -1.9800000000000002, -8.3104E-07, 8.3104E-07, , 
DataValue, -1.99, -6.6988E-07, 6.6988E-07, , 
DataValue, -2, -8.3278E-07, 8.3278E-07, , 
DataValue, -2, -7.605E-07, 7.605E-07, , 
DataValue, -1.99, -6.5588E-07, 6.5588E-07, , 
DataValue, -1.9800000000000002, -6.4301999999999994E-07, 6.4301999999999994E-07, , 
DataValue, -1.9700000000000002, -5.951E-07, 5.951E-07, , 
DataValue, -1.9600000000000002, -6.6327999999999994E-07, 6.6327999999999994E-07, , 
DataValue, -1.9500000000000002, -6.4926E-07, 6.4926E-07, , 
DataValue, -1.9400000000000002, -5.8702E-07, 5.8702E-07, , 
DataValue, -1.9300000000000002, -5.6324E-07, 5.6324E-07, , 
DataValue, -1.9200000000000002, -5.5742E-07, 5.5742E-07, , 
DataValue, -1.9100000000000001, -5.3714E-07, 5.3714E-07, , 
DataValue, -1.9000000000000001, -4.993E-07, 4.993E-07, , 
DataValue, -1.8900000000000001, -4.6038E-07, 4.6038E-07, , 
DataValue, -1.8800000000000001, -4.5458E-07, 4.5458E-07, , 
DataValue, -1.87, -4.4592E-07, 4.4592E-07, , 
DataValue, -1.86, -4.7316E-07, 4.7316E-07, , 
DataValue, -1.85, -4.6032E-07, 4.6032E-07, , 
DataValue, -1.84, -4.0766E-07, 4.0766E-07, , 
DataValue, -1.83, -3.8457999999999997E-07, 3.8457999999999997E-07, , 
DataValue, -1.82, -3.832E-07, 3.832E-07, , 
DataValue, -1.81, -4.3634E-07, 4.3634E-07, , 
DataValue, -1.8, -3.8574E-07, 3.8574E-07, , 
DataValue, -1.79, -3.806E-07, 3.806E-07, , 
DataValue, -1.78, -3.6767999999999997E-07, 3.6767999999999997E-07, , 
DataValue, -1.77, -3.622E-07, 3.622E-07, , 
DataValue, -1.76, -3.1655999999999997E-07, 3.1655999999999997E-07, , 
