
SetupTitle, ExtFET - POS SET - VG-1.62V - TE-1.5V
PrimitiveTest, I/V Sweep
TestParameter, Context.MainFrame, B1500A
TestParameter, Channel.UnitType, SMU, SMU, SMU
TestParameter, Channel.Unit, SMU2:HR, SMU4:HR, SMU3:HR
TestParameter, Channel.IName, I_TE, I_BE, I_G
TestParameter, Channel.VName, V_TE, V_BE, V_G
TestParameter, Channel.Mode, V, COMMON, V
TestParameter, Channel.Func, VAR1, CONST, CONST
TestParameter, Channel.Index, 
TestParameter, Channel.Time, 
TestParameter, Measurement.Port.Unit, SMU2:HR, SMU4:HR, SMU3:HR
TestParameter, Measurement.Port.SeriesResistor, NONE, NONE, NONE
TestParameter, Measurement.Port.Filter, ON, ON, ON
TestParameter, Measurement.Port.OutputVoltageComparison, 0, 0, 0
TestParameter, Measurement.Primary.Locus, Double
TestParameter, Measurement.Primary.Scale, LINEAR
TestParameter, Measurement.Primary.Start, 0
TestParameter, Measurement.Primary.Stop, 1.5
TestParameter, Measurement.Primary.Step, 0.01
TestParameter, Measurement.Primary.Compliance, 0.01
TestParameter, Measurement.Primary.PowerCompliance, 0
TestParameter, Measurement.Aborting.Condition, CONTINUE AT ANY
TestParameter, Measurement.PostOutput.Value, START
TestParameter, Measurement.PostOutput.Retention, OFF
TestParameter, Measurement.Bias.Source, 0, 0, 1.62
TestParameter, Measurement.Bias.Compliance, 0.01, 0.1, 0.0001
TestParameter, Measurement.Monitor.Unit, SMU2:HR, SMU4:HR, SMU3:HR
TestParameter, Measurement.Monitor.Adc, HR ADC, HR ADC, HR ADC
TestParameter, Measurement.Monitor.Measurement, Compliance Side, Compliance Side, Compliance Side
TestParameter, Measurement.Monitor.RangingMode, LIMITED, LIMITED, LIMITED
TestParameter, Measurement.Monitor.RangeBoundary, 1nA, 1nA, 1nA
TestParameter, Measurement.Monitor.RangeRating, BY FULL RANGE, BY FULL RANGE, BY FULL RANGE
TestParameter, Measurement.Monitor.RangeRatingCoeff, 50, 50, 50
TestParameter, Measurement.Timing.Hold, 0
TestParameter, Measurement.Timing.Delay, 0
TestParameter, Measurement.Adc.HighSpeed.Mode, AUTO
TestParameter, Measurement.Adc.HighSpeed.Coeff, 1
TestParameter, Measurement.Adc.HighResolution.AutoZero, OFF
TestParameter, Measurement.Adc.HighResolution.Mode, AUTO
TestParameter, Measurement.Adc.HighResolution.Coeff, 6
TestParameter, Measurement.WaitTime.Source.Coeff, 1
TestParameter, Measurement.WaitTime.Source.Offset, 0
TestParameter, Measurement.WaitTime.Monitor.Coeff, 1
TestParameter, Measurement.WaitTime.Monitor.Offset, 0
TestParameter, Function.User.Name, absITE
TestParameter, Function.User.Unit, A
TestParameter, Function.User.Definition, abs(I_TE)
TestParameter, Output.Graph.Enabled, true
TestParameter, Output.Graph.AutoScaling, false
TestParameter, Output.Graph.XAxis.Data, V_TE
TestParameter, Output.Graph.XAxis.Scale, Linear
TestParameter, Output.Graph.XAxis.Left, 0
TestParameter, Output.Graph.XAxis.Right, 10
TestParameter, Output.Graph.XAxis.RunTimeAutoScale, true
TestParameter, Output.Graph.YAxis.Data, absITE
TestParameter, Output.Graph.YAxis.Scale, Log
TestParameter, Output.Graph.YAxis.Bottom, 0
TestParameter, Output.Graph.YAxis.Top, 1
TestParameter, Output.Graph.YAxis.Group, 
TestParameter, Output.Graph.YAxis.RunTimeAutoScale, true
TestParameter, Output.List.Data, V1, I2abs
TestParameter, AutoAnalysis.Interpolation, false
TestParameter, AutoAnalysis.Var2StepCount, 1
TestParameter, AutoAnalysis.Var2StepScript, 
TestParameter, AutoAnalysis.Line1.Enabled, false
TestParameter, AutoAnalysis.Line1.Type, 1
TestParameter, AutoAnalysis.Line1.Fix, True
TestParameter, AutoAnalysis.Line1.YAxis, 0
TestParameter, AutoAnalysis.Line1.Point1.Type, 0
TestParameter, AutoAnalysis.Line1.Point1.XY.X, 
TestParameter, AutoAnalysis.Line1.Point1.XY.Y, 
TestParameter, AutoAnalysis.Line1.Point1.Data.Var, 
TestParameter, AutoAnalysis.Line1.Point1.Data.Condition, 
TestParameter, AutoAnalysis.Line1.Point1.Data.Start, false
TestParameter, AutoAnalysis.Line1.Point1.Data.StartVar, 
TestParameter, AutoAnalysis.Line1.Point1.Data.StartCondition, 
TestParameter, AutoAnalysis.Line1.Point2.Type, 0
TestParameter, AutoAnalysis.Line1.Point2.XY.X, 
TestParameter, AutoAnalysis.Line1.Point2.XY.Y, 
TestParameter, AutoAnalysis.Line1.Point2.Data.Var, 
TestParameter, AutoAnalysis.Line1.Point2.Data.Condition, 
TestParameter, AutoAnalysis.Line1.Point2.Data.Start, false
TestParameter, AutoAnalysis.Line1.Point2.Data.StartVar, 
TestParameter, AutoAnalysis.Line1.Point2.Data.StartCondition, 
TestParameter, AutoAnalysis.Line1.GradientExpr, 0
TestParameter, AutoAnalysis.Line2.Enabled, false
TestParameter, AutoAnalysis.Line2.Type, 1
TestParameter, AutoAnalysis.Line2.Fix, True
TestParameter, AutoAnalysis.Line2.YAxis, 0
TestParameter, AutoAnalysis.Line2.Point1.Type, 0
TestParameter, AutoAnalysis.Line2.Point1.XY.X, 
TestParameter, AutoAnalysis.Line2.Point1.XY.Y, 
TestParameter, AutoAnalysis.Line2.Point1.Data.Var, 
TestParameter, AutoAnalysis.Line2.Point1.Data.Condition, 
TestParameter, AutoAnalysis.Line2.Point1.Data.Start, false
TestParameter, AutoAnalysis.Line2.Point1.Data.StartVar, 
TestParameter, AutoAnalysis.Line2.Point1.Data.StartCondition, 
TestParameter, AutoAnalysis.Line2.Point2.Type, 0
TestParameter, AutoAnalysis.Line2.Point2.XY.X, 
TestParameter, AutoAnalysis.Line2.Point2.XY.Y, 
TestParameter, AutoAnalysis.Line2.Point2.Data.Var, 
TestParameter, AutoAnalysis.Line2.Point2.Data.Condition, 
TestParameter, AutoAnalysis.Line2.Point2.Data.Start, false
TestParameter, AutoAnalysis.Line2.Point2.Data.StartVar, 
TestParameter, AutoAnalysis.Line2.Point2.Data.StartCondition, 
TestParameter, AutoAnalysis.Line2.GradientExpr, 0
TestParameter, AutoAnalysis.Marker.Enabled, false
TestParameter, AutoAnalysis.Marker.Data.Var, 
TestParameter, AutoAnalysis.Marker.Data.Condition, 
TestParameter, AutoAnalysis.Marker.Data.Start, false
TestParameter, AutoAnalysis.Marker.Data.StartVar, 
TestParameter, AutoAnalysis.Marker.Data.StartCondition, 
MetaData, TestRecord.EntryPoint, true
MetaData, TestRecord.RecordTime, 04/15/2020 15:08:30
MetaData, TestRecord.TestTarget, S48_ExtFET_3D-C06_[10k-RES]_[TiN-BE]
MetaData, TestRecord.IterationIndex, 63
MetaData, TestRecord.Preservation, true
MetaData, TestRecord.Flag, 
MetaData, TestRecord.Remarks, 
MetaData, TestRecord.LinkKey, e482a90e-4c09-4666-b2bc-69f02b818a5f
MetaData, TestRecord.Parameters, 
Dimension1, 302, 302, 302, 302, 302
Dimension2, 1, 1, 1, 1, 1
DataName, V_TE, I_TE, absITE, V1, I2abs
DataValue, 0, -2.3000000000000003E-13, 2.3000000000000003E-13, , 
DataValue, 0.01, 3.885E-11, 3.885E-11, , 
DataValue, 0.02, 8.3220000000000011E-11, 8.3220000000000011E-11, , 
DataValue, 0.030000000000000002, 1.1496000000000001E-10, 1.1496000000000001E-10, , 
DataValue, 0.04, 1.5343E-10, 1.5343E-10, , 
DataValue, 0.05, 1.8014E-10, 1.8014E-10, , 
DataValue, 0.060000000000000005, 2.3392E-10, 2.3392E-10, , 
DataValue, 0.07, 2.7472E-10, 2.7472E-10, , 
DataValue, 0.08, 2.7263E-10, 2.7263E-10, , 
DataValue, 0.090000000000000011, 2.737E-10, 2.737E-10, , 
DataValue, 0.1, 4.1286E-10, 4.1286E-10, , 
DataValue, 0.11, 3.7123E-10, 3.7123E-10, , 
DataValue, 0.12000000000000001, 6.2436000000000007E-06, 6.2436000000000007E-06, , 
DataValue, 0.13, 6.7553E-06, 6.7553E-06, , 
DataValue, 0.14, 7.2782000000000009E-06, 7.2782000000000009E-06, , 
DataValue, 0.15, 7.8377000000000012E-06, 7.8377000000000012E-06, , 
DataValue, 0.16, 8.325E-06, 8.325E-06, , 
DataValue, 0.17, 8.8917000000000016E-06, 8.8917000000000016E-06, , 
DataValue, 0.18000000000000002, 9.4487000000000015E-06, 9.4487000000000015E-06, , 
DataValue, 0.19, 9.9977000000000009E-06, 9.9977000000000009E-06, , 
DataValue, 0.2, 1.0504000000000001E-05, 1.0504000000000001E-05, , 
DataValue, 0.21000000000000002, 1.1041200000000002E-05, 1.1041200000000002E-05, , 
DataValue, 0.22, 1.159E-05, 1.159E-05, , 
DataValue, 0.23, 1.2112E-05, 1.2112E-05, , 
DataValue, 0.24000000000000002, 1.2616E-05, 1.2616E-05, , 
DataValue, 0.25, 1.3150000000000001E-05, 1.3150000000000001E-05, , 
DataValue, 0.26, 1.3694E-05, 1.3694E-05, , 
DataValue, 0.27, 1.4210000000000001E-05, 1.4210000000000001E-05, , 
DataValue, 0.28, 1.4758E-05, 1.4758E-05, , 
DataValue, 0.29000000000000004, 1.529E-05, 1.529E-05, , 
DataValue, 0.3, 1.5822000000000002E-05, 1.5822000000000002E-05, , 
DataValue, 0.31, 1.635E-05, 1.635E-05, , 
DataValue, 0.32, 1.6888E-05, 1.6888E-05, , 
DataValue, 0.33, 1.74E-05, 1.74E-05, , 
DataValue, 0.34, 1.7958E-05, 1.7958E-05, , 
DataValue, 0.35000000000000003, 1.848E-05, 1.848E-05, , 
DataValue, 0.36000000000000004, 1.9012E-05, 1.9012E-05, , 
DataValue, 0.37, 1.9582E-05, 1.9582E-05, , 
DataValue, 0.38, 2.0094E-05, 2.0094E-05, , 
DataValue, 0.39, 2.0628E-05, 2.0628E-05, , 
DataValue, 0.4, 2.1152E-05, 2.1152E-05, , 
DataValue, 0.41000000000000003, 2.1748E-05, 2.1748E-05, , 
DataValue, 0.42000000000000004, 2.2252E-05, 2.2252E-05, , 
DataValue, 0.43, 2.2782E-05, 2.2782E-05, , 
DataValue, 0.44, 2.3322E-05, 2.3322E-05, , 
DataValue, 0.45, 2.389E-05, 2.389E-05, , 
DataValue, 0.46, 2.4312E-05, 2.4312E-05, , 
DataValue, 0.47000000000000003, 2.4846000000000002E-05, 2.4846000000000002E-05, , 
DataValue, 0.48000000000000004, 2.5358E-05, 2.5358E-05, , 
DataValue, 0.49000000000000005, 2.6002E-05, 2.6002E-05, , 
DataValue, 0.5, 2.6564000000000002E-05, 2.6564000000000002E-05, , 
DataValue, 0.51, 2.7104E-05, 2.7104E-05, , 
DataValue, 0.52, 2.7664E-05, 2.7664E-05, , 
DataValue, 0.53, 2.8168000000000002E-05, 2.8168000000000002E-05, , 
DataValue, 0.54, 2.8726000000000002E-05, 2.8726000000000002E-05, , 
DataValue, 0.55, 2.9242000000000002E-05, 2.9242000000000002E-05, , 
DataValue, 0.56, 2.9806000000000002E-05, 2.9806000000000002E-05, , 
DataValue, 0.57000000000000006, 3.0328E-05, 3.0328E-05, , 
DataValue, 0.58000000000000007, 3.0868E-05, 3.0868E-05, , 
DataValue, 0.59000000000000008, 3.1374E-05, 3.1374E-05, , 
DataValue, 0.6, 3.1922000000000004E-05, 3.1922000000000004E-05, , 
DataValue, 0.61, 3.2352E-05, 3.2352E-05, , 
DataValue, 0.62, 3.3032E-05, 3.3032E-05, , 
DataValue, 0.63, 3.3414E-05, 3.3414E-05, , 
DataValue, 0.64, 3.4116E-05, 3.4116E-05, , 
DataValue, 0.65, 3.4608E-05, 3.4608E-05, , 
DataValue, 0.66, 3.5148E-05, 3.5148E-05, , 
DataValue, 0.67, 3.579E-05, 3.579E-05, , 
DataValue, 0.68, 3.6336E-05, 3.6336E-05, , 
DataValue, 0.69000000000000006, 3.6924E-05, 3.6924E-05, , 
DataValue, 0.70000000000000007, 3.7652000000000005E-05, 3.7652000000000005E-05, , 
DataValue, 0.71000000000000008, 3.825E-05, 3.825E-05, , 
DataValue, 0.72000000000000008, 3.8794E-05, 3.8794E-05, , 
DataValue, 0.73, 3.9476E-05, 3.9476E-05, , 
DataValue, 0.74, 4.0026E-05, 4.0026E-05, , 
DataValue, 0.75, 4.0602E-05, 4.0602E-05, , 
DataValue, 0.76, 4.108E-05, 4.108E-05, , 
DataValue, 0.77, 4.1578E-05, 4.1578E-05, , 
DataValue, 0.78, 4.2138E-05, 4.2138E-05, , 
DataValue, 0.79, 4.27E-05, 4.27E-05, , 
DataValue, 0.8, 4.3222E-05, 4.3222E-05, , 
DataValue, 0.81, 4.3742E-05, 4.3742E-05, , 
DataValue, 0.82000000000000006, 4.4288E-05, 4.4288E-05, , 
DataValue, 0.83000000000000007, 4.4832E-05, 4.4832E-05, , 
DataValue, 0.84000000000000008, 4.534E-05, 4.534E-05, , 
DataValue, 0.85000000000000009, 4.5924E-05, 4.5924E-05, , 
DataValue, 0.86, 4.6654000000000004E-05, 4.6654000000000004E-05, , 
DataValue, 0.87, 4.7192000000000005E-05, 4.7192000000000005E-05, , 
DataValue, 0.88, 4.7686000000000004E-05, 4.7686000000000004E-05, , 
DataValue, 0.89, 4.825E-05, 4.825E-05, , 
DataValue, 0.9, 4.877E-05, 4.877E-05, , 
DataValue, 0.91, 4.9356E-05, 4.9356E-05, , 
DataValue, 0.92, 4.9890000000000005E-05, 4.9890000000000005E-05, , 
DataValue, 0.93, 5.0392E-05, 5.0392E-05, , 
DataValue, 0.94000000000000006, 5.0938E-05, 5.0938E-05, , 
DataValue, 0.95000000000000007, 5.1436E-05, 5.1436E-05, , 
DataValue, 0.96000000000000008, 5.2014E-05, 5.2014E-05, , 
DataValue, 0.97000000000000008, 5.2566000000000005E-05, 5.2566000000000005E-05, , 
DataValue, 0.98000000000000009, 5.3082000000000004E-05, 5.3082000000000004E-05, , 
DataValue, 0.9900000000000001, 5.3634E-05, 5.3634E-05, , 
DataValue, 1, 5.4194E-05, 5.4194E-05, , 
DataValue, 1.01, 5.4746E-05, 5.4746E-05, , 
DataValue, 1.02, 5.5352E-05, 5.5352E-05, , 
DataValue, 1.03, 5.5776E-05, 5.5776E-05, , 
DataValue, 1.04, 5.6336000000000004E-05, 5.6336000000000004E-05, , 
DataValue, 1.05, 5.6842E-05, 5.6842E-05, , 
DataValue, 1.06, 5.7354E-05, 5.7354E-05, , 
DataValue, 1.07, 5.7888000000000005E-05, 5.7888000000000005E-05, , 
DataValue, 1.08, 5.8384E-05, 5.8384E-05, , 
DataValue, 1.09, 5.8924E-05, 5.8924E-05, , 
DataValue, 1.1, 5.9420000000000004E-05, 5.9420000000000004E-05, , 
DataValue, 1.11, 6.0234E-05, 6.0234E-05, , 
DataValue, 1.12, 6.0654E-05, 6.0654E-05, , 
DataValue, 1.1300000000000001, 6.1244E-05, 6.1244E-05, , 
DataValue, 1.1400000000000001, 6.1774000000000009E-05, 6.1774000000000009E-05, , 
DataValue, 1.1500000000000001, 6.2208E-05, 6.2208E-05, , 
DataValue, 1.1600000000000001, 6.2704E-05, 6.2704E-05, , 
DataValue, 1.1700000000000002, 6.3256E-05, 6.3256E-05, , 
DataValue, 1.1800000000000002, 6.3696000000000008E-05, 6.3696000000000008E-05, , 
DataValue, 1.19, 6.4226E-05, 6.4226E-05, , 
DataValue, 1.2, 6.468E-05, 6.468E-05, , 
DataValue, 1.21, 6.5186000000000009E-05, 6.5186000000000009E-05, , 
DataValue, 1.22, 6.5678E-05, 6.5678E-05, , 
DataValue, 1.23, 6.6168000000000008E-05, 6.6168000000000008E-05, , 
DataValue, 1.24, 6.6606E-05, 6.6606E-05, , 
DataValue, 1.25, 6.6916000000000008E-05, 6.6916000000000008E-05, , 
DataValue, 1.26, 6.7308E-05, 6.7308E-05, , 
DataValue, 1.27, 6.7712E-05, 6.7712E-05, , 
DataValue, 1.28, 6.8324E-05, 6.8324E-05, , 
DataValue, 1.29, 6.8776000000000007E-05, 6.8776000000000007E-05, , 
DataValue, 1.3, 6.9216E-05, 6.9216E-05, , 
DataValue, 1.31, 6.9876E-05, 6.9876E-05, , 
DataValue, 1.32, 7.0014E-05, 7.0014E-05, , 
DataValue, 1.33, 7.045E-05, 7.045E-05, , 
DataValue, 1.34, 7.084E-05, 7.084E-05, , 
DataValue, 1.35, 7.1494E-05, 7.1494E-05, , 
DataValue, 1.36, 7.1964E-05, 7.1964E-05, , 
DataValue, 1.37, 7.2482E-05, 7.2482E-05, , 
DataValue, 1.3800000000000001, 7.2866E-05, 7.2866E-05, , 
DataValue, 1.3900000000000001, 7.3346E-05, 7.3346E-05, , 
DataValue, 1.4000000000000001, 7.3774E-05, 7.3774E-05, , 
DataValue, 1.4100000000000001, 7.4184E-05, 7.4184E-05, , 
DataValue, 1.4200000000000002, 7.4428E-05, 7.4428E-05, , 
DataValue, 1.4300000000000002, 7.489E-05, 7.489E-05, , 
DataValue, 1.4400000000000002, 7.5248000000000009E-05, 7.5248000000000009E-05, , 
DataValue, 1.4500000000000002, 7.5686000000000007E-05, 7.5686000000000007E-05, , 
DataValue, 1.46, 7.6184E-05, 7.6184E-05, , 
DataValue, 1.47, 7.6554E-05, 7.6554E-05, , 
DataValue, 1.48, 7.6938E-05, 7.6938E-05, , 
DataValue, 1.49, 7.7346E-05, 7.7346E-05, , 
DataValue, 1.5, 7.7748E-05, 7.7748E-05, , 
DataValue, 1.5, 7.7754E-05, 7.7754E-05, , 
DataValue, 1.49, 7.7394E-05, 7.7394E-05, , 
DataValue, 1.48, 7.6798E-05, 7.6798E-05, , 
DataValue, 1.47, 7.6402E-05, 7.6402E-05, , 
DataValue, 1.46, 7.6004E-05, 7.6004E-05, , 
DataValue, 1.4500000000000002, 7.5608E-05, 7.5608E-05, , 
DataValue, 1.4400000000000002, 7.521E-05, 7.521E-05, , 
DataValue, 1.4300000000000002, 7.4786E-05, 7.4786E-05, , 
DataValue, 1.4200000000000002, 7.441E-05, 7.441E-05, , 
DataValue, 1.4100000000000001, 7.4002E-05, 7.4002E-05, , 
DataValue, 1.4000000000000001, 7.359E-05, 7.359E-05, , 
DataValue, 1.3900000000000001, 7.315E-05, 7.315E-05, , 
DataValue, 1.3800000000000001, 7.2694E-05, 7.2694E-05, , 
DataValue, 1.37, 7.2278E-05, 7.2278E-05, , 
DataValue, 1.36, 7.1806E-05, 7.1806E-05, , 
DataValue, 1.35, 7.1424E-05, 7.1424E-05, , 
DataValue, 1.34, 7.099E-05, 7.099E-05, , 
DataValue, 1.33, 7.0518E-05, 7.0518E-05, , 
DataValue, 1.32, 7.0094E-05, 7.0094E-05, , 
DataValue, 1.31, 6.9624E-05, 6.9624E-05, , 
DataValue, 1.3, 6.9202E-05, 6.9202E-05, , 
DataValue, 1.29, 6.875E-05, 6.875E-05, , 
DataValue, 1.28, 6.825E-05, 6.825E-05, , 
DataValue, 1.27, 6.7758E-05, 6.7758E-05, , 
DataValue, 1.26, 6.7284E-05, 6.7284E-05, , 
DataValue, 1.25, 6.6786000000000007E-05, 6.6786000000000007E-05, , 
DataValue, 1.24, 6.6392E-05, 6.6392E-05, , 
DataValue, 1.23, 6.5824E-05, 6.5824E-05, , 
DataValue, 1.22, 6.5346000000000008E-05, 6.5346000000000008E-05, , 
DataValue, 1.21, 6.4888E-05, 6.4888E-05, , 
DataValue, 1.2, 6.4426E-05, 6.4426E-05, , 
DataValue, 1.19, 6.392E-05, 6.392E-05, , 
DataValue, 1.1800000000000002, 6.3458E-05, 6.3458E-05, , 
DataValue, 1.1700000000000002, 6.2932E-05, 6.2932E-05, , 
DataValue, 1.1600000000000001, 6.2422E-05, 6.2422E-05, , 
DataValue, 1.1500000000000001, 6.1976E-05, 6.1976E-05, , 
DataValue, 1.1400000000000001, 6.1362E-05, 6.1362E-05, , 
DataValue, 1.1300000000000001, 6.0806E-05, 6.0806E-05, , 
DataValue, 1.12, 6.0320000000000005E-05, 6.0320000000000005E-05, , 
DataValue, 1.11, 5.9760000000000004E-05, 5.9760000000000004E-05, , 
DataValue, 1.1, 5.9288E-05, 5.9288E-05, , 
DataValue, 1.09, 5.877E-05, 5.877E-05, , 
DataValue, 1.08, 5.8308000000000005E-05, 5.8308000000000005E-05, , 
DataValue, 1.07, 5.78E-05, 5.78E-05, , 
DataValue, 1.06, 5.7308E-05, 5.7308E-05, , 
DataValue, 1.05, 5.6800000000000005E-05, 5.6800000000000005E-05, , 
DataValue, 1.04, 5.6224E-05, 5.6224E-05, , 
DataValue, 1.03, 5.5728E-05, 5.5728E-05, , 
DataValue, 1.02, 5.5144E-05, 5.5144E-05, , 
DataValue, 1.01, 5.4642E-05, 5.4642E-05, , 
DataValue, 1, 5.4132E-05, 5.4132E-05, , 
DataValue, 0.9900000000000001, 5.3596E-05, 5.3596E-05, , 
DataValue, 0.98000000000000009, 5.3060000000000004E-05, 5.3060000000000004E-05, , 
DataValue, 0.97000000000000008, 5.2566000000000005E-05, 5.2566000000000005E-05, , 
DataValue, 0.96000000000000008, 5.2022000000000004E-05, 5.2022000000000004E-05, , 
DataValue, 0.95000000000000007, 5.1454E-05, 5.1454E-05, , 
DataValue, 0.94000000000000006, 5.1046E-05, 5.1046E-05, , 
DataValue, 0.93, 5.0504E-05, 5.0504E-05, , 
DataValue, 0.92, 4.9926E-05, 4.9926E-05, , 
DataValue, 0.91, 4.9454000000000005E-05, 4.9454000000000005E-05, , 
DataValue, 0.9, 4.8938000000000005E-05, 4.8938000000000005E-05, , 
DataValue, 0.89, 4.8362E-05, 4.8362E-05, , 
DataValue, 0.88, 4.7854E-05, 4.7854E-05, , 
DataValue, 0.87, 4.7316E-05, 4.7316E-05, , 
DataValue, 0.86, 4.6782E-05, 4.6782E-05, , 
DataValue, 0.85000000000000009, 4.622E-05, 4.622E-05, , 
DataValue, 0.84000000000000008, 4.5702000000000004E-05, 4.5702000000000004E-05, , 
DataValue, 0.83000000000000007, 4.5196E-05, 4.5196E-05, , 
DataValue, 0.82000000000000006, 4.464E-05, 4.464E-05, , 
DataValue, 0.81, 4.4086000000000004E-05, 4.4086000000000004E-05, , 
DataValue, 0.8, 4.3548000000000004E-05, 4.3548000000000004E-05, , 
DataValue, 0.79, 4.2996E-05, 4.2996E-05, , 
DataValue, 0.78, 4.2460000000000003E-05, 4.2460000000000003E-05, , 
DataValue, 0.77, 4.1934E-05, 4.1934E-05, , 
DataValue, 0.76, 4.1386E-05, 4.1386E-05, , 
DataValue, 0.75, 4.0846E-05, 4.0846E-05, , 
DataValue, 0.74, 4.0296E-05, 4.0296E-05, , 
DataValue, 0.73, 3.9768E-05, 3.9768E-05, , 
DataValue, 0.72000000000000008, 3.9222E-05, 3.9222E-05, , 
DataValue, 0.71000000000000008, 3.8672E-05, 3.8672E-05, , 
DataValue, 0.70000000000000007, 3.8126E-05, 3.8126E-05, , 
DataValue, 0.69000000000000006, 3.7592E-05, 3.7592E-05, , 
DataValue, 0.68, 3.7036E-05, 3.7036E-05, , 
DataValue, 0.67, 3.6488E-05, 3.6488E-05, , 
DataValue, 0.66, 3.5944E-05, 3.5944E-05, , 
DataValue, 0.65, 3.5346000000000003E-05, 3.5346000000000003E-05, , 
DataValue, 0.64, 3.4798E-05, 3.4798E-05, , 
DataValue, 0.63, 3.4226E-05, 3.4226E-05, , 
DataValue, 0.62, 3.3668000000000004E-05, 3.3668000000000004E-05, , 
DataValue, 0.61, 3.3126E-05, 3.3126E-05, , 
DataValue, 0.6, 3.2564E-05, 3.2564E-05, , 
DataValue, 0.59000000000000008, 3.203E-05, 3.203E-05, , 
DataValue, 0.58000000000000007, 3.1476E-05, 3.1476E-05, , 
DataValue, 0.57000000000000006, 3.0936E-05, 3.0936E-05, , 
DataValue, 0.56, 3.0392E-05, 3.0392E-05, , 
DataValue, 0.55, 2.9832E-05, 2.9832E-05, , 
DataValue, 0.54, 2.9278E-05, 2.9278E-05, , 
