
SetupTitle, ExtFET - POS SET - VG-1.62V - TE-1.5V
PrimitiveTest, I/V Sweep
TestParameter, Context.MainFrame, B1500A
TestParameter, Channel.UnitType, SMU, SMU, SMU
TestParameter, Channel.Unit, SMU2:HR, SMU4:HR, SMU3:HR
TestParameter, Channel.IName, I_TE, I_BE, I_G
TestParameter, Channel.VName, V_TE, V_BE, V_G
TestParameter, Channel.Mode, V, COMMON, V
TestParameter, Channel.Func, VAR1, CONST, CONST
TestParameter, Channel.Index, 
TestParameter, Channel.Time, 
TestParameter, Measurement.Port.Unit, SMU2:HR, SMU4:HR, SMU3:HR
TestParameter, Measurement.Port.SeriesResistor, NONE, NONE, NONE
TestParameter, Measurement.Port.Filter, ON, ON, ON
TestParameter, Measurement.Port.OutputVoltageComparison, 0, 0, 0
TestParameter, Measurement.Primary.Locus, Double
TestParameter, Measurement.Primary.Scale, LINEAR
TestParameter, Measurement.Primary.Start, 0
TestParameter, Measurement.Primary.Stop, 1.5
TestParameter, Measurement.Primary.Step, 0.01
TestParameter, Measurement.Primary.Compliance, 0.01
TestParameter, Measurement.Primary.PowerCompliance, 0
TestParameter, Measurement.Aborting.Condition, CONTINUE AT ANY
TestParameter, Measurement.PostOutput.Value, START
TestParameter, Measurement.PostOutput.Retention, OFF
TestParameter, Measurement.Bias.Source, 0, 0, 1.62
TestParameter, Measurement.Bias.Compliance, 0.01, 0.1, 0.0001
TestParameter, Measurement.Monitor.Unit, SMU2:HR, SMU4:HR, SMU3:HR
TestParameter, Measurement.Monitor.Adc, HR ADC, HR ADC, HR ADC
TestParameter, Measurement.Monitor.Measurement, Compliance Side, Compliance Side, Compliance Side
TestParameter, Measurement.Monitor.RangingMode, LIMITED, LIMITED, LIMITED
TestParameter, Measurement.Monitor.RangeBoundary, 1nA, 1nA, 1nA
TestParameter, Measurement.Monitor.RangeRating, BY FULL RANGE, BY FULL RANGE, BY FULL RANGE
TestParameter, Measurement.Monitor.RangeRatingCoeff, 50, 50, 50
TestParameter, Measurement.Timing.Hold, 0
TestParameter, Measurement.Timing.Delay, 0
TestParameter, Measurement.Adc.HighSpeed.Mode, AUTO
TestParameter, Measurement.Adc.HighSpeed.Coeff, 1
TestParameter, Measurement.Adc.HighResolution.AutoZero, OFF
TestParameter, Measurement.Adc.HighResolution.Mode, AUTO
TestParameter, Measurement.Adc.HighResolution.Coeff, 6
TestParameter, Measurement.WaitTime.Source.Coeff, 1
TestParameter, Measurement.WaitTime.Source.Offset, 0
TestParameter, Measurement.WaitTime.Monitor.Coeff, 1
TestParameter, Measurement.WaitTime.Monitor.Offset, 0
TestParameter, Function.User.Name, absITE
TestParameter, Function.User.Unit, A
TestParameter, Function.User.Definition, abs(I_TE)
TestParameter, Output.Graph.Enabled, true
TestParameter, Output.Graph.AutoScaling, false
TestParameter, Output.Graph.XAxis.Data, V_TE
TestParameter, Output.Graph.XAxis.Scale, Linear
TestParameter, Output.Graph.XAxis.Left, 0
TestParameter, Output.Graph.XAxis.Right, 10
TestParameter, Output.Graph.XAxis.RunTimeAutoScale, true
TestParameter, Output.Graph.YAxis.Data, absITE
TestParameter, Output.Graph.YAxis.Scale, Log
TestParameter, Output.Graph.YAxis.Bottom, 0
TestParameter, Output.Graph.YAxis.Top, 1
TestParameter, Output.Graph.YAxis.Group, 
TestParameter, Output.Graph.YAxis.RunTimeAutoScale, true
TestParameter, Output.List.Data, V1, I2abs
TestParameter, AutoAnalysis.Interpolation, false
TestParameter, AutoAnalysis.Var2StepCount, 1
TestParameter, AutoAnalysis.Var2StepScript, 
TestParameter, AutoAnalysis.Line1.Enabled, false
TestParameter, AutoAnalysis.Line1.Type, 1
TestParameter, AutoAnalysis.Line1.Fix, True
TestParameter, AutoAnalysis.Line1.YAxis, 0
TestParameter, AutoAnalysis.Line1.Point1.Type, 0
TestParameter, AutoAnalysis.Line1.Point1.XY.X, 
TestParameter, AutoAnalysis.Line1.Point1.XY.Y, 
TestParameter, AutoAnalysis.Line1.Point1.Data.Var, 
TestParameter, AutoAnalysis.Line1.Point1.Data.Condition, 
TestParameter, AutoAnalysis.Line1.Point1.Data.Start, false
TestParameter, AutoAnalysis.Line1.Point1.Data.StartVar, 
TestParameter, AutoAnalysis.Line1.Point1.Data.StartCondition, 
TestParameter, AutoAnalysis.Line1.Point2.Type, 0
TestParameter, AutoAnalysis.Line1.Point2.XY.X, 
TestParameter, AutoAnalysis.Line1.Point2.XY.Y, 
TestParameter, AutoAnalysis.Line1.Point2.Data.Var, 
TestParameter, AutoAnalysis.Line1.Point2.Data.Condition, 
TestParameter, AutoAnalysis.Line1.Point2.Data.Start, false
TestParameter, AutoAnalysis.Line1.Point2.Data.StartVar, 
TestParameter, AutoAnalysis.Line1.Point2.Data.StartCondition, 
TestParameter, AutoAnalysis.Line1.GradientExpr, 0
TestParameter, AutoAnalysis.Line2.Enabled, false
TestParameter, AutoAnalysis.Line2.Type, 1
TestParameter, AutoAnalysis.Line2.Fix, True
TestParameter, AutoAnalysis.Line2.YAxis, 0
TestParameter, AutoAnalysis.Line2.Point1.Type, 0
TestParameter, AutoAnalysis.Line2.Point1.XY.X, 
TestParameter, AutoAnalysis.Line2.Point1.XY.Y, 
TestParameter, AutoAnalysis.Line2.Point1.Data.Var, 
TestParameter, AutoAnalysis.Line2.Point1.Data.Condition, 
TestParameter, AutoAnalysis.Line2.Point1.Data.Start, false
TestParameter, AutoAnalysis.Line2.Point1.Data.StartVar, 
TestParameter, AutoAnalysis.Line2.Point1.Data.StartCondition, 
TestParameter, AutoAnalysis.Line2.Point2.Type, 0
TestParameter, AutoAnalysis.Line2.Point2.XY.X, 
TestParameter, AutoAnalysis.Line2.Point2.XY.Y, 
TestParameter, AutoAnalysis.Line2.Point2.Data.Var, 
TestParameter, AutoAnalysis.Line2.Point2.Data.Condition, 
TestParameter, AutoAnalysis.Line2.Point2.Data.Start, false
TestParameter, AutoAnalysis.Line2.Point2.Data.StartVar, 
TestParameter, AutoAnalysis.Line2.Point2.Data.StartCondition, 
TestParameter, AutoAnalysis.Line2.GradientExpr, 0
TestParameter, AutoAnalysis.Marker.Enabled, false
TestParameter, AutoAnalysis.Marker.Data.Var, 
TestParameter, AutoAnalysis.Marker.Data.Condition, 
TestParameter, AutoAnalysis.Marker.Data.Start, false
TestParameter, AutoAnalysis.Marker.Data.StartVar, 
TestParameter, AutoAnalysis.Marker.Data.StartCondition, 
MetaData, TestRecord.EntryPoint, true
MetaData, TestRecord.RecordTime, 04/15/2020 15:08:09
MetaData, TestRecord.TestTarget, S48_ExtFET_3D-C06_[10k-RES]_[TiN-BE]
MetaData, TestRecord.IterationIndex, 61
MetaData, TestRecord.Preservation, true
MetaData, TestRecord.Flag, 
MetaData, TestRecord.Remarks, 
MetaData, TestRecord.LinkKey, 43b59703-1b16-4cea-b381-e0c6ffb87d50
MetaData, TestRecord.Parameters, 
Dimension1, 302, 302, 302, 302, 302
Dimension2, 1, 1, 1, 1, 1
DataName, V_TE, I_TE, absITE, V1, I2abs
DataValue, 0, -2.6E-13, 2.6E-13, , 
DataValue, 0.01, 2.971E-11, 2.971E-11, , 
DataValue, 0.02, 2.11E-11, 2.11E-11, , 
DataValue, 0.030000000000000002, 7.472E-11, 7.472E-11, , 
DataValue, 0.04, 7.554E-11, 7.554E-11, , 
DataValue, 0.05, 1.1863E-10, 1.1863E-10, , 
DataValue, 0.060000000000000005, 1.3218E-10, 1.3218E-10, , 
DataValue, 0.07, 9.9330000000000008E-11, 9.9330000000000008E-11, , 
DataValue, 0.08, 1.4579000000000002E-10, 1.4579000000000002E-10, , 
DataValue, 0.090000000000000011, 1.5707E-10, 1.5707E-10, , 
DataValue, 0.1, 2.1397E-10, 2.1397E-10, , 
DataValue, 0.11, 2.4387E-10, 2.4387E-10, , 
DataValue, 0.12000000000000001, 6.0648000000000008E-06, 6.0648000000000008E-06, , 
DataValue, 0.13, 6.4664000000000005E-06, 6.4664000000000005E-06, , 
DataValue, 0.14, 6.9659000000000005E-06, 6.9659000000000005E-06, , 
DataValue, 0.15, 7.5424000000000008E-06, 7.5424000000000008E-06, , 
DataValue, 0.16, 8.1011000000000011E-06, 8.1011000000000011E-06, , 
DataValue, 0.17, 8.4817E-06, 8.4817E-06, , 
DataValue, 0.18000000000000002, 9.1454E-06, 9.1454E-06, , 
DataValue, 0.19, 9.6503000000000014E-06, 9.6503000000000014E-06, , 
DataValue, 0.2, 1.0166500000000002E-05, 1.0166500000000002E-05, , 
DataValue, 0.21000000000000002, 1.0965100000000001E-05, 1.0965100000000001E-05, , 
DataValue, 0.22, 1.1576E-05, 1.1576E-05, , 
DataValue, 0.23, 1.2128E-05, 1.2128E-05, , 
DataValue, 0.24000000000000002, 1.2668E-05, 1.2668E-05, , 
DataValue, 0.25, 1.3196E-05, 1.3196E-05, , 
DataValue, 0.26, 1.3736E-05, 1.3736E-05, , 
DataValue, 0.27, 1.4272E-05, 1.4272E-05, , 
DataValue, 0.28, 1.4806E-05, 1.4806E-05, , 
DataValue, 0.29000000000000004, 1.5344E-05, 1.5344E-05, , 
DataValue, 0.3, 1.5908E-05, 1.5908E-05, , 
DataValue, 0.31, 1.6408E-05, 1.6408E-05, , 
DataValue, 0.32, 1.6948E-05, 1.6948E-05, , 
DataValue, 0.33, 1.7462E-05, 1.7462E-05, , 
DataValue, 0.34, 1.7998E-05, 1.7998E-05, , 
DataValue, 0.35000000000000003, 1.8532E-05, 1.8532E-05, , 
DataValue, 0.36000000000000004, 1.9082E-05, 1.9082E-05, , 
DataValue, 0.37, 1.965E-05, 1.965E-05, , 
DataValue, 0.38, 2.0152E-05, 2.0152E-05, , 
DataValue, 0.39, 2.072E-05, 2.072E-05, , 
DataValue, 0.4, 2.1266E-05, 2.1266E-05, , 
DataValue, 0.41000000000000003, 2.1838E-05, 2.1838E-05, , 
DataValue, 0.42000000000000004, 2.2354E-05, 2.2354E-05, , 
DataValue, 0.43, 2.29E-05, 2.29E-05, , 
DataValue, 0.44, 2.3508E-05, 2.3508E-05, , 
DataValue, 0.45, 2.4218E-05, 2.4218E-05, , 
DataValue, 0.46, 2.4782E-05, 2.4782E-05, , 
DataValue, 0.47000000000000003, 2.5238E-05, 2.5238E-05, , 
DataValue, 0.48000000000000004, 2.5858000000000002E-05, 2.5858000000000002E-05, , 
DataValue, 0.49000000000000005, 2.646E-05, 2.646E-05, , 
DataValue, 0.5, 2.7006000000000002E-05, 2.7006000000000002E-05, , 
DataValue, 0.51, 2.7526E-05, 2.7526E-05, , 
DataValue, 0.52, 2.8018000000000002E-05, 2.8018000000000002E-05, , 
DataValue, 0.53, 2.856E-05, 2.856E-05, , 
DataValue, 0.54, 2.911E-05, 2.911E-05, , 
DataValue, 0.55, 2.9676000000000002E-05, 2.9676000000000002E-05, , 
DataValue, 0.56, 3.0264E-05, 3.0264E-05, , 
DataValue, 0.57000000000000006, 3.0796E-05, 3.0796E-05, , 
DataValue, 0.58000000000000007, 3.1298000000000004E-05, 3.1298000000000004E-05, , 
DataValue, 0.59000000000000008, 3.19E-05, 3.19E-05, , 
DataValue, 0.6, 3.2396E-05, 3.2396E-05, , 
DataValue, 0.61, 3.2948000000000004E-05, 3.2948000000000004E-05, , 
DataValue, 0.62, 3.3520000000000004E-05, 3.3520000000000004E-05, , 
DataValue, 0.63, 3.3988E-05, 3.3988E-05, , 
DataValue, 0.64, 3.459E-05, 3.459E-05, , 
DataValue, 0.65, 3.5108E-05, 3.5108E-05, , 
DataValue, 0.66, 3.566E-05, 3.566E-05, , 
DataValue, 0.67, 3.6194E-05, 3.6194E-05, , 
DataValue, 0.68, 3.694E-05, 3.694E-05, , 
DataValue, 0.69000000000000006, 3.7550000000000005E-05, 3.7550000000000005E-05, , 
DataValue, 0.70000000000000007, 3.7964000000000004E-05, 3.7964000000000004E-05, , 
DataValue, 0.71000000000000008, 3.8452000000000004E-05, 3.8452000000000004E-05, , 
DataValue, 0.72000000000000008, 3.9112E-05, 3.9112E-05, , 
DataValue, 0.73, 3.9636000000000005E-05, 3.9636000000000005E-05, , 
DataValue, 0.74, 4.0118000000000005E-05, 4.0118000000000005E-05, , 
DataValue, 0.75, 4.069E-05, 4.069E-05, , 
DataValue, 0.76, 4.1266E-05, 4.1266E-05, , 
DataValue, 0.77, 4.1814E-05, 4.1814E-05, , 
DataValue, 0.78, 4.2356E-05, 4.2356E-05, , 
DataValue, 0.79, 4.2896000000000004E-05, 4.2896000000000004E-05, , 
DataValue, 0.8, 4.3408E-05, 4.3408E-05, , 
DataValue, 0.81, 4.3908E-05, 4.3908E-05, , 
DataValue, 0.82000000000000006, 4.4346E-05, 4.4346E-05, , 
DataValue, 0.83000000000000007, 4.5E-05, 4.5E-05, , 
DataValue, 0.84000000000000008, 4.5522E-05, 4.5522E-05, , 
DataValue, 0.85000000000000009, 4.6056E-05, 4.6056E-05, , 
DataValue, 0.86, 4.6604E-05, 4.6604E-05, , 
DataValue, 0.87, 4.715E-05, 4.715E-05, , 
DataValue, 0.88, 4.7706E-05, 4.7706E-05, , 
DataValue, 0.89, 4.8166E-05, 4.8166E-05, , 
DataValue, 0.9, 4.8738E-05, 4.8738E-05, , 
DataValue, 0.91, 4.9294E-05, 4.9294E-05, , 
DataValue, 0.92, 4.9832E-05, 4.9832E-05, , 
DataValue, 0.93, 5.0258E-05, 5.0258E-05, , 
DataValue, 0.94000000000000006, 5.0832000000000004E-05, 5.0832000000000004E-05, , 
DataValue, 0.95000000000000007, 5.1378E-05, 5.1378E-05, , 
DataValue, 0.96000000000000008, 5.1912E-05, 5.1912E-05, , 
DataValue, 0.97000000000000008, 5.2352E-05, 5.2352E-05, , 
DataValue, 0.98000000000000009, 5.2828E-05, 5.2828E-05, , 
DataValue, 0.9900000000000001, 5.3374E-05, 5.3374E-05, , 
DataValue, 1, 5.3892000000000005E-05, 5.3892000000000005E-05, , 
DataValue, 1.01, 5.4428E-05, 5.4428E-05, , 
DataValue, 1.02, 5.4956E-05, 5.4956E-05, , 
DataValue, 1.03, 5.5392E-05, 5.5392E-05, , 
DataValue, 1.04, 5.5900000000000004E-05, 5.5900000000000004E-05, , 
DataValue, 1.05, 5.6404000000000004E-05, 5.6404000000000004E-05, , 
DataValue, 1.06, 5.7002E-05, 5.7002E-05, , 
DataValue, 1.07, 5.7606000000000004E-05, 5.7606000000000004E-05, , 
DataValue, 1.08, 5.812E-05, 5.812E-05, , 
DataValue, 1.09, 5.8544E-05, 5.8544E-05, , 
DataValue, 1.1, 5.9034000000000004E-05, 5.9034000000000004E-05, , 
DataValue, 1.11, 5.9514E-05, 5.9514E-05, , 
DataValue, 1.12, 6.0006E-05, 6.0006E-05, , 
DataValue, 1.1300000000000001, 6.0570000000000005E-05, 6.0570000000000005E-05, , 
DataValue, 1.1400000000000001, 6.112E-05, 6.112E-05, , 
DataValue, 1.1500000000000001, 6.1578E-05, 6.1578E-05, , 
DataValue, 1.1600000000000001, 6.2126000000000008E-05, 6.2126000000000008E-05, , 
DataValue, 1.1700000000000002, 6.2618E-05, 6.2618E-05, , 
DataValue, 1.1800000000000002, 6.3124E-05, 6.3124E-05, , 
DataValue, 1.19, 6.3546E-05, 6.3546E-05, , 
DataValue, 1.2, 6.4034E-05, 6.4034E-05, , 
DataValue, 1.21, 6.4584E-05, 6.4584E-05, , 
DataValue, 1.22, 6.5024E-05, 6.5024E-05, , 
DataValue, 1.23, 6.5484E-05, 6.5484E-05, , 
DataValue, 1.24, 6.5992E-05, 6.5992E-05, , 
DataValue, 1.25, 6.648E-05, 6.648E-05, , 
DataValue, 1.26, 6.6928000000000007E-05, 6.6928000000000007E-05, , 
DataValue, 1.27, 6.7464E-05, 6.7464E-05, , 
DataValue, 1.28, 6.7998000000000009E-05, 6.7998000000000009E-05, , 
DataValue, 1.29, 6.8436000000000007E-05, 6.8436000000000007E-05, , 
DataValue, 1.3, 6.8948E-05, 6.8948E-05, , 
DataValue, 1.31, 6.9374E-05, 6.9374E-05, , 
DataValue, 1.32, 6.9874E-05, 6.9874E-05, , 
DataValue, 1.33, 7.0264E-05, 7.0264E-05, , 
DataValue, 1.34, 7.0714E-05, 7.0714E-05, , 
DataValue, 1.35, 7.1134E-05, 7.1134E-05, , 
DataValue, 1.36, 7.1642E-05, 7.1642E-05, , 
DataValue, 1.37, 7.208E-05, 7.208E-05, , 
DataValue, 1.3800000000000001, 7.2672E-05, 7.2672E-05, , 
DataValue, 1.3900000000000001, 7.3078000000000007E-05, 7.3078000000000007E-05, , 
DataValue, 1.4000000000000001, 7.3494E-05, 7.3494E-05, , 
DataValue, 1.4100000000000001, 7.3906000000000007E-05, 7.3906000000000007E-05, , 
DataValue, 1.4200000000000002, 7.4324E-05, 7.4324E-05, , 
DataValue, 1.4300000000000002, 7.4664E-05, 7.4664E-05, , 
DataValue, 1.4400000000000002, 7.504E-05, 7.504E-05, , 
DataValue, 1.4500000000000002, 7.5478E-05, 7.5478E-05, , 
DataValue, 1.46, 7.5758E-05, 7.5758E-05, , 
DataValue, 1.47, 7.6214E-05, 7.6214E-05, , 
DataValue, 1.48, 7.6578E-05, 7.6578E-05, , 
DataValue, 1.49, 7.6964E-05, 7.6964E-05, , 
DataValue, 1.5, 7.742400000000001E-05, 7.742400000000001E-05, , 
DataValue, 1.5, 7.7372E-05, 7.7372E-05, , 
DataValue, 1.49, 7.705E-05, 7.705E-05, , 
DataValue, 1.48, 7.6718E-05, 7.6718E-05, , 
DataValue, 1.47, 7.6302E-05, 7.6302E-05, , 
DataValue, 1.46, 7.5908E-05, 7.5908E-05, , 
DataValue, 1.4500000000000002, 7.5542E-05, 7.5542E-05, , 
DataValue, 1.4400000000000002, 7.5144E-05, 7.5144E-05, , 
DataValue, 1.4300000000000002, 7.4654000000000007E-05, 7.4654000000000007E-05, , 
DataValue, 1.4200000000000002, 7.4204E-05, 7.4204E-05, , 
DataValue, 1.4100000000000001, 7.3820000000000008E-05, 7.3820000000000008E-05, , 
DataValue, 1.4000000000000001, 7.3484E-05, 7.3484E-05, , 
DataValue, 1.3900000000000001, 7.3018E-05, 7.3018E-05, , 
DataValue, 1.3800000000000001, 7.2622E-05, 7.2622E-05, , 
DataValue, 1.37, 7.2116E-05, 7.2116E-05, , 
DataValue, 1.36, 7.1612E-05, 7.1612E-05, , 
DataValue, 1.35, 7.1238E-05, 7.1238E-05, , 
DataValue, 1.34, 7.0786E-05, 7.0786E-05, , 
DataValue, 1.33, 7.0314E-05, 7.0314E-05, , 
DataValue, 1.32, 6.9902E-05, 6.9902E-05, , 
DataValue, 1.31, 6.9464E-05, 6.9464E-05, , 
DataValue, 1.3, 6.8964E-05, 6.8964E-05, , 
DataValue, 1.29, 6.8468000000000009E-05, 6.8468000000000009E-05, , 
DataValue, 1.28, 6.8046E-05, 6.8046E-05, , 
DataValue, 1.27, 6.7548E-05, 6.7548E-05, , 
DataValue, 1.26, 6.7102000000000009E-05, 6.7102000000000009E-05, , 
DataValue, 1.25, 6.66E-05, 6.66E-05, , 
DataValue, 1.24, 6.6150000000000009E-05, 6.6150000000000009E-05, , 
DataValue, 1.23, 6.5672E-05, 6.5672E-05, , 
DataValue, 1.22, 6.517E-05, 6.517E-05, , 
DataValue, 1.21, 6.4668E-05, 6.4668E-05, , 
DataValue, 1.2, 6.4192E-05, 6.4192E-05, , 
DataValue, 1.19, 6.3682E-05, 6.3682E-05, , 
DataValue, 1.1800000000000002, 6.3266E-05, 6.3266E-05, , 
DataValue, 1.1700000000000002, 6.278E-05, 6.278E-05, , 
DataValue, 1.1600000000000001, 6.2232E-05, 6.2232E-05, , 
DataValue, 1.1500000000000001, 6.176E-05, 6.176E-05, , 
DataValue, 1.1400000000000001, 6.121E-05, 6.121E-05, , 
DataValue, 1.1300000000000001, 6.071E-05, 6.071E-05, , 
DataValue, 1.12, 6.0204E-05, 6.0204E-05, , 
DataValue, 1.11, 5.9686000000000004E-05, 5.9686000000000004E-05, , 
DataValue, 1.1, 5.9272000000000004E-05, 5.9272000000000004E-05, , 
DataValue, 1.09, 5.8674E-05, 5.8674E-05, , 
DataValue, 1.08, 5.8142E-05, 5.8142E-05, , 
DataValue, 1.07, 5.7688E-05, 5.7688E-05, , 
DataValue, 1.06, 5.7102E-05, 5.7102E-05, , 
DataValue, 1.05, 5.6646E-05, 5.6646E-05, , 
DataValue, 1.04, 5.6112E-05, 5.6112E-05, , 
DataValue, 1.03, 5.5612E-05, 5.5612E-05, , 
DataValue, 1.02, 5.5048E-05, 5.5048E-05, , 
DataValue, 1.01, 5.4566E-05, 5.4566E-05, , 
DataValue, 1, 5.398E-05, 5.398E-05, , 
DataValue, 0.9900000000000001, 5.35E-05, 5.35E-05, , 
DataValue, 0.98000000000000009, 5.299E-05, 5.299E-05, , 
DataValue, 0.97000000000000008, 5.2424000000000005E-05, 5.2424000000000005E-05, , 
DataValue, 0.96000000000000008, 5.1904E-05, 5.1904E-05, , 
DataValue, 0.95000000000000007, 5.1352E-05, 5.1352E-05, , 
DataValue, 0.94000000000000006, 5.0836E-05, 5.0836E-05, , 
DataValue, 0.93, 5.0336E-05, 5.0336E-05, , 
DataValue, 0.92, 4.9796E-05, 4.9796E-05, , 
DataValue, 0.91, 4.9318000000000005E-05, 4.9318000000000005E-05, , 
DataValue, 0.9, 4.8774000000000004E-05, 4.8774000000000004E-05, , 
DataValue, 0.89, 4.8208E-05, 4.8208E-05, , 
DataValue, 0.88, 4.7680000000000004E-05, 4.7680000000000004E-05, , 
DataValue, 0.87, 4.7138E-05, 4.7138E-05, , 
DataValue, 0.86, 4.6624E-05, 4.6624E-05, , 
DataValue, 0.85000000000000009, 4.609E-05, 4.609E-05, , 
DataValue, 0.84000000000000008, 4.5534E-05, 4.5534E-05, , 
DataValue, 0.83000000000000007, 4.5E-05, 4.5E-05, , 
DataValue, 0.82000000000000006, 4.4486E-05, 4.4486E-05, , 
DataValue, 0.81, 4.3948E-05, 4.3948E-05, , 
DataValue, 0.8, 4.3418000000000003E-05, 4.3418000000000003E-05, , 
DataValue, 0.79, 4.286E-05, 4.286E-05, , 
DataValue, 0.78, 4.2334E-05, 4.2334E-05, , 
DataValue, 0.77, 4.1804E-05, 4.1804E-05, , 
DataValue, 0.76, 4.1266E-05, 4.1266E-05, , 
DataValue, 0.75, 4.0722E-05, 4.0722E-05, , 
DataValue, 0.74, 4.0182E-05, 4.0182E-05, , 
DataValue, 0.73, 3.9664E-05, 3.9664E-05, , 
DataValue, 0.72000000000000008, 3.9116E-05, 3.9116E-05, , 
DataValue, 0.71000000000000008, 3.8556E-05, 3.8556E-05, , 
DataValue, 0.70000000000000007, 3.7998000000000004E-05, 3.7998000000000004E-05, , 
DataValue, 0.69000000000000006, 3.7476E-05, 3.7476E-05, , 
DataValue, 0.68, 3.6924E-05, 3.6924E-05, , 
DataValue, 0.67, 3.6402E-05, 3.6402E-05, , 
DataValue, 0.66, 3.5872E-05, 3.5872E-05, , 
DataValue, 0.65, 3.5318E-05, 3.5318E-05, , 
DataValue, 0.64, 3.4762000000000004E-05, 3.4762000000000004E-05, , 
DataValue, 0.63, 3.4224E-05, 3.4224E-05, , 
DataValue, 0.62, 3.363E-05, 3.363E-05, , 
DataValue, 0.61, 3.307E-05, 3.307E-05, , 
DataValue, 0.6, 3.253E-05, 3.253E-05, , 
DataValue, 0.59000000000000008, 3.1994E-05, 3.1994E-05, , 
DataValue, 0.58000000000000007, 3.1484E-05, 3.1484E-05, , 
DataValue, 0.57000000000000006, 3.0918000000000005E-05, 3.0918000000000005E-05, , 
DataValue, 0.56, 3.0370000000000002E-05, 3.0370000000000002E-05, , 
DataValue, 0.55, 2.9808E-05, 2.9808E-05, , 
DataValue, 0.54, 2.9262000000000002E-05, 2.9262000000000002E-05, , 
DataValue, 0.53, 2.8736E-05, 2.8736E-05, , 
