
SetupTitle, ExtFET - POS SET - VG-1.62V - TE-1.5V
PrimitiveTest, I/V Sweep
TestParameter, Context.MainFrame, B1500A
TestParameter, Channel.UnitType, SMU, SMU, SMU
TestParameter, Channel.Unit, SMU2:HR, SMU4:HR, SMU3:HR
TestParameter, Channel.IName, I_TE, I_BE, I_G
TestParameter, Channel.VName, V_TE, V_BE, V_G
TestParameter, Channel.Mode, V, COMMON, V
TestParameter, Channel.Func, VAR1, CONST, CONST
TestParameter, Channel.Index, 
TestParameter, Channel.Time, 
TestParameter, Measurement.Port.Unit, SMU2:HR, SMU4:HR, SMU3:HR
TestParameter, Measurement.Port.SeriesResistor, NONE, NONE, NONE
TestParameter, Measurement.Port.Filter, ON, ON, ON
TestParameter, Measurement.Port.OutputVoltageComparison, 0, 0, 0
TestParameter, Measurement.Primary.Locus, Double
TestParameter, Measurement.Primary.Scale, LINEAR
TestParameter, Measurement.Primary.Start, 0
TestParameter, Measurement.Primary.Stop, 1.5
TestParameter, Measurement.Primary.Step, 0.01
TestParameter, Measurement.Primary.Compliance, 0.01
TestParameter, Measurement.Primary.PowerCompliance, 0
TestParameter, Measurement.Aborting.Condition, CONTINUE AT ANY
TestParameter, Measurement.PostOutput.Value, START
TestParameter, Measurement.PostOutput.Retention, OFF
TestParameter, Measurement.Bias.Source, 0, 0, 1.62
TestParameter, Measurement.Bias.Compliance, 0.01, 0.1, 0.0001
TestParameter, Measurement.Monitor.Unit, SMU2:HR, SMU4:HR, SMU3:HR
TestParameter, Measurement.Monitor.Adc, HR ADC, HR ADC, HR ADC
TestParameter, Measurement.Monitor.Measurement, Compliance Side, Compliance Side, Compliance Side
TestParameter, Measurement.Monitor.RangingMode, LIMITED, LIMITED, LIMITED
TestParameter, Measurement.Monitor.RangeBoundary, 1nA, 1nA, 1nA
TestParameter, Measurement.Monitor.RangeRating, BY FULL RANGE, BY FULL RANGE, BY FULL RANGE
TestParameter, Measurement.Monitor.RangeRatingCoeff, 50, 50, 50
TestParameter, Measurement.Timing.Hold, 0
TestParameter, Measurement.Timing.Delay, 0
TestParameter, Measurement.Adc.HighSpeed.Mode, AUTO
TestParameter, Measurement.Adc.HighSpeed.Coeff, 1
TestParameter, Measurement.Adc.HighResolution.AutoZero, OFF
TestParameter, Measurement.Adc.HighResolution.Mode, AUTO
TestParameter, Measurement.Adc.HighResolution.Coeff, 6
TestParameter, Measurement.WaitTime.Source.Coeff, 1
TestParameter, Measurement.WaitTime.Source.Offset, 0
TestParameter, Measurement.WaitTime.Monitor.Coeff, 1
TestParameter, Measurement.WaitTime.Monitor.Offset, 0
TestParameter, Function.User.Name, absITE
TestParameter, Function.User.Unit, A
TestParameter, Function.User.Definition, abs(I_TE)
TestParameter, Output.Graph.Enabled, true
TestParameter, Output.Graph.AutoScaling, false
TestParameter, Output.Graph.XAxis.Data, V_TE
TestParameter, Output.Graph.XAxis.Scale, Linear
TestParameter, Output.Graph.XAxis.Left, 0
TestParameter, Output.Graph.XAxis.Right, 10
TestParameter, Output.Graph.XAxis.RunTimeAutoScale, true
TestParameter, Output.Graph.YAxis.Data, absITE
TestParameter, Output.Graph.YAxis.Scale, Log
TestParameter, Output.Graph.YAxis.Bottom, 0
TestParameter, Output.Graph.YAxis.Top, 1
TestParameter, Output.Graph.YAxis.Group, 
TestParameter, Output.Graph.YAxis.RunTimeAutoScale, true
TestParameter, Output.List.Data, V1, I2abs
TestParameter, AutoAnalysis.Interpolation, false
TestParameter, AutoAnalysis.Var2StepCount, 1
TestParameter, AutoAnalysis.Var2StepScript, 
TestParameter, AutoAnalysis.Line1.Enabled, false
TestParameter, AutoAnalysis.Line1.Type, 1
TestParameter, AutoAnalysis.Line1.Fix, True
TestParameter, AutoAnalysis.Line1.YAxis, 0
TestParameter, AutoAnalysis.Line1.Point1.Type, 0
TestParameter, AutoAnalysis.Line1.Point1.XY.X, 
TestParameter, AutoAnalysis.Line1.Point1.XY.Y, 
TestParameter, AutoAnalysis.Line1.Point1.Data.Var, 
TestParameter, AutoAnalysis.Line1.Point1.Data.Condition, 
TestParameter, AutoAnalysis.Line1.Point1.Data.Start, false
TestParameter, AutoAnalysis.Line1.Point1.Data.StartVar, 
TestParameter, AutoAnalysis.Line1.Point1.Data.StartCondition, 
TestParameter, AutoAnalysis.Line1.Point2.Type, 0
TestParameter, AutoAnalysis.Line1.Point2.XY.X, 
TestParameter, AutoAnalysis.Line1.Point2.XY.Y, 
TestParameter, AutoAnalysis.Line1.Point2.Data.Var, 
TestParameter, AutoAnalysis.Line1.Point2.Data.Condition, 
TestParameter, AutoAnalysis.Line1.Point2.Data.Start, false
TestParameter, AutoAnalysis.Line1.Point2.Data.StartVar, 
TestParameter, AutoAnalysis.Line1.Point2.Data.StartCondition, 
TestParameter, AutoAnalysis.Line1.GradientExpr, 0
TestParameter, AutoAnalysis.Line2.Enabled, false
TestParameter, AutoAnalysis.Line2.Type, 1
TestParameter, AutoAnalysis.Line2.Fix, True
TestParameter, AutoAnalysis.Line2.YAxis, 0
TestParameter, AutoAnalysis.Line2.Point1.Type, 0
TestParameter, AutoAnalysis.Line2.Point1.XY.X, 
TestParameter, AutoAnalysis.Line2.Point1.XY.Y, 
TestParameter, AutoAnalysis.Line2.Point1.Data.Var, 
TestParameter, AutoAnalysis.Line2.Point1.Data.Condition, 
TestParameter, AutoAnalysis.Line2.Point1.Data.Start, false
TestParameter, AutoAnalysis.Line2.Point1.Data.StartVar, 
TestParameter, AutoAnalysis.Line2.Point1.Data.StartCondition, 
TestParameter, AutoAnalysis.Line2.Point2.Type, 0
TestParameter, AutoAnalysis.Line2.Point2.XY.X, 
TestParameter, AutoAnalysis.Line2.Point2.XY.Y, 
TestParameter, AutoAnalysis.Line2.Point2.Data.Var, 
TestParameter, AutoAnalysis.Line2.Point2.Data.Condition, 
TestParameter, AutoAnalysis.Line2.Point2.Data.Start, false
TestParameter, AutoAnalysis.Line2.Point2.Data.StartVar, 
TestParameter, AutoAnalysis.Line2.Point2.Data.StartCondition, 
TestParameter, AutoAnalysis.Line2.GradientExpr, 0
TestParameter, AutoAnalysis.Marker.Enabled, false
TestParameter, AutoAnalysis.Marker.Data.Var, 
TestParameter, AutoAnalysis.Marker.Data.Condition, 
TestParameter, AutoAnalysis.Marker.Data.Start, false
TestParameter, AutoAnalysis.Marker.Data.StartVar, 
TestParameter, AutoAnalysis.Marker.Data.StartCondition, 
MetaData, TestRecord.EntryPoint, true
MetaData, TestRecord.RecordTime, 04/15/2020 15:08:52
MetaData, TestRecord.TestTarget, S48_ExtFET_3D-C06_[10k-RES]_[TiN-BE]
MetaData, TestRecord.IterationIndex, 65
MetaData, TestRecord.Preservation, true
MetaData, TestRecord.Flag, 
MetaData, TestRecord.Remarks, 
MetaData, TestRecord.LinkKey, 235be8f0-1feb-45a7-b97a-1ef9dbecc943
MetaData, TestRecord.Parameters, 
Dimension1, 302, 302, 302, 302, 302
Dimension2, 1, 1, 1, 1, 1
DataName, V_TE, I_TE, absITE, V1, I2abs
DataValue, 0, 1.3E-13, 1.3E-13, , 
DataValue, 0.01, 8.83E-12, 8.83E-12, , 
DataValue, 0.02, 1.564E-11, 1.564E-11, , 
DataValue, 0.030000000000000002, 2.3480000000000003E-11, 2.3480000000000003E-11, , 
DataValue, 0.04, 3.15E-11, 3.15E-11, , 
DataValue, 0.05, 4.082E-11, 4.082E-11, , 
DataValue, 0.060000000000000005, 7.2060000000000008E-11, 7.2060000000000008E-11, , 
DataValue, 0.07, 7.9800000000000011E-11, 7.9800000000000011E-11, , 
DataValue, 0.08, 1.0848000000000001E-10, 1.0848000000000001E-10, , 
DataValue, 0.090000000000000011, 1.3895000000000002E-10, 1.3895000000000002E-10, , 
DataValue, 0.1, 9.7860000000000012E-11, 9.7860000000000012E-11, , 
DataValue, 0.11, 2.0091E-10, 2.0091E-10, , 
DataValue, 0.12000000000000001, 2.341E-10, 2.341E-10, , 
DataValue, 0.13, 2.2757000000000002E-10, 2.2757000000000002E-10, , 
DataValue, 0.14, 7.4313000000000012E-06, 7.4313000000000012E-06, , 
DataValue, 0.15, 7.921800000000001E-06, 7.921800000000001E-06, , 
DataValue, 0.16, 8.3951E-06, 8.3951E-06, , 
DataValue, 0.17, 9.0113000000000013E-06, 9.0113000000000013E-06, , 
DataValue, 0.18000000000000002, 9.5846000000000014E-06, 9.5846000000000014E-06, , 
DataValue, 0.19, 1.0031000000000001E-05, 1.0031000000000001E-05, , 
DataValue, 0.2, 1.0664500000000001E-05, 1.0664500000000001E-05, , 
DataValue, 0.21000000000000002, 1.1199200000000001E-05, 1.1199200000000001E-05, , 
DataValue, 0.22, 1.1740000000000001E-05, 1.1740000000000001E-05, , 
DataValue, 0.23, 1.2280000000000001E-05, 1.2280000000000001E-05, , 
DataValue, 0.24000000000000002, 1.2834000000000001E-05, 1.2834000000000001E-05, , 
DataValue, 0.25, 1.3372E-05, 1.3372E-05, , 
DataValue, 0.26, 1.392E-05, 1.392E-05, , 
DataValue, 0.27, 1.4466E-05, 1.4466E-05, , 
DataValue, 0.28, 1.5E-05, 1.5E-05, , 
DataValue, 0.29000000000000004, 1.5546E-05, 1.5546E-05, , 
DataValue, 0.3, 1.6096E-05, 1.6096E-05, , 
DataValue, 0.31, 1.6656E-05, 1.6656E-05, , 
DataValue, 0.32, 1.7204E-05, 1.7204E-05, , 
DataValue, 0.33, 1.7748E-05, 1.7748E-05, , 
DataValue, 0.34, 1.8258E-05, 1.8258E-05, , 
DataValue, 0.35000000000000003, 1.886E-05, 1.886E-05, , 
DataValue, 0.36000000000000004, 1.9378E-05, 1.9378E-05, , 
DataValue, 0.37, 1.9902E-05, 1.9902E-05, , 
DataValue, 0.38, 2.0476000000000002E-05, 2.0476000000000002E-05, , 
DataValue, 0.39, 2.1056E-05, 2.1056E-05, , 
DataValue, 0.4, 2.158E-05, 2.158E-05, , 
DataValue, 0.41000000000000003, 2.2136E-05, 2.2136E-05, , 
DataValue, 0.42000000000000004, 2.2686E-05, 2.2686E-05, , 
DataValue, 0.43, 2.3242000000000002E-05, 2.3242000000000002E-05, , 
DataValue, 0.44, 2.3756E-05, 2.3756E-05, , 
DataValue, 0.45, 2.4326E-05, 2.4326E-05, , 
DataValue, 0.46, 2.4872000000000002E-05, 2.4872000000000002E-05, , 
DataValue, 0.47000000000000003, 2.5454E-05, 2.5454E-05, , 
DataValue, 0.48000000000000004, 2.6004E-05, 2.6004E-05, , 
DataValue, 0.49000000000000005, 2.6552000000000003E-05, 2.6552000000000003E-05, , 
DataValue, 0.5, 2.7106E-05, 2.7106E-05, , 
DataValue, 0.51, 2.7654E-05, 2.7654E-05, , 
DataValue, 0.52, 2.8194E-05, 2.8194E-05, , 
DataValue, 0.53, 2.8768E-05, 2.8768E-05, , 
DataValue, 0.54, 2.9318E-05, 2.9318E-05, , 
DataValue, 0.55, 2.9846000000000002E-05, 2.9846000000000002E-05, , 
DataValue, 0.56, 3.0402E-05, 3.0402E-05, , 
DataValue, 0.57000000000000006, 3.092E-05, 3.092E-05, , 
DataValue, 0.58000000000000007, 3.1464E-05, 3.1464E-05, , 
DataValue, 0.59000000000000008, 3.1966E-05, 3.1966E-05, , 
DataValue, 0.6, 3.264E-05, 3.264E-05, , 
DataValue, 0.61, 3.3216E-05, 3.3216E-05, , 
DataValue, 0.62, 3.3664E-05, 3.3664E-05, , 
DataValue, 0.63, 3.4222E-05, 3.4222E-05, , 
DataValue, 0.64, 3.476E-05, 3.476E-05, , 
DataValue, 0.65, 3.5304E-05, 3.5304E-05, , 
DataValue, 0.66, 3.5878000000000004E-05, 3.5878000000000004E-05, , 
DataValue, 0.67, 3.6494E-05, 3.6494E-05, , 
DataValue, 0.68, 3.7032E-05, 3.7032E-05, , 
DataValue, 0.69000000000000006, 3.7574E-05, 3.7574E-05, , 
DataValue, 0.70000000000000007, 3.8108E-05, 3.8108E-05, , 
DataValue, 0.71000000000000008, 3.8690000000000004E-05, 3.8690000000000004E-05, , 
DataValue, 0.72000000000000008, 3.9212E-05, 3.9212E-05, , 
DataValue, 0.73, 3.9736E-05, 3.9736E-05, , 
DataValue, 0.74, 4.0284E-05, 4.0284E-05, , 
DataValue, 0.75, 4.0816000000000004E-05, 4.0816000000000004E-05, , 
DataValue, 0.76, 4.1376E-05, 4.1376E-05, , 
DataValue, 0.77, 4.1924E-05, 4.1924E-05, , 
DataValue, 0.78, 4.2426000000000003E-05, 4.2426000000000003E-05, , 
DataValue, 0.79, 4.2982E-05, 4.2982E-05, , 
DataValue, 0.8, 4.3548000000000004E-05, 4.3548000000000004E-05, , 
DataValue, 0.81, 4.4082E-05, 4.4082E-05, , 
DataValue, 0.82000000000000006, 4.4644E-05, 4.4644E-05, , 
DataValue, 0.83000000000000007, 4.5154E-05, 4.5154E-05, , 
DataValue, 0.84000000000000008, 4.58E-05, 4.58E-05, , 
DataValue, 0.85000000000000009, 4.6284E-05, 4.6284E-05, , 
DataValue, 0.86, 4.6822E-05, 4.6822E-05, , 
DataValue, 0.87, 4.7442000000000004E-05, 4.7442000000000004E-05, , 
DataValue, 0.88, 4.8018E-05, 4.8018E-05, , 
DataValue, 0.89, 4.854E-05, 4.854E-05, , 
DataValue, 0.9, 4.9128E-05, 4.9128E-05, , 
DataValue, 0.91, 4.9638E-05, 4.9638E-05, , 
DataValue, 0.92, 5.0188E-05, 5.0188E-05, , 
DataValue, 0.93, 5.0664E-05, 5.0664E-05, , 
DataValue, 0.94000000000000006, 5.1238E-05, 5.1238E-05, , 
DataValue, 0.95000000000000007, 5.1786E-05, 5.1786E-05, , 
DataValue, 0.96000000000000008, 5.224E-05, 5.224E-05, , 
DataValue, 0.97000000000000008, 5.2802E-05, 5.2802E-05, , 
DataValue, 0.98000000000000009, 5.3302E-05, 5.3302E-05, , 
DataValue, 0.9900000000000001, 5.3818E-05, 5.3818E-05, , 
DataValue, 1, 5.4318000000000004E-05, 5.4318000000000004E-05, , 
DataValue, 1.01, 5.4802E-05, 5.4802E-05, , 
DataValue, 1.02, 5.5394000000000005E-05, 5.5394000000000005E-05, , 
DataValue, 1.03, 5.5872E-05, 5.5872E-05, , 
DataValue, 1.04, 5.6436E-05, 5.6436E-05, , 
DataValue, 1.05, 5.691E-05, 5.691E-05, , 
DataValue, 1.06, 5.7412000000000005E-05, 5.7412000000000005E-05, , 
DataValue, 1.07, 5.793E-05, 5.793E-05, , 
DataValue, 1.08, 5.8444000000000005E-05, 5.8444000000000005E-05, , 
DataValue, 1.09, 5.9018E-05, 5.9018E-05, , 
DataValue, 1.1, 5.95E-05, 5.95E-05, , 
DataValue, 1.11, 6.0034E-05, 6.0034E-05, , 
DataValue, 1.12, 6.0554E-05, 6.0554E-05, , 
DataValue, 1.1300000000000001, 6.1066E-05, 6.1066E-05, , 
DataValue, 1.1400000000000001, 6.1564000000000009E-05, 6.1564000000000009E-05, , 
DataValue, 1.1500000000000001, 6.203E-05, 6.203E-05, , 
DataValue, 1.1600000000000001, 6.2622E-05, 6.2622E-05, , 
DataValue, 1.1700000000000002, 6.3052E-05, 6.3052E-05, , 
DataValue, 1.1800000000000002, 6.358E-05, 6.358E-05, , 
DataValue, 1.19, 6.4022E-05, 6.4022E-05, , 
DataValue, 1.2, 6.4516E-05, 6.4516E-05, , 
DataValue, 1.21, 6.5026E-05, 6.5026E-05, , 
DataValue, 1.22, 6.5538000000000008E-05, 6.5538000000000008E-05, , 
DataValue, 1.23, 6.6004E-05, 6.6004E-05, , 
DataValue, 1.24, 6.6538E-05, 6.6538E-05, , 
DataValue, 1.25, 6.7002E-05, 6.7002E-05, , 
DataValue, 1.26, 6.7532E-05, 6.7532E-05, , 
DataValue, 1.27, 6.7996E-05, 6.7996E-05, , 
DataValue, 1.28, 6.851E-05, 6.851E-05, , 
DataValue, 1.29, 6.8982E-05, 6.8982E-05, , 
DataValue, 1.3, 6.9476E-05, 6.9476E-05, , 
DataValue, 1.31, 6.989E-05, 6.989E-05, , 
DataValue, 1.32, 7.0314E-05, 7.0314E-05, , 
DataValue, 1.33, 7.0738E-05, 7.0738E-05, , 
DataValue, 1.34, 7.124E-05, 7.124E-05, , 
DataValue, 1.35, 7.1728E-05, 7.1728E-05, , 
DataValue, 1.36, 7.235E-05, 7.235E-05, , 
DataValue, 1.37, 7.2766E-05, 7.2766E-05, , 
DataValue, 1.3800000000000001, 7.3176E-05, 7.3176E-05, , 
DataValue, 1.3900000000000001, 7.3610000000000008E-05, 7.3610000000000008E-05, , 
DataValue, 1.4000000000000001, 7.4032E-05, 7.4032E-05, , 
DataValue, 1.4100000000000001, 7.449E-05, 7.449E-05, , 
DataValue, 1.4200000000000002, 7.4866E-05, 7.4866E-05, , 
DataValue, 1.4300000000000002, 7.5292E-05, 7.5292E-05, , 
DataValue, 1.4400000000000002, 7.5694E-05, 7.5694E-05, , 
DataValue, 1.4500000000000002, 7.605E-05, 7.605E-05, , 
DataValue, 1.46, 7.6416000000000008E-05, 7.6416000000000008E-05, , 
DataValue, 1.47, 7.6854E-05, 7.6854E-05, , 
DataValue, 1.48, 7.7274E-05, 7.7274E-05, , 
DataValue, 1.49, 7.7672E-05, 7.7672E-05, , 
DataValue, 1.5, 7.804E-05, 7.804E-05, , 
DataValue, 1.5, 7.8008E-05, 7.8008E-05, , 
DataValue, 1.49, 7.7582E-05, 7.7582E-05, , 
DataValue, 1.48, 7.7134E-05, 7.7134E-05, , 
DataValue, 1.47, 7.6716E-05, 7.6716E-05, , 
DataValue, 1.46, 7.6364E-05, 7.6364E-05, , 
DataValue, 1.4500000000000002, 7.6148E-05, 7.6148E-05, , 
DataValue, 1.4400000000000002, 7.5686000000000007E-05, 7.5686000000000007E-05, , 
DataValue, 1.4300000000000002, 7.5130000000000007E-05, 7.5130000000000007E-05, , 
DataValue, 1.4200000000000002, 7.4832E-05, 7.4832E-05, , 
DataValue, 1.4100000000000001, 7.4296000000000008E-05, 7.4296000000000008E-05, , 
DataValue, 1.4000000000000001, 7.3874E-05, 7.3874E-05, , 
DataValue, 1.3900000000000001, 7.3574E-05, 7.3574E-05, , 
DataValue, 1.3800000000000001, 7.3022E-05, 7.3022E-05, , 
DataValue, 1.37, 7.2596000000000008E-05, 7.2596000000000008E-05, , 
DataValue, 1.36, 7.2116E-05, 7.2116E-05, , 
DataValue, 1.35, 7.1780000000000007E-05, 7.1780000000000007E-05, , 
DataValue, 1.34, 7.1266E-05, 7.1266E-05, , 
DataValue, 1.33, 7.082E-05, 7.082E-05, , 
DataValue, 1.32, 7.0372E-05, 7.0372E-05, , 
DataValue, 1.31, 6.9928E-05, 6.9928E-05, , 
DataValue, 1.3, 6.9482E-05, 6.9482E-05, , 
DataValue, 1.29, 6.9022E-05, 6.9022E-05, , 
DataValue, 1.28, 6.858E-05, 6.858E-05, , 
DataValue, 1.27, 6.8078000000000008E-05, 6.8078000000000008E-05, , 
DataValue, 1.26, 6.7602000000000008E-05, 6.7602000000000008E-05, , 
DataValue, 1.25, 6.7108000000000009E-05, 6.7108000000000009E-05, , 
DataValue, 1.24, 6.6650000000000007E-05, 6.6650000000000007E-05, , 
DataValue, 1.23, 6.6186E-05, 6.6186E-05, , 
DataValue, 1.22, 6.575E-05, 6.575E-05, , 
DataValue, 1.21, 6.5268E-05, 6.5268E-05, , 
DataValue, 1.2, 6.4738E-05, 6.4738E-05, , 
DataValue, 1.19, 6.4224E-05, 6.4224E-05, , 
DataValue, 1.1800000000000002, 6.3772E-05, 6.3772E-05, , 
DataValue, 1.1700000000000002, 6.3256E-05, 6.3256E-05, , 
DataValue, 1.1600000000000001, 6.2768E-05, 6.2768E-05, , 
DataValue, 1.1500000000000001, 6.2242E-05, 6.2242E-05, , 
DataValue, 1.1400000000000001, 6.1766E-05, 6.1766E-05, , 
DataValue, 1.1300000000000001, 6.13E-05, 6.13E-05, , 
DataValue, 1.12, 6.0796000000000005E-05, 6.0796000000000005E-05, , 
DataValue, 1.11, 6.0214E-05, 6.0214E-05, , 
DataValue, 1.1, 5.975E-05, 5.975E-05, , 
DataValue, 1.09, 5.9216000000000004E-05, 5.9216000000000004E-05, , 
DataValue, 1.08, 5.8714E-05, 5.8714E-05, , 
DataValue, 1.07, 5.8232E-05, 5.8232E-05, , 
DataValue, 1.06, 5.7686E-05, 5.7686E-05, , 
DataValue, 1.05, 5.7168E-05, 5.7168E-05, , 
DataValue, 1.04, 5.6642000000000004E-05, 5.6642000000000004E-05, , 
DataValue, 1.03, 5.6128E-05, 5.6128E-05, , 
DataValue, 1.02, 5.5612E-05, 5.5612E-05, , 
DataValue, 1.01, 5.5078000000000004E-05, 5.5078000000000004E-05, , 
DataValue, 1, 5.4550000000000005E-05, 5.4550000000000005E-05, , 
DataValue, 0.9900000000000001, 5.4000000000000005E-05, 5.4000000000000005E-05, , 
DataValue, 0.98000000000000009, 5.3498E-05, 5.3498E-05, , 
DataValue, 0.97000000000000008, 5.295E-05, 5.295E-05, , 
DataValue, 0.96000000000000008, 5.2428E-05, 5.2428E-05, , 
DataValue, 0.95000000000000007, 5.1886000000000004E-05, 5.1886000000000004E-05, , 
DataValue, 0.94000000000000006, 5.1348000000000004E-05, 5.1348000000000004E-05, , 
DataValue, 0.93, 5.0854000000000005E-05, 5.0854000000000005E-05, , 
DataValue, 0.92, 5.0298E-05, 5.0298E-05, , 
DataValue, 0.91, 4.9724E-05, 4.9724E-05, , 
DataValue, 0.9, 4.9206E-05, 4.9206E-05, , 
DataValue, 0.89, 4.8672000000000004E-05, 4.8672000000000004E-05, , 
DataValue, 0.88, 4.8138E-05, 4.8138E-05, , 
DataValue, 0.87, 4.7616E-05, 4.7616E-05, , 
DataValue, 0.86, 4.707E-05, 4.707E-05, , 
DataValue, 0.85000000000000009, 4.651E-05, 4.651E-05, , 
DataValue, 0.84000000000000008, 4.5978E-05, 4.5978E-05, , 
DataValue, 0.83000000000000007, 4.5458000000000004E-05, 4.5458000000000004E-05, , 
DataValue, 0.82000000000000006, 4.4942000000000004E-05, 4.4942000000000004E-05, , 
DataValue, 0.81, 4.4362E-05, 4.4362E-05, , 
DataValue, 0.8, 4.3806E-05, 4.3806E-05, , 
DataValue, 0.79, 4.3294E-05, 4.3294E-05, , 
DataValue, 0.78, 4.2778E-05, 4.2778E-05, , 
DataValue, 0.77, 4.2182000000000004E-05, 4.2182000000000004E-05, , 
DataValue, 0.76, 4.1662E-05, 4.1662E-05, , 
DataValue, 0.75, 4.1124E-05, 4.1124E-05, , 
DataValue, 0.74, 4.0566000000000004E-05, 4.0566000000000004E-05, , 
DataValue, 0.73, 4.0016000000000004E-05, 4.0016000000000004E-05, , 
DataValue, 0.72000000000000008, 3.9462E-05, 3.9462E-05, , 
DataValue, 0.71000000000000008, 3.8914E-05, 3.8914E-05, , 
DataValue, 0.70000000000000007, 3.8382E-05, 3.8382E-05, , 
DataValue, 0.69000000000000006, 3.7812E-05, 3.7812E-05, , 
DataValue, 0.68, 3.7296000000000003E-05, 3.7296000000000003E-05, , 
DataValue, 0.67, 3.6738E-05, 3.6738E-05, , 
DataValue, 0.66, 3.6190000000000004E-05, 3.6190000000000004E-05, , 
DataValue, 0.65, 3.5640000000000004E-05, 3.5640000000000004E-05, , 
DataValue, 0.64, 3.5088E-05, 3.5088E-05, , 
DataValue, 0.63, 3.4544E-05, 3.4544E-05, , 
DataValue, 0.62, 3.4006E-05, 3.4006E-05, , 
DataValue, 0.61, 3.3456E-05, 3.3456E-05, , 
DataValue, 0.6, 3.2868000000000004E-05, 3.2868000000000004E-05, , 
DataValue, 0.59000000000000008, 3.2336000000000003E-05, 3.2336000000000003E-05, , 
DataValue, 0.58000000000000007, 3.1788E-05, 3.1788E-05, , 
