
SetupTitle, ExtFET - POS SET - VG-1.62V - TE-1.5V
PrimitiveTest, I/V Sweep
TestParameter, Context.MainFrame, B1500A
TestParameter, Channel.UnitType, SMU, SMU, SMU
TestParameter, Channel.Unit, SMU2:HR, SMU4:HR, SMU3:HR
TestParameter, Channel.IName, I_TE, I_BE, I_G
TestParameter, Channel.VName, V_TE, V_BE, V_G
TestParameter, Channel.Mode, V, COMMON, V
TestParameter, Channel.Func, VAR1, CONST, CONST
TestParameter, Channel.Index, 
TestParameter, Channel.Time, 
TestParameter, Measurement.Port.Unit, SMU2:HR, SMU4:HR, SMU3:HR
TestParameter, Measurement.Port.SeriesResistor, NONE, NONE, NONE
TestParameter, Measurement.Port.Filter, ON, ON, ON
TestParameter, Measurement.Port.OutputVoltageComparison, 0, 0, 0
TestParameter, Measurement.Primary.Locus, Double
TestParameter, Measurement.Primary.Scale, LINEAR
TestParameter, Measurement.Primary.Start, 0
TestParameter, Measurement.Primary.Stop, 1.5
TestParameter, Measurement.Primary.Step, 0.01
TestParameter, Measurement.Primary.Compliance, 0.01
TestParameter, Measurement.Primary.PowerCompliance, 0
TestParameter, Measurement.Aborting.Condition, CONTINUE AT ANY
TestParameter, Measurement.PostOutput.Value, START
TestParameter, Measurement.PostOutput.Retention, OFF
TestParameter, Measurement.Bias.Source, 0, 0, 1.62
TestParameter, Measurement.Bias.Compliance, 0.01, 0.1, 0.0001
TestParameter, Measurement.Monitor.Unit, SMU2:HR, SMU4:HR, SMU3:HR
TestParameter, Measurement.Monitor.Adc, HR ADC, HR ADC, HR ADC
TestParameter, Measurement.Monitor.Measurement, Compliance Side, Compliance Side, Compliance Side
TestParameter, Measurement.Monitor.RangingMode, LIMITED, LIMITED, LIMITED
TestParameter, Measurement.Monitor.RangeBoundary, 1nA, 1nA, 1nA
TestParameter, Measurement.Monitor.RangeRating, BY FULL RANGE, BY FULL RANGE, BY FULL RANGE
TestParameter, Measurement.Monitor.RangeRatingCoeff, 50, 50, 50
TestParameter, Measurement.Timing.Hold, 0
TestParameter, Measurement.Timing.Delay, 0
TestParameter, Measurement.Adc.HighSpeed.Mode, AUTO
TestParameter, Measurement.Adc.HighSpeed.Coeff, 1
TestParameter, Measurement.Adc.HighResolution.AutoZero, OFF
TestParameter, Measurement.Adc.HighResolution.Mode, AUTO
TestParameter, Measurement.Adc.HighResolution.Coeff, 6
TestParameter, Measurement.WaitTime.Source.Coeff, 1
TestParameter, Measurement.WaitTime.Source.Offset, 0
TestParameter, Measurement.WaitTime.Monitor.Coeff, 1
TestParameter, Measurement.WaitTime.Monitor.Offset, 0
TestParameter, Function.User.Name, absITE
TestParameter, Function.User.Unit, A
TestParameter, Function.User.Definition, abs(I_TE)
TestParameter, Output.Graph.Enabled, true
TestParameter, Output.Graph.AutoScaling, false
TestParameter, Output.Graph.XAxis.Data, V_TE
TestParameter, Output.Graph.XAxis.Scale, Linear
TestParameter, Output.Graph.XAxis.Left, 0
TestParameter, Output.Graph.XAxis.Right, 10
TestParameter, Output.Graph.XAxis.RunTimeAutoScale, true
TestParameter, Output.Graph.YAxis.Data, absITE
TestParameter, Output.Graph.YAxis.Scale, Log
TestParameter, Output.Graph.YAxis.Bottom, 0
TestParameter, Output.Graph.YAxis.Top, 1
TestParameter, Output.Graph.YAxis.Group, 
TestParameter, Output.Graph.YAxis.RunTimeAutoScale, true
TestParameter, Output.List.Data, V1, I2abs
TestParameter, AutoAnalysis.Interpolation, false
TestParameter, AutoAnalysis.Var2StepCount, 1
TestParameter, AutoAnalysis.Var2StepScript, 
TestParameter, AutoAnalysis.Line1.Enabled, false
TestParameter, AutoAnalysis.Line1.Type, 1
TestParameter, AutoAnalysis.Line1.Fix, True
TestParameter, AutoAnalysis.Line1.YAxis, 0
TestParameter, AutoAnalysis.Line1.Point1.Type, 0
TestParameter, AutoAnalysis.Line1.Point1.XY.X, 
TestParameter, AutoAnalysis.Line1.Point1.XY.Y, 
TestParameter, AutoAnalysis.Line1.Point1.Data.Var, 
TestParameter, AutoAnalysis.Line1.Point1.Data.Condition, 
TestParameter, AutoAnalysis.Line1.Point1.Data.Start, false
TestParameter, AutoAnalysis.Line1.Point1.Data.StartVar, 
TestParameter, AutoAnalysis.Line1.Point1.Data.StartCondition, 
TestParameter, AutoAnalysis.Line1.Point2.Type, 0
TestParameter, AutoAnalysis.Line1.Point2.XY.X, 
TestParameter, AutoAnalysis.Line1.Point2.XY.Y, 
TestParameter, AutoAnalysis.Line1.Point2.Data.Var, 
TestParameter, AutoAnalysis.Line1.Point2.Data.Condition, 
TestParameter, AutoAnalysis.Line1.Point2.Data.Start, false
TestParameter, AutoAnalysis.Line1.Point2.Data.StartVar, 
TestParameter, AutoAnalysis.Line1.Point2.Data.StartCondition, 
TestParameter, AutoAnalysis.Line1.GradientExpr, 0
TestParameter, AutoAnalysis.Line2.Enabled, false
TestParameter, AutoAnalysis.Line2.Type, 1
TestParameter, AutoAnalysis.Line2.Fix, True
TestParameter, AutoAnalysis.Line2.YAxis, 0
TestParameter, AutoAnalysis.Line2.Point1.Type, 0
TestParameter, AutoAnalysis.Line2.Point1.XY.X, 
TestParameter, AutoAnalysis.Line2.Point1.XY.Y, 
TestParameter, AutoAnalysis.Line2.Point1.Data.Var, 
TestParameter, AutoAnalysis.Line2.Point1.Data.Condition, 
TestParameter, AutoAnalysis.Line2.Point1.Data.Start, false
TestParameter, AutoAnalysis.Line2.Point1.Data.StartVar, 
TestParameter, AutoAnalysis.Line2.Point1.Data.StartCondition, 
TestParameter, AutoAnalysis.Line2.Point2.Type, 0
TestParameter, AutoAnalysis.Line2.Point2.XY.X, 
TestParameter, AutoAnalysis.Line2.Point2.XY.Y, 
TestParameter, AutoAnalysis.Line2.Point2.Data.Var, 
TestParameter, AutoAnalysis.Line2.Point2.Data.Condition, 
TestParameter, AutoAnalysis.Line2.Point2.Data.Start, false
TestParameter, AutoAnalysis.Line2.Point2.Data.StartVar, 
TestParameter, AutoAnalysis.Line2.Point2.Data.StartCondition, 
TestParameter, AutoAnalysis.Line2.GradientExpr, 0
TestParameter, AutoAnalysis.Marker.Enabled, false
TestParameter, AutoAnalysis.Marker.Data.Var, 
TestParameter, AutoAnalysis.Marker.Data.Condition, 
TestParameter, AutoAnalysis.Marker.Data.Start, false
TestParameter, AutoAnalysis.Marker.Data.StartVar, 
TestParameter, AutoAnalysis.Marker.Data.StartCondition, 
MetaData, TestRecord.EntryPoint, true
MetaData, TestRecord.RecordTime, 04/15/2020 15:08:40
MetaData, TestRecord.TestTarget, S48_ExtFET_3D-C06_[10k-RES]_[TiN-BE]
MetaData, TestRecord.IterationIndex, 64
MetaData, TestRecord.Preservation, true
MetaData, TestRecord.Flag, 
MetaData, TestRecord.Remarks, 
MetaData, TestRecord.LinkKey, c8da8603-b955-43dd-a0e4-9fc423ffc121
MetaData, TestRecord.Parameters, 
Dimension1, 302, 302, 302, 302, 302
Dimension2, 1, 1, 1, 1, 1
DataName, V_TE, I_TE, absITE, V1, I2abs
DataValue, 0, -4.3000000000000004E-13, 4.3000000000000004E-13, , 
DataValue, 0.01, 2.956E-11, 2.956E-11, , 
DataValue, 0.02, 5.1150000000000006E-11, 5.1150000000000006E-11, , 
DataValue, 0.030000000000000002, 8.096000000000001E-11, 8.096000000000001E-11, , 
DataValue, 0.04, 1.1774E-10, 1.1774E-10, , 
DataValue, 0.05, 8.0830000000000007E-11, 8.0830000000000007E-11, , 
DataValue, 0.060000000000000005, 3.5036E-10, 3.5036E-10, , 
DataValue, 0.07, 2.4375E-10, 2.4375E-10, , 
DataValue, 0.08, 3.5366000000000005E-10, 3.5366000000000005E-10, , 
DataValue, 0.090000000000000011, 4.8586E-10, 4.8586E-10, , 
DataValue, 0.1, 2.4265000000000004E-10, 2.4265000000000004E-10, , 
DataValue, 0.11, 3.8610000000000004E-10, 3.8610000000000004E-10, , 
DataValue, 0.12000000000000001, 5.0737000000000008E-10, 5.0737000000000008E-10, , 
DataValue, 0.13, 6.2634E-10, 6.2634E-10, , 
DataValue, 0.14, 6.9415E-10, 6.9415E-10, , 
DataValue, 0.15, 7.5468E-10, 7.5468E-10, , 
DataValue, 0.16, 8.4718E-06, 8.4718E-06, , 
DataValue, 0.17, 8.9612000000000015E-06, 8.9612000000000015E-06, , 
DataValue, 0.18000000000000002, 9.4836E-06, 9.4836E-06, , 
DataValue, 0.19, 1.00299E-05, 1.00299E-05, , 
DataValue, 0.2, 1.0541600000000001E-05, 1.0541600000000001E-05, , 
DataValue, 0.21000000000000002, 1.1078000000000001E-05, 1.1078000000000001E-05, , 
DataValue, 0.22, 1.1572E-05, 1.1572E-05, , 
DataValue, 0.23, 1.2098E-05, 1.2098E-05, , 
DataValue, 0.24000000000000002, 1.2662E-05, 1.2662E-05, , 
DataValue, 0.25, 1.3228000000000001E-05, 1.3228000000000001E-05, , 
DataValue, 0.26, 1.3724000000000001E-05, 1.3724000000000001E-05, , 
DataValue, 0.27, 1.4294E-05, 1.4294E-05, , 
DataValue, 0.28, 1.4804000000000001E-05, 1.4804000000000001E-05, , 
DataValue, 0.29000000000000004, 1.5458E-05, 1.5458E-05, , 
DataValue, 0.3, 1.5998E-05, 1.5998E-05, , 
DataValue, 0.31, 1.6548E-05, 1.6548E-05, , 
DataValue, 0.32, 1.7088E-05, 1.7088E-05, , 
DataValue, 0.33, 1.7636000000000002E-05, 1.7636000000000002E-05, , 
DataValue, 0.34, 1.8178E-05, 1.8178E-05, , 
DataValue, 0.35000000000000003, 1.8716000000000002E-05, 1.8716000000000002E-05, , 
DataValue, 0.36000000000000004, 1.9262E-05, 1.9262E-05, , 
DataValue, 0.37, 1.9828E-05, 1.9828E-05, , 
DataValue, 0.38, 2.0340000000000002E-05, 2.0340000000000002E-05, , 
DataValue, 0.39, 2.0924E-05, 2.0924E-05, , 
DataValue, 0.4, 2.1458E-05, 2.1458E-05, , 
DataValue, 0.41000000000000003, 2.1998000000000002E-05, 2.1998000000000002E-05, , 
DataValue, 0.42000000000000004, 2.2554E-05, 2.2554E-05, , 
DataValue, 0.43, 2.3082E-05, 2.3082E-05, , 
DataValue, 0.44, 2.3696E-05, 2.3696E-05, , 
DataValue, 0.45, 2.4226E-05, 2.4226E-05, , 
DataValue, 0.46, 2.478E-05, 2.478E-05, , 
DataValue, 0.47000000000000003, 2.5324E-05, 2.5324E-05, , 
DataValue, 0.48000000000000004, 2.5896E-05, 2.5896E-05, , 
DataValue, 0.49000000000000005, 2.644E-05, 2.644E-05, , 
DataValue, 0.5, 2.6972000000000002E-05, 2.6972000000000002E-05, , 
DataValue, 0.51, 2.7642E-05, 2.7642E-05, , 
DataValue, 0.52, 2.8168000000000002E-05, 2.8168000000000002E-05, , 
DataValue, 0.53, 2.8714E-05, 2.8714E-05, , 
DataValue, 0.54, 2.9312E-05, 2.9312E-05, , 
DataValue, 0.55, 2.9884E-05, 2.9884E-05, , 
DataValue, 0.56, 3.0442E-05, 3.0442E-05, , 
DataValue, 0.57000000000000006, 3.0994E-05, 3.0994E-05, , 
DataValue, 0.58000000000000007, 3.155E-05, 3.155E-05, , 
DataValue, 0.59000000000000008, 3.209E-05, 3.209E-05, , 
DataValue, 0.6, 3.2646E-05, 3.2646E-05, , 
DataValue, 0.61, 3.3218E-05, 3.3218E-05, , 
DataValue, 0.62, 3.3730000000000004E-05, 3.3730000000000004E-05, , 
DataValue, 0.63, 3.4238E-05, 3.4238E-05, , 
DataValue, 0.64, 3.4822E-05, 3.4822E-05, , 
DataValue, 0.65, 3.5362000000000005E-05, 3.5362000000000005E-05, , 
DataValue, 0.66, 3.5926E-05, 3.5926E-05, , 
DataValue, 0.67, 3.6458E-05, 3.6458E-05, , 
DataValue, 0.68, 3.6978000000000004E-05, 3.6978000000000004E-05, , 
DataValue, 0.69000000000000006, 3.7578E-05, 3.7578E-05, , 
DataValue, 0.70000000000000007, 3.8108E-05, 3.8108E-05, , 
DataValue, 0.71000000000000008, 3.8672E-05, 3.8672E-05, , 
DataValue, 0.72000000000000008, 3.9256E-05, 3.9256E-05, , 
DataValue, 0.73, 3.9846000000000004E-05, 3.9846000000000004E-05, , 
DataValue, 0.74, 4.0444E-05, 4.0444E-05, , 
DataValue, 0.75, 4.0956E-05, 4.0956E-05, , 
DataValue, 0.76, 4.1512E-05, 4.1512E-05, , 
DataValue, 0.77, 4.2072E-05, 4.2072E-05, , 
DataValue, 0.78, 4.2636E-05, 4.2636E-05, , 
DataValue, 0.79, 4.3162000000000005E-05, 4.3162000000000005E-05, , 
DataValue, 0.8, 4.3722E-05, 4.3722E-05, , 
DataValue, 0.81, 4.4188000000000005E-05, 4.4188000000000005E-05, , 
DataValue, 0.82000000000000006, 4.469E-05, 4.469E-05, , 
DataValue, 0.83000000000000007, 4.5268E-05, 4.5268E-05, , 
DataValue, 0.84000000000000008, 4.5810000000000004E-05, 4.5810000000000004E-05, , 
DataValue, 0.85000000000000009, 4.635E-05, 4.635E-05, , 
DataValue, 0.86, 4.689E-05, 4.689E-05, , 
DataValue, 0.87, 4.7414000000000004E-05, 4.7414000000000004E-05, , 
DataValue, 0.88, 4.7974E-05, 4.7974E-05, , 
DataValue, 0.89, 4.8528E-05, 4.8528E-05, , 
DataValue, 0.9, 4.8962E-05, 4.8962E-05, , 
DataValue, 0.91, 4.9504E-05, 4.9504E-05, , 
DataValue, 0.92, 5.007E-05, 5.007E-05, , 
DataValue, 0.93, 5.0558E-05, 5.0558E-05, , 
DataValue, 0.94000000000000006, 5.1156E-05, 5.1156E-05, , 
DataValue, 0.95000000000000007, 5.1664E-05, 5.1664E-05, , 
DataValue, 0.96000000000000008, 5.2152000000000005E-05, 5.2152000000000005E-05, , 
DataValue, 0.97000000000000008, 5.2694E-05, 5.2694E-05, , 
DataValue, 0.98000000000000009, 5.3150000000000004E-05, 5.3150000000000004E-05, , 
DataValue, 0.9900000000000001, 5.3702E-05, 5.3702E-05, , 
DataValue, 1, 5.4154000000000004E-05, 5.4154000000000004E-05, , 
DataValue, 1.01, 5.4714000000000005E-05, 5.4714000000000005E-05, , 
DataValue, 1.02, 5.5174000000000004E-05, 5.5174000000000004E-05, , 
DataValue, 1.03, 5.572E-05, 5.572E-05, , 
DataValue, 1.04, 5.6446E-05, 5.6446E-05, , 
DataValue, 1.05, 5.6976000000000005E-05, 5.6976000000000005E-05, , 
DataValue, 1.06, 5.742E-05, 5.742E-05, , 
DataValue, 1.07, 5.7864E-05, 5.7864E-05, , 
DataValue, 1.08, 5.8466E-05, 5.8466E-05, , 
DataValue, 1.09, 5.8908E-05, 5.8908E-05, , 
DataValue, 1.1, 5.9436000000000005E-05, 5.9436000000000005E-05, , 
DataValue, 1.11, 5.9944E-05, 5.9944E-05, , 
DataValue, 1.12, 6.0508000000000004E-05, 6.0508000000000004E-05, , 
DataValue, 1.1300000000000001, 6.1086E-05, 6.1086E-05, , 
DataValue, 1.1400000000000001, 6.1592E-05, 6.1592E-05, , 
DataValue, 1.1500000000000001, 6.1916000000000008E-05, 6.1916000000000008E-05, , 
DataValue, 1.1600000000000001, 6.2596000000000009E-05, 6.2596000000000009E-05, , 
DataValue, 1.1700000000000002, 6.3044E-05, 6.3044E-05, , 
DataValue, 1.1800000000000002, 6.3572000000000007E-05, 6.3572000000000007E-05, , 
DataValue, 1.19, 6.4030000000000009E-05, 6.4030000000000009E-05, , 
DataValue, 1.2, 6.4558E-05, 6.4558E-05, , 
DataValue, 1.21, 6.5022E-05, 6.5022E-05, , 
DataValue, 1.22, 6.5582E-05, 6.5582E-05, , 
DataValue, 1.23, 6.6006E-05, 6.6006E-05, , 
DataValue, 1.24, 6.654E-05, 6.654E-05, , 
DataValue, 1.25, 6.6892E-05, 6.6892E-05, , 
DataValue, 1.26, 6.7478000000000007E-05, 6.7478000000000007E-05, , 
DataValue, 1.27, 6.8008E-05, 6.8008E-05, , 
DataValue, 1.28, 6.8426E-05, 6.8426E-05, , 
DataValue, 1.29, 6.8876E-05, 6.8876E-05, , 
DataValue, 1.3, 6.933E-05, 6.933E-05, , 
DataValue, 1.31, 6.972E-05, 6.972E-05, , 
DataValue, 1.32, 7.029E-05, 7.029E-05, , 
DataValue, 1.33, 7.0732E-05, 7.0732E-05, , 
DataValue, 1.34, 7.1176E-05, 7.1176E-05, , 
DataValue, 1.35, 7.164E-05, 7.164E-05, , 
DataValue, 1.36, 7.1998E-05, 7.1998E-05, , 
DataValue, 1.37, 7.2414E-05, 7.2414E-05, , 
DataValue, 1.3800000000000001, 7.2794000000000008E-05, 7.2794000000000008E-05, , 
DataValue, 1.3900000000000001, 7.3198E-05, 7.3198E-05, , 
DataValue, 1.4000000000000001, 7.3702000000000007E-05, 7.3702000000000007E-05, , 
DataValue, 1.4100000000000001, 7.4104000000000007E-05, 7.4104000000000007E-05, , 
DataValue, 1.4200000000000002, 7.4524000000000007E-05, 7.4524000000000007E-05, , 
DataValue, 1.4300000000000002, 7.4926000000000007E-05, 7.4926000000000007E-05, , 
DataValue, 1.4400000000000002, 7.5228E-05, 7.5228E-05, , 
DataValue, 1.4500000000000002, 7.5658E-05, 7.5658E-05, , 
DataValue, 1.46, 7.6024E-05, 7.6024E-05, , 
DataValue, 1.47, 7.651E-05, 7.651E-05, , 
DataValue, 1.48, 7.6874E-05, 7.6874E-05, , 
DataValue, 1.49, 7.728E-05, 7.728E-05, , 
DataValue, 1.5, 7.7712E-05, 7.7712E-05, , 
DataValue, 1.5, 7.7752E-05, 7.7752E-05, , 
DataValue, 1.49, 7.7246E-05, 7.7246E-05, , 
DataValue, 1.48, 7.6928E-05, 7.6928E-05, , 
DataValue, 1.47, 7.656E-05, 7.656E-05, , 
DataValue, 1.46, 7.6108E-05, 7.6108E-05, , 
DataValue, 1.4500000000000002, 7.576E-05, 7.576E-05, , 
DataValue, 1.4400000000000002, 7.5346E-05, 7.5346E-05, , 
DataValue, 1.4300000000000002, 7.481E-05, 7.481E-05, , 
DataValue, 1.4200000000000002, 7.4484E-05, 7.4484E-05, , 
DataValue, 1.4100000000000001, 7.417E-05, 7.417E-05, , 
DataValue, 1.4000000000000001, 7.3764000000000007E-05, 7.3764000000000007E-05, , 
DataValue, 1.3900000000000001, 7.3254E-05, 7.3254E-05, , 
DataValue, 1.3800000000000001, 7.2916E-05, 7.2916E-05, , 
DataValue, 1.37, 7.2402E-05, 7.2402E-05, , 
DataValue, 1.36, 7.1796E-05, 7.1796E-05, , 
DataValue, 1.35, 7.1364E-05, 7.1364E-05, , 
DataValue, 1.34, 7.1134E-05, 7.1134E-05, , 
DataValue, 1.33, 7.0734E-05, 7.0734E-05, , 
DataValue, 1.32, 7.0304E-05, 7.0304E-05, , 
DataValue, 1.31, 6.9862E-05, 6.9862E-05, , 
DataValue, 1.3, 6.9386E-05, 6.9386E-05, , 
DataValue, 1.29, 6.8898E-05, 6.8898E-05, , 
DataValue, 1.28, 6.8464E-05, 6.8464E-05, , 
DataValue, 1.27, 6.804E-05, 6.804E-05, , 
DataValue, 1.26, 6.7602000000000008E-05, 6.7602000000000008E-05, , 
DataValue, 1.25, 6.7088E-05, 6.7088E-05, , 
DataValue, 1.24, 6.6570000000000008E-05, 6.6570000000000008E-05, , 
DataValue, 1.23, 6.6084E-05, 6.6084E-05, , 
DataValue, 1.22, 6.556E-05, 6.556E-05, , 
DataValue, 1.21, 6.4916E-05, 6.4916E-05, , 
DataValue, 1.2, 6.4424E-05, 6.4424E-05, , 
DataValue, 1.19, 6.3912000000000007E-05, 6.3912000000000007E-05, , 
DataValue, 1.1800000000000002, 6.3542E-05, 6.3542E-05, , 
DataValue, 1.1700000000000002, 6.316E-05, 6.316E-05, , 
DataValue, 1.1600000000000001, 6.2694E-05, 6.2694E-05, , 
DataValue, 1.1500000000000001, 6.2176E-05, 6.2176E-05, , 
DataValue, 1.1400000000000001, 6.1700000000000009E-05, 6.1700000000000009E-05, , 
DataValue, 1.1300000000000001, 6.0894000000000003E-05, 6.0894000000000003E-05, , 
DataValue, 1.12, 6.0594E-05, 6.0594E-05, , 
DataValue, 1.11, 6.0088000000000005E-05, 6.0088000000000005E-05, , 
DataValue, 1.1, 5.9558E-05, 5.9558E-05, , 
DataValue, 1.09, 5.8978000000000004E-05, 5.8978000000000004E-05, , 
DataValue, 1.08, 5.8538E-05, 5.8538E-05, , 
DataValue, 1.07, 5.8018E-05, 5.8018E-05, , 
DataValue, 1.06, 5.7514000000000005E-05, 5.7514000000000005E-05, , 
DataValue, 1.05, 5.6976000000000005E-05, 5.6976000000000005E-05, , 
DataValue, 1.04, 5.6444000000000004E-05, 5.6444000000000004E-05, , 
DataValue, 1.03, 5.5944000000000005E-05, 5.5944000000000005E-05, , 
DataValue, 1.02, 5.5426E-05, 5.5426E-05, , 
DataValue, 1.01, 5.4874000000000004E-05, 5.4874000000000004E-05, , 
DataValue, 1, 5.431E-05, 5.431E-05, , 
DataValue, 0.9900000000000001, 5.3814000000000003E-05, 5.3814000000000003E-05, , 
DataValue, 0.98000000000000009, 5.3314000000000005E-05, 5.3314000000000005E-05, , 
DataValue, 0.97000000000000008, 5.2744E-05, 5.2744E-05, , 
DataValue, 0.96000000000000008, 5.225E-05, 5.225E-05, , 
DataValue, 0.95000000000000007, 5.1704000000000005E-05, 5.1704000000000005E-05, , 
DataValue, 0.94000000000000006, 5.1162E-05, 5.1162E-05, , 
DataValue, 0.93, 5.0654E-05, 5.0654E-05, , 
DataValue, 0.92, 5.0118000000000004E-05, 5.0118000000000004E-05, , 
DataValue, 0.91, 4.9586E-05, 4.9586E-05, , 
DataValue, 0.9, 4.9080000000000004E-05, 4.9080000000000004E-05, , 
DataValue, 0.89, 4.85E-05, 4.85E-05, , 
DataValue, 0.88, 4.796E-05, 4.796E-05, , 
DataValue, 0.87, 4.7496E-05, 4.7496E-05, , 
DataValue, 0.86, 4.6892000000000004E-05, 4.6892000000000004E-05, , 
DataValue, 0.85000000000000009, 4.6378E-05, 4.6378E-05, , 
DataValue, 0.84000000000000008, 4.5796E-05, 4.5796E-05, , 
DataValue, 0.83000000000000007, 4.5284E-05, 4.5284E-05, , 
DataValue, 0.82000000000000006, 4.4764E-05, 4.4764E-05, , 
DataValue, 0.81, 4.4206E-05, 4.4206E-05, , 
DataValue, 0.8, 4.3672000000000005E-05, 4.3672000000000005E-05, , 
DataValue, 0.79, 4.3136E-05, 4.3136E-05, , 
DataValue, 0.78, 4.2696E-05, 4.2696E-05, , 
DataValue, 0.77, 4.21E-05, 4.21E-05, , 
DataValue, 0.76, 4.1576E-05, 4.1576E-05, , 
DataValue, 0.75, 4.1018E-05, 4.1018E-05, , 
DataValue, 0.74, 4.0392E-05, 4.0392E-05, , 
DataValue, 0.73, 3.985E-05, 3.985E-05, , 
DataValue, 0.72000000000000008, 3.932E-05, 3.932E-05, , 
DataValue, 0.71000000000000008, 3.88E-05, 3.88E-05, , 
DataValue, 0.70000000000000007, 3.8256E-05, 3.8256E-05, , 
DataValue, 0.69000000000000006, 3.772E-05, 3.772E-05, , 
DataValue, 0.68, 3.717E-05, 3.717E-05, , 
DataValue, 0.67, 3.6618E-05, 3.6618E-05, , 
DataValue, 0.66, 3.607E-05, 3.607E-05, , 
DataValue, 0.65, 3.5554E-05, 3.5554E-05, , 
DataValue, 0.64, 3.4952E-05, 3.4952E-05, , 
DataValue, 0.63, 3.4408E-05, 3.4408E-05, , 
DataValue, 0.62, 3.3874E-05, 3.3874E-05, , 
DataValue, 0.61, 3.331E-05, 3.331E-05, , 
DataValue, 0.6, 3.285E-05, 3.285E-05, , 
DataValue, 0.59000000000000008, 3.2306E-05, 3.2306E-05, , 
