
SetupTitle, ExtFET - POS SET - VG-1.62V - TE-1.5V
PrimitiveTest, I/V Sweep
TestParameter, Context.MainFrame, B1500A
TestParameter, Channel.UnitType, SMU, SMU, SMU
TestParameter, Channel.Unit, SMU2:HR, SMU4:HR, SMU3:HR
TestParameter, Channel.IName, I_TE, I_BE, I_G
TestParameter, Channel.VName, V_TE, V_BE, V_G
TestParameter, Channel.Mode, V, COMMON, V
TestParameter, Channel.Func, VAR1, CONST, CONST
TestParameter, Channel.Index, 
TestParameter, Channel.Time, 
TestParameter, Measurement.Port.Unit, SMU2:HR, SMU4:HR, SMU3:HR
TestParameter, Measurement.Port.SeriesResistor, NONE, NONE, NONE
TestParameter, Measurement.Port.Filter, ON, ON, ON
TestParameter, Measurement.Port.OutputVoltageComparison, 0, 0, 0
TestParameter, Measurement.Primary.Locus, Double
TestParameter, Measurement.Primary.Scale, LINEAR
TestParameter, Measurement.Primary.Start, 0
TestParameter, Measurement.Primary.Stop, 1.5
TestParameter, Measurement.Primary.Step, 0.01
TestParameter, Measurement.Primary.Compliance, 0.01
TestParameter, Measurement.Primary.PowerCompliance, 0
TestParameter, Measurement.Aborting.Condition, CONTINUE AT ANY
TestParameter, Measurement.PostOutput.Value, START
TestParameter, Measurement.PostOutput.Retention, OFF
TestParameter, Measurement.Bias.Source, 0, 0, 1.62
TestParameter, Measurement.Bias.Compliance, 0.01, 0.1, 0.0001
TestParameter, Measurement.Monitor.Unit, SMU2:HR, SMU4:HR, SMU3:HR
TestParameter, Measurement.Monitor.Adc, HR ADC, HR ADC, HR ADC
TestParameter, Measurement.Monitor.Measurement, Compliance Side, Compliance Side, Compliance Side
TestParameter, Measurement.Monitor.RangingMode, LIMITED, LIMITED, LIMITED
TestParameter, Measurement.Monitor.RangeBoundary, 1nA, 1nA, 1nA
TestParameter, Measurement.Monitor.RangeRating, BY FULL RANGE, BY FULL RANGE, BY FULL RANGE
TestParameter, Measurement.Monitor.RangeRatingCoeff, 50, 50, 50
TestParameter, Measurement.Timing.Hold, 0
TestParameter, Measurement.Timing.Delay, 0
TestParameter, Measurement.Adc.HighSpeed.Mode, AUTO
TestParameter, Measurement.Adc.HighSpeed.Coeff, 1
TestParameter, Measurement.Adc.HighResolution.AutoZero, OFF
TestParameter, Measurement.Adc.HighResolution.Mode, AUTO
TestParameter, Measurement.Adc.HighResolution.Coeff, 6
TestParameter, Measurement.WaitTime.Source.Coeff, 1
TestParameter, Measurement.WaitTime.Source.Offset, 0
TestParameter, Measurement.WaitTime.Monitor.Coeff, 1
TestParameter, Measurement.WaitTime.Monitor.Offset, 0
TestParameter, Function.User.Name, absITE
TestParameter, Function.User.Unit, A
TestParameter, Function.User.Definition, abs(I_TE)
TestParameter, Output.Graph.Enabled, true
TestParameter, Output.Graph.AutoScaling, false
TestParameter, Output.Graph.XAxis.Data, V_TE
TestParameter, Output.Graph.XAxis.Scale, Linear
TestParameter, Output.Graph.XAxis.Left, 0
TestParameter, Output.Graph.XAxis.Right, 10
TestParameter, Output.Graph.XAxis.RunTimeAutoScale, true
TestParameter, Output.Graph.YAxis.Data, absITE
TestParameter, Output.Graph.YAxis.Scale, Log
TestParameter, Output.Graph.YAxis.Bottom, 0
TestParameter, Output.Graph.YAxis.Top, 1
TestParameter, Output.Graph.YAxis.Group, 
TestParameter, Output.Graph.YAxis.RunTimeAutoScale, true
TestParameter, Output.List.Data, V1, I2abs
TestParameter, AutoAnalysis.Interpolation, false
TestParameter, AutoAnalysis.Var2StepCount, 1
TestParameter, AutoAnalysis.Var2StepScript, 
TestParameter, AutoAnalysis.Line1.Enabled, false
TestParameter, AutoAnalysis.Line1.Type, 1
TestParameter, AutoAnalysis.Line1.Fix, True
TestParameter, AutoAnalysis.Line1.YAxis, 0
TestParameter, AutoAnalysis.Line1.Point1.Type, 0
TestParameter, AutoAnalysis.Line1.Point1.XY.X, 
TestParameter, AutoAnalysis.Line1.Point1.XY.Y, 
TestParameter, AutoAnalysis.Line1.Point1.Data.Var, 
TestParameter, AutoAnalysis.Line1.Point1.Data.Condition, 
TestParameter, AutoAnalysis.Line1.Point1.Data.Start, false
TestParameter, AutoAnalysis.Line1.Point1.Data.StartVar, 
TestParameter, AutoAnalysis.Line1.Point1.Data.StartCondition, 
TestParameter, AutoAnalysis.Line1.Point2.Type, 0
TestParameter, AutoAnalysis.Line1.Point2.XY.X, 
TestParameter, AutoAnalysis.Line1.Point2.XY.Y, 
TestParameter, AutoAnalysis.Line1.Point2.Data.Var, 
TestParameter, AutoAnalysis.Line1.Point2.Data.Condition, 
TestParameter, AutoAnalysis.Line1.Point2.Data.Start, false
TestParameter, AutoAnalysis.Line1.Point2.Data.StartVar, 
TestParameter, AutoAnalysis.Line1.Point2.Data.StartCondition, 
TestParameter, AutoAnalysis.Line1.GradientExpr, 0
TestParameter, AutoAnalysis.Line2.Enabled, false
TestParameter, AutoAnalysis.Line2.Type, 1
TestParameter, AutoAnalysis.Line2.Fix, True
TestParameter, AutoAnalysis.Line2.YAxis, 0
TestParameter, AutoAnalysis.Line2.Point1.Type, 0
TestParameter, AutoAnalysis.Line2.Point1.XY.X, 
TestParameter, AutoAnalysis.Line2.Point1.XY.Y, 
TestParameter, AutoAnalysis.Line2.Point1.Data.Var, 
TestParameter, AutoAnalysis.Line2.Point1.Data.Condition, 
TestParameter, AutoAnalysis.Line2.Point1.Data.Start, false
TestParameter, AutoAnalysis.Line2.Point1.Data.StartVar, 
TestParameter, AutoAnalysis.Line2.Point1.Data.StartCondition, 
TestParameter, AutoAnalysis.Line2.Point2.Type, 0
TestParameter, AutoAnalysis.Line2.Point2.XY.X, 
TestParameter, AutoAnalysis.Line2.Point2.XY.Y, 
TestParameter, AutoAnalysis.Line2.Point2.Data.Var, 
TestParameter, AutoAnalysis.Line2.Point2.Data.Condition, 
TestParameter, AutoAnalysis.Line2.Point2.Data.Start, false
TestParameter, AutoAnalysis.Line2.Point2.Data.StartVar, 
TestParameter, AutoAnalysis.Line2.Point2.Data.StartCondition, 
TestParameter, AutoAnalysis.Line2.GradientExpr, 0
TestParameter, AutoAnalysis.Marker.Enabled, false
TestParameter, AutoAnalysis.Marker.Data.Var, 
TestParameter, AutoAnalysis.Marker.Data.Condition, 
TestParameter, AutoAnalysis.Marker.Data.Start, false
TestParameter, AutoAnalysis.Marker.Data.StartVar, 
TestParameter, AutoAnalysis.Marker.Data.StartCondition, 
MetaData, TestRecord.EntryPoint, true
MetaData, TestRecord.RecordTime, 04/15/2020 15:09:33
MetaData, TestRecord.TestTarget, S48_ExtFET_3D-C06_[10k-RES]_[TiN-BE]
MetaData, TestRecord.IterationIndex, 69
MetaData, TestRecord.Preservation, true
MetaData, TestRecord.Flag, 
MetaData, TestRecord.Remarks, 
MetaData, TestRecord.LinkKey, 2f167eaf-8544-496b-9f44-b57aff6bb166
MetaData, TestRecord.Parameters, 
Dimension1, 302, 302, 302, 302, 302
Dimension2, 1, 1, 1, 1, 1
DataName, V_TE, I_TE, absITE, V1, I2abs
DataValue, 0, 1.7E-13, 1.7E-13, , 
DataValue, 0.01, 5.84E-12, 5.84E-12, , 
DataValue, 0.02, 1.3290000000000002E-11, 1.3290000000000002E-11, , 
DataValue, 0.030000000000000002, 1.8330000000000003E-11, 1.8330000000000003E-11, , 
DataValue, 0.04, 1.7850000000000002E-11, 1.7850000000000002E-11, , 
DataValue, 0.05, 7.042E-11, 7.042E-11, , 
DataValue, 0.060000000000000005, 8.155E-11, 8.155E-11, , 
DataValue, 0.07, 9.9020000000000011E-11, 9.9020000000000011E-11, , 
DataValue, 0.08, 1.2647E-10, 1.2647E-10, , 
DataValue, 0.090000000000000011, 1.7341000000000003E-10, 1.7341000000000003E-10, , 
DataValue, 0.1, 1.323E-10, 1.323E-10, , 
DataValue, 0.11, 1.5829E-10, 1.5829E-10, , 
DataValue, 0.12000000000000001, 1.8487E-10, 1.8487E-10, , 
DataValue, 0.13, 1.9072000000000002E-10, 1.9072000000000002E-10, , 
DataValue, 0.14, 3.8267000000000003E-10, 3.8267000000000003E-10, , 
DataValue, 0.15, 3.83656E-08, 3.83656E-08, , 
DataValue, 0.16, 3.6919399999999996E-08, 3.6919399999999996E-08, , 
DataValue, 0.17, 2.7596E-07, 2.7596E-07, , 
DataValue, 0.18000000000000002, 3.0784E-07, 3.0784E-07, , 
DataValue, 0.19, 2.196E-07, 2.196E-07, , 
DataValue, 0.2, 2.0589999999999998E-07, 2.0589999999999998E-07, , 
DataValue, 0.21000000000000002, 2.3836E-07, 2.3836E-07, , 
DataValue, 0.22, 3.9878E-07, 3.9878E-07, , 
DataValue, 0.23, 3.0614E-07, 3.0614E-07, , 
DataValue, 0.24000000000000002, 3.968E-07, 3.968E-07, , 
DataValue, 0.25, 4.3096E-07, 4.3096E-07, , 
DataValue, 0.26, 4.0876E-07, 4.0876E-07, , 
DataValue, 0.27, 2.285E-07, 2.285E-07, , 
DataValue, 0.28, 2.5118E-07, 2.5118E-07, , 
DataValue, 0.29000000000000004, 6.9646E-07, 6.9646E-07, , 
DataValue, 0.3, 6.995100000000001E-06, 6.995100000000001E-06, , 
DataValue, 0.31, 6.6222000000000007E-06, 6.6222000000000007E-06, , 
DataValue, 0.32, 6.6792E-06, 6.6792E-06, , 
DataValue, 0.33, 6.7940000000000005E-06, 6.7940000000000005E-06, , 
DataValue, 0.34, 1.7736E-05, 1.7736E-05, , 
DataValue, 0.35000000000000003, 1.8172E-05, 1.8172E-05, , 
DataValue, 0.36000000000000004, 1.8552E-05, 1.8552E-05, , 
DataValue, 0.37, 1.9092E-05, 1.9092E-05, , 
DataValue, 0.38, 1.9896E-05, 1.9896E-05, , 
DataValue, 0.39, 2.0496E-05, 2.0496E-05, , 
DataValue, 0.4, 2.1024E-05, 2.1024E-05, , 
DataValue, 0.41000000000000003, 2.1532E-05, 2.1532E-05, , 
DataValue, 0.42000000000000004, 2.205E-05, 2.205E-05, , 
DataValue, 0.43, 2.258E-05, 2.258E-05, , 
DataValue, 0.44, 2.313E-05, 2.313E-05, , 
DataValue, 0.45, 2.371E-05, 2.371E-05, , 
DataValue, 0.46, 2.423E-05, 2.423E-05, , 
DataValue, 0.47000000000000003, 2.4766E-05, 2.4766E-05, , 
DataValue, 0.48000000000000004, 2.5478000000000002E-05, 2.5478000000000002E-05, , 
DataValue, 0.49000000000000005, 2.6034000000000002E-05, 2.6034000000000002E-05, , 
DataValue, 0.5, 2.6638E-05, 2.6638E-05, , 
DataValue, 0.51, 2.7224000000000002E-05, 2.7224000000000002E-05, , 
DataValue, 0.52, 2.7740000000000002E-05, 2.7740000000000002E-05, , 
DataValue, 0.53, 2.8272E-05, 2.8272E-05, , 
DataValue, 0.54, 2.8840000000000002E-05, 2.8840000000000002E-05, , 
DataValue, 0.55, 2.9376E-05, 2.9376E-05, , 
DataValue, 0.56, 2.9882E-05, 2.9882E-05, , 
DataValue, 0.57000000000000006, 3.0314E-05, 3.0314E-05, , 
DataValue, 0.58000000000000007, 3.0984E-05, 3.0984E-05, , 
DataValue, 0.59000000000000008, 3.1756E-05, 3.1756E-05, , 
DataValue, 0.6, 3.2266E-05, 3.2266E-05, , 
DataValue, 0.61, 3.2894E-05, 3.2894E-05, , 
DataValue, 0.62, 3.3414E-05, 3.3414E-05, , 
DataValue, 0.63, 3.3900000000000004E-05, 3.3900000000000004E-05, , 
DataValue, 0.64, 3.4576E-05, 3.4576E-05, , 
DataValue, 0.65, 3.5146E-05, 3.5146E-05, , 
DataValue, 0.66, 3.5718E-05, 3.5718E-05, , 
DataValue, 0.67, 3.6222E-05, 3.6222E-05, , 
DataValue, 0.68, 3.6836000000000004E-05, 3.6836000000000004E-05, , 
DataValue, 0.69000000000000006, 3.7342E-05, 3.7342E-05, , 
DataValue, 0.70000000000000007, 3.7886E-05, 3.7886E-05, , 
DataValue, 0.71000000000000008, 3.8412000000000004E-05, 3.8412000000000004E-05, , 
DataValue, 0.72000000000000008, 3.892E-05, 3.892E-05, , 
DataValue, 0.73, 3.9442E-05, 3.9442E-05, , 
DataValue, 0.74, 3.9944E-05, 3.9944E-05, , 
DataValue, 0.75, 4.055E-05, 4.055E-05, , 
DataValue, 0.76, 4.114E-05, 4.114E-05, , 
DataValue, 0.77, 4.1576E-05, 4.1576E-05, , 
DataValue, 0.78, 4.2176000000000004E-05, 4.2176000000000004E-05, , 
DataValue, 0.79, 4.2812E-05, 4.2812E-05, , 
DataValue, 0.8, 4.3262E-05, 4.3262E-05, , 
DataValue, 0.81, 4.3824E-05, 4.3824E-05, , 
DataValue, 0.82000000000000006, 4.4394E-05, 4.4394E-05, , 
DataValue, 0.83000000000000007, 4.4936000000000005E-05, 4.4936000000000005E-05, , 
DataValue, 0.84000000000000008, 4.5456E-05, 4.5456E-05, , 
DataValue, 0.85000000000000009, 4.5996000000000005E-05, 4.5996000000000005E-05, , 
DataValue, 0.86, 4.6524000000000004E-05, 4.6524000000000004E-05, , 
DataValue, 0.87, 4.7072E-05, 4.7072E-05, , 
DataValue, 0.88, 4.741E-05, 4.741E-05, , 
DataValue, 0.89, 4.8194E-05, 4.8194E-05, , 
DataValue, 0.9, 4.8704E-05, 4.8704E-05, , 
DataValue, 0.91, 4.9334E-05, 4.9334E-05, , 
DataValue, 0.92, 4.986E-05, 4.986E-05, , 
DataValue, 0.93, 5.0366E-05, 5.0366E-05, , 
DataValue, 0.94000000000000006, 5.0752000000000005E-05, 5.0752000000000005E-05, , 
DataValue, 0.95000000000000007, 5.1236E-05, 5.1236E-05, , 
DataValue, 0.96000000000000008, 5.1816E-05, 5.1816E-05, , 
DataValue, 0.97000000000000008, 5.2482E-05, 5.2482E-05, , 
DataValue, 0.98000000000000009, 5.297E-05, 5.297E-05, , 
DataValue, 0.9900000000000001, 5.3554E-05, 5.3554E-05, , 
DataValue, 1, 5.3968E-05, 5.3968E-05, , 
DataValue, 1.01, 5.4518E-05, 5.4518E-05, , 
DataValue, 1.02, 5.5172E-05, 5.5172E-05, , 
DataValue, 1.03, 5.6018000000000005E-05, 5.6018000000000005E-05, , 
DataValue, 1.04, 5.6542E-05, 5.6542E-05, , 
DataValue, 1.05, 5.7062000000000004E-05, 5.7062000000000004E-05, , 
DataValue, 1.06, 5.7538000000000004E-05, 5.7538000000000004E-05, , 
DataValue, 1.07, 5.8086E-05, 5.8086E-05, , 
DataValue, 1.08, 5.8484000000000005E-05, 5.8484000000000005E-05, , 
DataValue, 1.09, 5.9040000000000004E-05, 5.9040000000000004E-05, , 
DataValue, 1.1, 5.9584000000000004E-05, 5.9584000000000004E-05, , 
DataValue, 1.11, 6.0094000000000004E-05, 6.0094000000000004E-05, , 
DataValue, 1.12, 6.0610000000000004E-05, 6.0610000000000004E-05, , 
DataValue, 1.1300000000000001, 6.1194E-05, 6.1194E-05, , 
DataValue, 1.1400000000000001, 6.1702E-05, 6.1702E-05, , 
DataValue, 1.1500000000000001, 6.2222E-05, 6.2222E-05, , 
DataValue, 1.1600000000000001, 6.2764E-05, 6.2764E-05, , 
DataValue, 1.1700000000000002, 6.3254E-05, 6.3254E-05, , 
DataValue, 1.1800000000000002, 6.3766E-05, 6.3766E-05, , 
DataValue, 1.19, 6.4276E-05, 6.4276E-05, , 
DataValue, 1.2, 6.4774E-05, 6.4774E-05, , 
DataValue, 1.21, 6.527E-05, 6.527E-05, , 
DataValue, 1.22, 6.5672E-05, 6.5672E-05, , 
DataValue, 1.23, 6.618E-05, 6.618E-05, , 
DataValue, 1.24, 6.6666E-05, 6.6666E-05, , 
DataValue, 1.25, 6.7128E-05, 6.7128E-05, , 
DataValue, 1.26, 6.7608000000000007E-05, 6.7608000000000007E-05, , 
DataValue, 1.27, 6.8092E-05, 6.8092E-05, , 
DataValue, 1.28, 6.852E-05, 6.852E-05, , 
DataValue, 1.29, 6.8986E-05, 6.8986E-05, , 
DataValue, 1.3, 6.9384E-05, 6.9384E-05, , 
DataValue, 1.31, 6.9838E-05, 6.9838E-05, , 
DataValue, 1.32, 7.033E-05, 7.033E-05, , 
DataValue, 1.33, 7.0748000000000008E-05, 7.0748000000000008E-05, , 
DataValue, 1.34, 7.124E-05, 7.124E-05, , 
DataValue, 1.35, 7.1606E-05, 7.1606E-05, , 
DataValue, 1.36, 7.2056E-05, 7.2056E-05, , 
DataValue, 1.37, 7.25E-05, 7.25E-05, , 
DataValue, 1.3800000000000001, 7.289E-05, 7.289E-05, , 
DataValue, 1.3900000000000001, 7.3346E-05, 7.3346E-05, , 
DataValue, 1.4000000000000001, 7.3804E-05, 7.3804E-05, , 
DataValue, 1.4100000000000001, 7.4192E-05, 7.4192E-05, , 
DataValue, 1.4200000000000002, 7.4580000000000008E-05, 7.4580000000000008E-05, , 
DataValue, 1.4300000000000002, 7.5016E-05, 7.5016E-05, , 
DataValue, 1.4400000000000002, 7.5458000000000008E-05, 7.5458000000000008E-05, , 
DataValue, 1.4500000000000002, 7.5882E-05, 7.5882E-05, , 
DataValue, 1.46, 7.6284E-05, 7.6284E-05, , 
DataValue, 1.47, 7.6718E-05, 7.6718E-05, , 
DataValue, 1.48, 7.7074E-05, 7.7074E-05, , 
DataValue, 1.49, 7.7474E-05, 7.7474E-05, , 
DataValue, 1.5, 7.7632E-05, 7.7632E-05, , 
DataValue, 1.5, 7.7616E-05, 7.7616E-05, , 
DataValue, 1.49, 7.7228E-05, 7.7228E-05, , 
DataValue, 1.48, 7.6584E-05, 7.6584E-05, , 
DataValue, 1.47, 7.6478000000000009E-05, 7.6478000000000009E-05, , 
DataValue, 1.46, 7.605E-05, 7.605E-05, , 
DataValue, 1.4500000000000002, 7.5692E-05, 7.5692E-05, , 
DataValue, 1.4400000000000002, 7.5292E-05, 7.5292E-05, , 
DataValue, 1.4300000000000002, 7.4628E-05, 7.4628E-05, , 
DataValue, 1.4200000000000002, 7.4498E-05, 7.4498E-05, , 
DataValue, 1.4100000000000001, 7.4058E-05, 7.4058E-05, , 
DataValue, 1.4000000000000001, 7.3632E-05, 7.3632E-05, , 
DataValue, 1.3900000000000001, 7.32E-05, 7.32E-05, , 
DataValue, 1.3800000000000001, 7.2738000000000007E-05, 7.2738000000000007E-05, , 
DataValue, 1.37, 7.2376E-05, 7.2376E-05, , 
DataValue, 1.36, 7.1876E-05, 7.1876E-05, , 
DataValue, 1.35, 7.1458E-05, 7.1458E-05, , 
DataValue, 1.34, 7.0976E-05, 7.0976E-05, , 
DataValue, 1.33, 7.053E-05, 7.053E-05, , 
DataValue, 1.32, 7.0094E-05, 7.0094E-05, , 
DataValue, 1.31, 6.9646E-05, 6.9646E-05, , 
DataValue, 1.3, 6.9208E-05, 6.9208E-05, , 
DataValue, 1.29, 6.8734E-05, 6.8734E-05, , 
DataValue, 1.28, 6.8228E-05, 6.8228E-05, , 
DataValue, 1.27, 6.7758E-05, 6.7758E-05, , 
DataValue, 1.26, 6.7352E-05, 6.7352E-05, , 
DataValue, 1.25, 6.6826E-05, 6.6826E-05, , 
DataValue, 1.24, 6.6366000000000008E-05, 6.6366000000000008E-05, , 
DataValue, 1.23, 6.5874E-05, 6.5874E-05, , 
DataValue, 1.22, 6.5388E-05, 6.5388E-05, , 
DataValue, 1.21, 6.4906E-05, 6.4906E-05, , 
DataValue, 1.2, 6.4394000000000007E-05, 6.4394000000000007E-05, , 
DataValue, 1.19, 6.392E-05, 6.392E-05, , 
DataValue, 1.1800000000000002, 6.3398E-05, 6.3398E-05, , 
DataValue, 1.1700000000000002, 6.2906E-05, 6.2906E-05, , 
DataValue, 1.1600000000000001, 6.2382E-05, 6.2382E-05, , 
DataValue, 1.1500000000000001, 6.192E-05, 6.192E-05, , 
DataValue, 1.1400000000000001, 6.1406E-05, 6.1406E-05, , 
DataValue, 1.1300000000000001, 6.0864000000000005E-05, 6.0864000000000005E-05, , 
DataValue, 1.12, 6.0386E-05, 6.0386E-05, , 
DataValue, 1.11, 5.9908E-05, 5.9908E-05, , 
DataValue, 1.1, 5.9462E-05, 5.9462E-05, , 
DataValue, 1.09, 5.8906E-05, 5.8906E-05, , 
DataValue, 1.08, 5.8404000000000005E-05, 5.8404000000000005E-05, , 
DataValue, 1.07, 5.7888000000000005E-05, 5.7888000000000005E-05, , 
DataValue, 1.06, 5.7386E-05, 5.7386E-05, , 
DataValue, 1.05, 5.6866E-05, 5.6866E-05, , 
DataValue, 1.04, 5.636E-05, 5.636E-05, , 
DataValue, 1.03, 5.5754E-05, 5.5754E-05, , 
DataValue, 1.02, 5.5276000000000004E-05, 5.5276000000000004E-05, , 
DataValue, 1.01, 5.4724E-05, 5.4724E-05, , 
DataValue, 1, 5.4226E-05, 5.4226E-05, , 
DataValue, 0.9900000000000001, 5.3678000000000003E-05, 5.3678000000000003E-05, , 
DataValue, 0.98000000000000009, 5.3154E-05, 5.3154E-05, , 
DataValue, 0.97000000000000008, 5.263E-05, 5.263E-05, , 
DataValue, 0.96000000000000008, 5.2108E-05, 5.2108E-05, , 
DataValue, 0.95000000000000007, 5.16E-05, 5.16E-05, , 
DataValue, 0.94000000000000006, 5.1076000000000004E-05, 5.1076000000000004E-05, , 
DataValue, 0.93, 5.0516E-05, 5.0516E-05, , 
DataValue, 0.92, 4.9978E-05, 4.9978E-05, , 
DataValue, 0.91, 4.9486E-05, 4.9486E-05, , 
DataValue, 0.9, 4.8926E-05, 4.8926E-05, , 
DataValue, 0.89, 4.8356E-05, 4.8356E-05, , 
DataValue, 0.88, 4.7812E-05, 4.7812E-05, , 
DataValue, 0.87, 4.7334000000000005E-05, 4.7334000000000005E-05, , 
DataValue, 0.86, 4.6764E-05, 4.6764E-05, , 
DataValue, 0.85000000000000009, 4.6234000000000005E-05, 4.6234000000000005E-05, , 
DataValue, 0.84000000000000008, 4.5718E-05, 4.5718E-05, , 
DataValue, 0.83000000000000007, 4.5192000000000004E-05, 4.5192000000000004E-05, , 
DataValue, 0.82000000000000006, 4.4626E-05, 4.4626E-05, , 
DataValue, 0.81, 4.4096E-05, 4.4096E-05, , 
DataValue, 0.8, 4.3556E-05, 4.3556E-05, , 
DataValue, 0.79, 4.3026000000000004E-05, 4.3026000000000004E-05, , 
DataValue, 0.78, 4.2494000000000003E-05, 4.2494000000000003E-05, , 
DataValue, 0.77, 4.1928E-05, 4.1928E-05, , 
DataValue, 0.76, 4.1404E-05, 4.1404E-05, , 
DataValue, 0.75, 4.084E-05, 4.084E-05, , 
DataValue, 0.74, 4.0276E-05, 4.0276E-05, , 
DataValue, 0.73, 3.9750000000000004E-05, 3.9750000000000004E-05, , 
DataValue, 0.72000000000000008, 3.921E-05, 3.921E-05, , 
DataValue, 0.71000000000000008, 3.8684000000000004E-05, 3.8684000000000004E-05, , 
DataValue, 0.70000000000000007, 3.8142E-05, 3.8142E-05, , 
DataValue, 0.69000000000000006, 3.7564E-05, 3.7564E-05, , 
DataValue, 0.68, 3.7040000000000005E-05, 3.7040000000000005E-05, , 
DataValue, 0.67, 3.6490000000000005E-05, 3.6490000000000005E-05, , 
DataValue, 0.66, 3.5946000000000004E-05, 3.5946000000000004E-05, , 
DataValue, 0.65, 3.5388E-05, 3.5388E-05, , 
DataValue, 0.64, 3.4852000000000004E-05, 3.4852000000000004E-05, , 
DataValue, 0.63, 3.433E-05, 3.433E-05, , 
DataValue, 0.62, 3.3804000000000004E-05, 3.3804000000000004E-05, , 
DataValue, 0.61, 3.3278E-05, 3.3278E-05, , 
DataValue, 0.6, 3.2704000000000004E-05, 3.2704000000000004E-05, , 
DataValue, 0.59000000000000008, 3.2166000000000003E-05, 3.2166000000000003E-05, , 
DataValue, 0.58000000000000007, 3.1614E-05, 3.1614E-05, , 
DataValue, 0.57000000000000006, 3.1032000000000004E-05, 3.1032000000000004E-05, , 
