
SetupTitle, ExtFET - POS SET - VG-1.62V - TE-1.5V
PrimitiveTest, I/V Sweep
TestParameter, Context.MainFrame, B1500A
TestParameter, Channel.UnitType, SMU, SMU, SMU
TestParameter, Channel.Unit, SMU2:HR, SMU4:HR, SMU3:HR
TestParameter, Channel.IName, I_TE, I_BE, I_G
TestParameter, Channel.VName, V_TE, V_BE, V_G
TestParameter, Channel.Mode, V, COMMON, V
TestParameter, Channel.Func, VAR1, CONST, CONST
TestParameter, Channel.Index, 
TestParameter, Channel.Time, 
TestParameter, Measurement.Port.Unit, SMU2:HR, SMU4:HR, SMU3:HR
TestParameter, Measurement.Port.SeriesResistor, NONE, NONE, NONE
TestParameter, Measurement.Port.Filter, ON, ON, ON
TestParameter, Measurement.Port.OutputVoltageComparison, 0, 0, 0
TestParameter, Measurement.Primary.Locus, Double
TestParameter, Measurement.Primary.Scale, LINEAR
TestParameter, Measurement.Primary.Start, 0
TestParameter, Measurement.Primary.Stop, 1.5
TestParameter, Measurement.Primary.Step, 0.01
TestParameter, Measurement.Primary.Compliance, 0.01
TestParameter, Measurement.Primary.PowerCompliance, 0
TestParameter, Measurement.Aborting.Condition, CONTINUE AT ANY
TestParameter, Measurement.PostOutput.Value, START
TestParameter, Measurement.PostOutput.Retention, OFF
TestParameter, Measurement.Bias.Source, 0, 0, 1.62
TestParameter, Measurement.Bias.Compliance, 0.01, 0.1, 0.0001
TestParameter, Measurement.Monitor.Unit, SMU2:HR, SMU4:HR, SMU3:HR
TestParameter, Measurement.Monitor.Adc, HR ADC, HR ADC, HR ADC
TestParameter, Measurement.Monitor.Measurement, Compliance Side, Compliance Side, Compliance Side
TestParameter, Measurement.Monitor.RangingMode, LIMITED, LIMITED, LIMITED
TestParameter, Measurement.Monitor.RangeBoundary, 1nA, 1nA, 1nA
TestParameter, Measurement.Monitor.RangeRating, BY FULL RANGE, BY FULL RANGE, BY FULL RANGE
TestParameter, Measurement.Monitor.RangeRatingCoeff, 50, 50, 50
TestParameter, Measurement.Timing.Hold, 0
TestParameter, Measurement.Timing.Delay, 0
TestParameter, Measurement.Adc.HighSpeed.Mode, AUTO
TestParameter, Measurement.Adc.HighSpeed.Coeff, 1
TestParameter, Measurement.Adc.HighResolution.AutoZero, OFF
TestParameter, Measurement.Adc.HighResolution.Mode, AUTO
TestParameter, Measurement.Adc.HighResolution.Coeff, 6
TestParameter, Measurement.WaitTime.Source.Coeff, 1
TestParameter, Measurement.WaitTime.Source.Offset, 0
TestParameter, Measurement.WaitTime.Monitor.Coeff, 1
TestParameter, Measurement.WaitTime.Monitor.Offset, 0
TestParameter, Function.User.Name, absITE
TestParameter, Function.User.Unit, A
TestParameter, Function.User.Definition, abs(I_TE)
TestParameter, Output.Graph.Enabled, true
TestParameter, Output.Graph.AutoScaling, false
TestParameter, Output.Graph.XAxis.Data, V_TE
TestParameter, Output.Graph.XAxis.Scale, Linear
TestParameter, Output.Graph.XAxis.Left, 0
TestParameter, Output.Graph.XAxis.Right, 10
TestParameter, Output.Graph.XAxis.RunTimeAutoScale, true
TestParameter, Output.Graph.YAxis.Data, absITE
TestParameter, Output.Graph.YAxis.Scale, Log
TestParameter, Output.Graph.YAxis.Bottom, 0
TestParameter, Output.Graph.YAxis.Top, 1
TestParameter, Output.Graph.YAxis.Group, 
TestParameter, Output.Graph.YAxis.RunTimeAutoScale, true
TestParameter, Output.List.Data, V1, I2abs
TestParameter, AutoAnalysis.Interpolation, false
TestParameter, AutoAnalysis.Var2StepCount, 1
TestParameter, AutoAnalysis.Var2StepScript, 
TestParameter, AutoAnalysis.Line1.Enabled, false
TestParameter, AutoAnalysis.Line1.Type, 1
TestParameter, AutoAnalysis.Line1.Fix, True
TestParameter, AutoAnalysis.Line1.YAxis, 0
TestParameter, AutoAnalysis.Line1.Point1.Type, 0
TestParameter, AutoAnalysis.Line1.Point1.XY.X, 
TestParameter, AutoAnalysis.Line1.Point1.XY.Y, 
TestParameter, AutoAnalysis.Line1.Point1.Data.Var, 
TestParameter, AutoAnalysis.Line1.Point1.Data.Condition, 
TestParameter, AutoAnalysis.Line1.Point1.Data.Start, false
TestParameter, AutoAnalysis.Line1.Point1.Data.StartVar, 
TestParameter, AutoAnalysis.Line1.Point1.Data.StartCondition, 
TestParameter, AutoAnalysis.Line1.Point2.Type, 0
TestParameter, AutoAnalysis.Line1.Point2.XY.X, 
TestParameter, AutoAnalysis.Line1.Point2.XY.Y, 
TestParameter, AutoAnalysis.Line1.Point2.Data.Var, 
TestParameter, AutoAnalysis.Line1.Point2.Data.Condition, 
TestParameter, AutoAnalysis.Line1.Point2.Data.Start, false
TestParameter, AutoAnalysis.Line1.Point2.Data.StartVar, 
TestParameter, AutoAnalysis.Line1.Point2.Data.StartCondition, 
TestParameter, AutoAnalysis.Line1.GradientExpr, 0
TestParameter, AutoAnalysis.Line2.Enabled, false
TestParameter, AutoAnalysis.Line2.Type, 1
TestParameter, AutoAnalysis.Line2.Fix, True
TestParameter, AutoAnalysis.Line2.YAxis, 0
TestParameter, AutoAnalysis.Line2.Point1.Type, 0
TestParameter, AutoAnalysis.Line2.Point1.XY.X, 
TestParameter, AutoAnalysis.Line2.Point1.XY.Y, 
TestParameter, AutoAnalysis.Line2.Point1.Data.Var, 
TestParameter, AutoAnalysis.Line2.Point1.Data.Condition, 
TestParameter, AutoAnalysis.Line2.Point1.Data.Start, false
TestParameter, AutoAnalysis.Line2.Point1.Data.StartVar, 
TestParameter, AutoAnalysis.Line2.Point1.Data.StartCondition, 
TestParameter, AutoAnalysis.Line2.Point2.Type, 0
TestParameter, AutoAnalysis.Line2.Point2.XY.X, 
TestParameter, AutoAnalysis.Line2.Point2.XY.Y, 
TestParameter, AutoAnalysis.Line2.Point2.Data.Var, 
TestParameter, AutoAnalysis.Line2.Point2.Data.Condition, 
TestParameter, AutoAnalysis.Line2.Point2.Data.Start, false
TestParameter, AutoAnalysis.Line2.Point2.Data.StartVar, 
TestParameter, AutoAnalysis.Line2.Point2.Data.StartCondition, 
TestParameter, AutoAnalysis.Line2.GradientExpr, 0
TestParameter, AutoAnalysis.Marker.Enabled, false
TestParameter, AutoAnalysis.Marker.Data.Var, 
TestParameter, AutoAnalysis.Marker.Data.Condition, 
TestParameter, AutoAnalysis.Marker.Data.Start, false
TestParameter, AutoAnalysis.Marker.Data.StartVar, 
TestParameter, AutoAnalysis.Marker.Data.StartCondition, 
MetaData, TestRecord.EntryPoint, true
MetaData, TestRecord.RecordTime, 04/15/2020 15:08:19
MetaData, TestRecord.TestTarget, S48_ExtFET_3D-C06_[10k-RES]_[TiN-BE]
MetaData, TestRecord.IterationIndex, 62
MetaData, TestRecord.Preservation, true
MetaData, TestRecord.Flag, 
MetaData, TestRecord.Remarks, 
MetaData, TestRecord.LinkKey, b3596070-9fdb-4a52-a695-c389868a8d61
MetaData, TestRecord.Parameters, 
Dimension1, 302, 302, 302, 302, 302
Dimension2, 1, 1, 1, 1, 1
DataName, V_TE, I_TE, absITE, V1, I2abs
DataValue, 0, -2.6E-13, 2.6E-13, , 
DataValue, 0.01, 3.8540000000000003E-11, 3.8540000000000003E-11, , 
DataValue, 0.02, 7.495000000000001E-11, 7.495000000000001E-11, , 
DataValue, 0.030000000000000002, 6.829E-11, 6.829E-11, , 
DataValue, 0.04, 1.7367E-10, 1.7367E-10, , 
DataValue, 0.05, 2.2907000000000002E-10, 2.2907000000000002E-10, , 
DataValue, 0.060000000000000005, 2.7877E-10, 2.7877E-10, , 
DataValue, 0.07, 2.8343E-10, 2.8343E-10, , 
DataValue, 0.08, 3.3307E-10, 3.3307E-10, , 
DataValue, 0.090000000000000011, 3.6624E-10, 3.6624E-10, , 
DataValue, 0.1, 4.9922E-06, 4.9922E-06, , 
DataValue, 0.11, 5.5256000000000009E-06, 5.5256000000000009E-06, , 
DataValue, 0.12000000000000001, 6.0342000000000006E-06, 6.0342000000000006E-06, , 
DataValue, 0.13, 6.5509E-06, 6.5509E-06, , 
DataValue, 0.14, 7.0449000000000009E-06, 7.0449000000000009E-06, , 
DataValue, 0.15, 7.555600000000001E-06, 7.555600000000001E-06, , 
DataValue, 0.16, 8.0584E-06, 8.0584E-06, , 
DataValue, 0.17, 8.6035000000000016E-06, 8.6035000000000016E-06, , 
DataValue, 0.18000000000000002, 9.2403E-06, 9.2403E-06, , 
DataValue, 0.19, 9.6819000000000013E-06, 9.6819000000000013E-06, , 
DataValue, 0.2, 1.01806E-05, 1.01806E-05, , 
DataValue, 0.21000000000000002, 1.0687900000000002E-05, 1.0687900000000002E-05, , 
DataValue, 0.22, 1.12037E-05, 1.12037E-05, , 
DataValue, 0.23, 1.1964000000000001E-05, 1.1964000000000001E-05, , 
DataValue, 0.24000000000000002, 1.252E-05, 1.252E-05, , 
DataValue, 0.25, 1.3058000000000001E-05, 1.3058000000000001E-05, , 
DataValue, 0.26, 1.3256E-05, 1.3256E-05, , 
DataValue, 0.27, 1.4184E-05, 1.4184E-05, , 
DataValue, 0.28, 1.4616E-05, 1.4616E-05, , 
DataValue, 0.29000000000000004, 1.5088E-05, 1.5088E-05, , 
DataValue, 0.3, 1.562E-05, 1.562E-05, , 
DataValue, 0.31, 1.617E-05, 1.617E-05, , 
DataValue, 0.32, 1.6696E-05, 1.6696E-05, , 
DataValue, 0.33, 1.722E-05, 1.722E-05, , 
DataValue, 0.34, 1.7768E-05, 1.7768E-05, , 
DataValue, 0.35000000000000003, 1.83E-05, 1.83E-05, , 
DataValue, 0.36000000000000004, 1.8848E-05, 1.8848E-05, , 
DataValue, 0.37, 1.9374E-05, 1.9374E-05, , 
DataValue, 0.38, 1.9916E-05, 1.9916E-05, , 
DataValue, 0.39, 2.0476000000000002E-05, 2.0476000000000002E-05, , 
DataValue, 0.4, 2.0974E-05, 2.0974E-05, , 
DataValue, 0.41000000000000003, 2.1528E-05, 2.1528E-05, , 
DataValue, 0.42000000000000004, 2.2074000000000002E-05, 2.2074000000000002E-05, , 
DataValue, 0.43, 2.2E-05, 2.2E-05, , 
DataValue, 0.44, 2.3448E-05, 2.3448E-05, , 
DataValue, 0.45, 2.3998E-05, 2.3998E-05, , 
DataValue, 0.46, 2.4534E-05, 2.4534E-05, , 
DataValue, 0.47000000000000003, 2.5056000000000002E-05, 2.5056000000000002E-05, , 
DataValue, 0.48000000000000004, 2.5698E-05, 2.5698E-05, , 
DataValue, 0.49000000000000005, 2.6278E-05, 2.6278E-05, , 
DataValue, 0.5, 2.7012E-05, 2.7012E-05, , 
DataValue, 0.51, 2.7584000000000002E-05, 2.7584000000000002E-05, , 
DataValue, 0.52, 2.8098E-05, 2.8098E-05, , 
DataValue, 0.53, 2.8626E-05, 2.8626E-05, , 
DataValue, 0.54, 2.9186E-05, 2.9186E-05, , 
DataValue, 0.55, 2.9796E-05, 2.9796E-05, , 
DataValue, 0.56, 3.027E-05, 3.027E-05, , 
DataValue, 0.57000000000000006, 3.0792E-05, 3.0792E-05, , 
DataValue, 0.58000000000000007, 3.135E-05, 3.135E-05, , 
DataValue, 0.59000000000000008, 3.1898E-05, 3.1898E-05, , 
DataValue, 0.6, 3.2466000000000004E-05, 3.2466000000000004E-05, , 
DataValue, 0.61, 3.2984E-05, 3.2984E-05, , 
DataValue, 0.62, 3.3588000000000004E-05, 3.3588000000000004E-05, , 
DataValue, 0.63, 3.4058E-05, 3.4058E-05, , 
DataValue, 0.64, 3.4622E-05, 3.4622E-05, , 
DataValue, 0.65, 3.5148E-05, 3.5148E-05, , 
DataValue, 0.66, 3.565E-05, 3.565E-05, , 
DataValue, 0.67, 3.6178E-05, 3.6178E-05, , 
DataValue, 0.68, 3.6716E-05, 3.6716E-05, , 
DataValue, 0.69000000000000006, 3.7298E-05, 3.7298E-05, , 
DataValue, 0.70000000000000007, 3.7968E-05, 3.7968E-05, , 
DataValue, 0.71000000000000008, 3.8520000000000004E-05, 3.8520000000000004E-05, , 
DataValue, 0.72000000000000008, 3.9084E-05, 3.9084E-05, , 
DataValue, 0.73, 3.9572E-05, 3.9572E-05, , 
DataValue, 0.74, 4.0118000000000005E-05, 4.0118000000000005E-05, , 
DataValue, 0.75, 4.0658E-05, 4.0658E-05, , 
DataValue, 0.76, 4.1190000000000004E-05, 4.1190000000000004E-05, , 
DataValue, 0.77, 4.1718E-05, 4.1718E-05, , 
DataValue, 0.78, 4.2172E-05, 4.2172E-05, , 
DataValue, 0.79, 4.2744E-05, 4.2744E-05, , 
DataValue, 0.8, 4.3144E-05, 4.3144E-05, , 
DataValue, 0.81, 4.3804E-05, 4.3804E-05, , 
DataValue, 0.82000000000000006, 4.4328E-05, 4.4328E-05, , 
DataValue, 0.83000000000000007, 4.4902000000000005E-05, 4.4902000000000005E-05, , 
DataValue, 0.84000000000000008, 4.544E-05, 4.544E-05, , 
DataValue, 0.85000000000000009, 4.6042000000000004E-05, 4.6042000000000004E-05, , 
DataValue, 0.86, 4.6604E-05, 4.6604E-05, , 
DataValue, 0.87, 4.7054E-05, 4.7054E-05, , 
DataValue, 0.88, 4.7588E-05, 4.7588E-05, , 
DataValue, 0.89, 4.8032000000000004E-05, 4.8032000000000004E-05, , 
DataValue, 0.9, 4.8536000000000004E-05, 4.8536000000000004E-05, , 
DataValue, 0.91, 4.907E-05, 4.907E-05, , 
DataValue, 0.92, 4.9720000000000005E-05, 4.9720000000000005E-05, , 
DataValue, 0.93, 5.013E-05, 5.013E-05, , 
DataValue, 0.94000000000000006, 5.0646E-05, 5.0646E-05, , 
DataValue, 0.95000000000000007, 5.1134E-05, 5.1134E-05, , 
DataValue, 0.96000000000000008, 5.161E-05, 5.161E-05, , 
DataValue, 0.97000000000000008, 5.2238000000000004E-05, 5.2238000000000004E-05, , 
DataValue, 0.98000000000000009, 5.2782000000000004E-05, 5.2782000000000004E-05, , 
DataValue, 0.9900000000000001, 5.3252000000000004E-05, 5.3252000000000004E-05, , 
DataValue, 1, 5.3870000000000004E-05, 5.3870000000000004E-05, , 
DataValue, 1.01, 5.4326E-05, 5.4326E-05, , 
DataValue, 1.02, 5.4816000000000005E-05, 5.4816000000000005E-05, , 
DataValue, 1.03, 5.5360000000000005E-05, 5.5360000000000005E-05, , 
DataValue, 1.04, 5.5916000000000005E-05, 5.5916000000000005E-05, , 
DataValue, 1.05, 5.6382E-05, 5.6382E-05, , 
DataValue, 1.06, 5.6908000000000005E-05, 5.6908000000000005E-05, , 
DataValue, 1.07, 5.7382E-05, 5.7382E-05, , 
DataValue, 1.08, 5.7986000000000004E-05, 5.7986000000000004E-05, , 
DataValue, 1.09, 5.8494E-05, 5.8494E-05, , 
DataValue, 1.1, 5.8982000000000006E-05, 5.8982000000000006E-05, , 
DataValue, 1.11, 5.9518E-05, 5.9518E-05, , 
DataValue, 1.12, 6.0062E-05, 6.0062E-05, , 
DataValue, 1.1300000000000001, 6.0612E-05, 6.0612E-05, , 
DataValue, 1.1400000000000001, 6.0784E-05, 6.0784E-05, , 
DataValue, 1.1500000000000001, 6.1332E-05, 6.1332E-05, , 
DataValue, 1.1600000000000001, 6.181E-05, 6.181E-05, , 
DataValue, 1.1700000000000002, 6.2336000000000008E-05, 6.2336000000000008E-05, , 
DataValue, 1.1800000000000002, 6.2808E-05, 6.2808E-05, , 
DataValue, 1.19, 6.3376E-05, 6.3376E-05, , 
DataValue, 1.2, 6.3876E-05, 6.3876E-05, , 
DataValue, 1.21, 6.4398E-05, 6.4398E-05, , 
DataValue, 1.22, 6.4818E-05, 6.4818E-05, , 
DataValue, 1.23, 6.5324E-05, 6.5324E-05, , 
DataValue, 1.24, 6.5818E-05, 6.5818E-05, , 
DataValue, 1.25, 6.6310000000000007E-05, 6.6310000000000007E-05, , 
DataValue, 1.26, 6.6774000000000008E-05, 6.6774000000000008E-05, , 
DataValue, 1.27, 6.723E-05, 6.723E-05, , 
DataValue, 1.28, 6.7742E-05, 6.7742E-05, , 
DataValue, 1.29, 6.8216E-05, 6.8216E-05, , 
DataValue, 1.3, 6.8682E-05, 6.8682E-05, , 
DataValue, 1.31, 6.9104000000000008E-05, 6.9104000000000008E-05, , 
DataValue, 1.32, 6.9566E-05, 6.9566E-05, , 
DataValue, 1.33, 7.0012E-05, 7.0012E-05, , 
DataValue, 1.34, 7.0398E-05, 7.0398E-05, , 
DataValue, 1.35, 7.0890000000000007E-05, 7.0890000000000007E-05, , 
DataValue, 1.36, 7.1392E-05, 7.1392E-05, , 
DataValue, 1.37, 7.1804E-05, 7.1804E-05, , 
DataValue, 1.3800000000000001, 7.224E-05, 7.224E-05, , 
DataValue, 1.3900000000000001, 7.2604E-05, 7.2604E-05, , 
DataValue, 1.4000000000000001, 7.3046E-05, 7.3046E-05, , 
DataValue, 1.4100000000000001, 7.3538E-05, 7.3538E-05, , 
DataValue, 1.4200000000000002, 7.4544E-05, 7.4544E-05, , 
DataValue, 1.4300000000000002, 7.4656E-05, 7.4656E-05, , 
DataValue, 1.4400000000000002, 7.5262E-05, 7.5262E-05, , 
DataValue, 1.4500000000000002, 7.5612000000000007E-05, 7.5612000000000007E-05, , 
DataValue, 1.46, 7.5812E-05, 7.5812E-05, , 
DataValue, 1.47, 7.6348000000000008E-05, 7.6348000000000008E-05, , 
DataValue, 1.48, 7.6978000000000007E-05, 7.6978000000000007E-05, , 
DataValue, 1.49, 7.7316E-05, 7.7316E-05, , 
DataValue, 1.5, 7.7522000000000008E-05, 7.7522000000000008E-05, , 
DataValue, 1.5, 7.752E-05, 7.752E-05, , 
DataValue, 1.49, 7.7176000000000008E-05, 7.7176000000000008E-05, , 
DataValue, 1.48, 7.6806E-05, 7.6806E-05, , 
DataValue, 1.47, 7.6522E-05, 7.6522E-05, , 
DataValue, 1.46, 7.5926E-05, 7.5926E-05, , 
DataValue, 1.4500000000000002, 7.567E-05, 7.567E-05, , 
DataValue, 1.4400000000000002, 7.525E-05, 7.525E-05, , 
DataValue, 1.4300000000000002, 7.485E-05, 7.485E-05, , 
DataValue, 1.4200000000000002, 7.4486E-05, 7.4486E-05, , 
DataValue, 1.4100000000000001, 7.4012000000000009E-05, 7.4012000000000009E-05, , 
DataValue, 1.4000000000000001, 7.362E-05, 7.362E-05, , 
DataValue, 1.3900000000000001, 7.341E-05, 7.341E-05, , 
DataValue, 1.3800000000000001, 7.2912000000000009E-05, 7.2912000000000009E-05, , 
DataValue, 1.37, 7.2368000000000009E-05, 7.2368000000000009E-05, , 
DataValue, 1.36, 7.2176000000000008E-05, 7.2176000000000008E-05, , 
DataValue, 1.35, 7.1686E-05, 7.1686E-05, , 
DataValue, 1.34, 7.1252E-05, 7.1252E-05, , 
DataValue, 1.33, 7.0786E-05, 7.0786E-05, , 
DataValue, 1.32, 7.0340000000000008E-05, 7.0340000000000008E-05, , 
DataValue, 1.31, 6.9870000000000007E-05, 6.9870000000000007E-05, , 
DataValue, 1.3, 6.94E-05, 6.94E-05, , 
DataValue, 1.29, 6.893E-05, 6.893E-05, , 
DataValue, 1.28, 6.844E-05, 6.844E-05, , 
DataValue, 1.27, 6.7992000000000009E-05, 6.7992000000000009E-05, , 
DataValue, 1.26, 6.7546000000000007E-05, 6.7546000000000007E-05, , 
DataValue, 1.25, 6.7022E-05, 6.7022E-05, , 
DataValue, 1.24, 6.6578E-05, 6.6578E-05, , 
DataValue, 1.23, 6.6088000000000008E-05, 6.6088000000000008E-05, , 
DataValue, 1.22, 6.5624000000000007E-05, 6.5624000000000007E-05, , 
DataValue, 1.21, 6.5094E-05, 6.5094E-05, , 
DataValue, 1.2, 6.4556E-05, 6.4556E-05, , 
DataValue, 1.19, 6.4092000000000009E-05, 6.4092000000000009E-05, , 
DataValue, 1.1800000000000002, 6.3618E-05, 6.3618E-05, , 
DataValue, 1.1700000000000002, 6.3104E-05, 6.3104E-05, , 
DataValue, 1.1600000000000001, 6.2598E-05, 6.2598E-05, , 
DataValue, 1.1500000000000001, 6.2098E-05, 6.2098E-05, , 
DataValue, 1.1400000000000001, 6.1594000000000007E-05, 6.1594000000000007E-05, , 
DataValue, 1.1300000000000001, 6.1096E-05, 6.1096E-05, , 
DataValue, 1.12, 6.0584E-05, 6.0584E-05, , 
DataValue, 1.11, 6.0072000000000004E-05, 6.0072000000000004E-05, , 
DataValue, 1.1, 5.9584000000000004E-05, 5.9584000000000004E-05, , 
DataValue, 1.09, 5.9046000000000004E-05, 5.9046000000000004E-05, , 
DataValue, 1.08, 5.8566E-05, 5.8566E-05, , 
DataValue, 1.07, 5.8048000000000004E-05, 5.8048000000000004E-05, , 
DataValue, 1.06, 5.7536E-05, 5.7536E-05, , 
DataValue, 1.05, 5.6974E-05, 5.6974E-05, , 
DataValue, 1.04, 5.6492E-05, 5.6492E-05, , 
DataValue, 1.03, 5.5976E-05, 5.5976E-05, , 
DataValue, 1.02, 5.5436E-05, 5.5436E-05, , 
DataValue, 1.01, 5.4816000000000005E-05, 5.4816000000000005E-05, , 
DataValue, 1, 5.44E-05, 5.44E-05, , 
DataValue, 0.9900000000000001, 5.3866E-05, 5.3866E-05, , 
DataValue, 0.98000000000000009, 5.335E-05, 5.335E-05, , 
DataValue, 0.97000000000000008, 5.2844000000000004E-05, 5.2844000000000004E-05, , 
DataValue, 0.96000000000000008, 5.2272000000000004E-05, 5.2272000000000004E-05, , 
DataValue, 0.95000000000000007, 5.176E-05, 5.176E-05, , 
DataValue, 0.94000000000000006, 5.1202E-05, 5.1202E-05, , 
DataValue, 0.93, 5.0674E-05, 5.0674E-05, , 
DataValue, 0.92, 5.0108E-05, 5.0108E-05, , 
DataValue, 0.91, 4.9558E-05, 4.9558E-05, , 
DataValue, 0.9, 4.9044E-05, 4.9044E-05, , 
DataValue, 0.89, 4.8518E-05, 4.8518E-05, , 
DataValue, 0.88, 4.7986000000000004E-05, 4.7986000000000004E-05, , 
DataValue, 0.87, 4.7454000000000003E-05, 4.7454000000000003E-05, , 
DataValue, 0.86, 4.691E-05, 4.691E-05, , 
DataValue, 0.85000000000000009, 4.64E-05, 4.64E-05, , 
DataValue, 0.84000000000000008, 4.5842E-05, 4.5842E-05, , 
DataValue, 0.83000000000000007, 4.5318E-05, 4.5318E-05, , 
DataValue, 0.82000000000000006, 4.4742E-05, 4.4742E-05, , 
DataValue, 0.81, 4.4172E-05, 4.4172E-05, , 
DataValue, 0.8, 4.3658E-05, 4.3658E-05, , 
DataValue, 0.79, 4.3114E-05, 4.3114E-05, , 
DataValue, 0.78, 4.2558E-05, 4.2558E-05, , 
DataValue, 0.77, 4.202E-05, 4.202E-05, , 
DataValue, 0.76, 4.1498E-05, 4.1498E-05, , 
DataValue, 0.75, 4.0946000000000004E-05, 4.0946000000000004E-05, , 
DataValue, 0.74, 4.041E-05, 4.041E-05, , 
DataValue, 0.73, 3.9838E-05, 3.9838E-05, , 
DataValue, 0.72000000000000008, 3.9312E-05, 3.9312E-05, , 
DataValue, 0.71000000000000008, 3.8778E-05, 3.8778E-05, , 
DataValue, 0.70000000000000007, 3.828E-05, 3.828E-05, , 
DataValue, 0.69000000000000006, 3.7692000000000004E-05, 3.7692000000000004E-05, , 
DataValue, 0.68, 3.7134E-05, 3.7134E-05, , 
DataValue, 0.67, 3.6572E-05, 3.6572E-05, , 
DataValue, 0.66, 3.605E-05, 3.605E-05, , 
DataValue, 0.65, 3.548E-05, 3.548E-05, , 
DataValue, 0.64, 3.4936E-05, 3.4936E-05, , 
DataValue, 0.63, 3.4372E-05, 3.4372E-05, , 
DataValue, 0.62, 3.3808E-05, 3.3808E-05, , 
DataValue, 0.61, 3.33E-05, 3.33E-05, , 
DataValue, 0.6, 3.2758E-05, 3.2758E-05, , 
