
SetupTitle, ExtFET - NEG RESET BE-1.5V
PrimitiveTest, I/V Sweep
TestParameter, Context.MainFrame, B1500A
TestParameter, Channel.UnitType, SMU, SMU, SMU
TestParameter, Channel.Unit, SMU2:HR, SMU4:HR, SMU3:HR
TestParameter, Channel.IName, I_TE, I_BE, I_G
TestParameter, Channel.VName, V_TE, V_BE, V_G
TestParameter, Channel.Mode, V, COMMON, V
TestParameter, Channel.Func, VAR1, CONST, CONST
TestParameter, Channel.Index, 
TestParameter, Channel.Time, 
TestParameter, Measurement.Port.Unit, SMU2:HR, SMU4:HR, SMU3:HR
TestParameter, Measurement.Port.SeriesResistor, NONE, NONE, NONE
TestParameter, Measurement.Port.Filter, ON, ON, ON
TestParameter, Measurement.Port.OutputVoltageComparison, 0, 0, 0
TestParameter, Measurement.Primary.Locus, Double
TestParameter, Measurement.Primary.Scale, LINEAR
TestParameter, Measurement.Primary.Start, 0
TestParameter, Measurement.Primary.Stop, -1.5
TestParameter, Measurement.Primary.Step, -0.01
TestParameter, Measurement.Primary.Compliance, 0.01
TestParameter, Measurement.Primary.PowerCompliance, 0
TestParameter, Measurement.Aborting.Condition, CONTINUE AT ANY
TestParameter, Measurement.PostOutput.Value, START
TestParameter, Measurement.PostOutput.Retention, OFF
TestParameter, Measurement.Bias.Source, 0, 0, 2
TestParameter, Measurement.Bias.Compliance, 0.01, 0.1, 0.0001
TestParameter, Measurement.Monitor.Unit, SMU2:HR, SMU4:HR, SMU3:HR
TestParameter, Measurement.Monitor.Adc, HR ADC, HR ADC, HR ADC
TestParameter, Measurement.Monitor.Measurement, Compliance Side, Compliance Side, Compliance Side
TestParameter, Measurement.Monitor.RangingMode, LIMITED, LIMITED, LIMITED
TestParameter, Measurement.Monitor.RangeBoundary, 1nA, 1nA, 1nA
TestParameter, Measurement.Monitor.RangeRating, BY FULL RANGE, BY FULL RANGE, BY FULL RANGE
TestParameter, Measurement.Monitor.RangeRatingCoeff, 50, 50, 50
TestParameter, Measurement.Timing.Hold, 0
TestParameter, Measurement.Timing.Delay, 0
TestParameter, Measurement.Adc.HighSpeed.Mode, AUTO
TestParameter, Measurement.Adc.HighSpeed.Coeff, 1
TestParameter, Measurement.Adc.HighResolution.AutoZero, OFF
TestParameter, Measurement.Adc.HighResolution.Mode, AUTO
TestParameter, Measurement.Adc.HighResolution.Coeff, 6
TestParameter, Measurement.WaitTime.Source.Coeff, 1
TestParameter, Measurement.WaitTime.Source.Offset, 0
TestParameter, Measurement.WaitTime.Monitor.Coeff, 1
TestParameter, Measurement.WaitTime.Monitor.Offset, 0
TestParameter, Function.User.Name, absITE
TestParameter, Function.User.Unit, A
TestParameter, Function.User.Definition, abs(I_TE)
TestParameter, Output.Graph.Enabled, true
TestParameter, Output.Graph.AutoScaling, false
TestParameter, Output.Graph.XAxis.Data, V_TE
TestParameter, Output.Graph.XAxis.Scale, Linear
TestParameter, Output.Graph.XAxis.Left, 0
TestParameter, Output.Graph.XAxis.Right, 10
TestParameter, Output.Graph.XAxis.RunTimeAutoScale, true
TestParameter, Output.Graph.YAxis.Data, absITE
TestParameter, Output.Graph.YAxis.Scale, Log
TestParameter, Output.Graph.YAxis.Bottom, 0
TestParameter, Output.Graph.YAxis.Top, 1
TestParameter, Output.Graph.YAxis.Group, 
TestParameter, Output.Graph.YAxis.RunTimeAutoScale, true
TestParameter, Output.List.Data, V1, I2abs
TestParameter, AutoAnalysis.Interpolation, false
TestParameter, AutoAnalysis.Var2StepCount, 1
TestParameter, AutoAnalysis.Var2StepScript, 
TestParameter, AutoAnalysis.Line1.Enabled, false
TestParameter, AutoAnalysis.Line1.Type, 1
TestParameter, AutoAnalysis.Line1.Fix, True
TestParameter, AutoAnalysis.Line1.YAxis, 0
TestParameter, AutoAnalysis.Line1.Point1.Type, 0
TestParameter, AutoAnalysis.Line1.Point1.XY.X, 
TestParameter, AutoAnalysis.Line1.Point1.XY.Y, 
TestParameter, AutoAnalysis.Line1.Point1.Data.Var, 
TestParameter, AutoAnalysis.Line1.Point1.Data.Condition, 
TestParameter, AutoAnalysis.Line1.Point1.Data.Start, false
TestParameter, AutoAnalysis.Line1.Point1.Data.StartVar, 
TestParameter, AutoAnalysis.Line1.Point1.Data.StartCondition, 
TestParameter, AutoAnalysis.Line1.Point2.Type, 0
TestParameter, AutoAnalysis.Line1.Point2.XY.X, 
TestParameter, AutoAnalysis.Line1.Point2.XY.Y, 
TestParameter, AutoAnalysis.Line1.Point2.Data.Var, 
TestParameter, AutoAnalysis.Line1.Point2.Data.Condition, 
TestParameter, AutoAnalysis.Line1.Point2.Data.Start, false
TestParameter, AutoAnalysis.Line1.Point2.Data.StartVar, 
TestParameter, AutoAnalysis.Line1.Point2.Data.StartCondition, 
TestParameter, AutoAnalysis.Line1.GradientExpr, 0
TestParameter, AutoAnalysis.Line2.Enabled, false
TestParameter, AutoAnalysis.Line2.Type, 1
TestParameter, AutoAnalysis.Line2.Fix, True
TestParameter, AutoAnalysis.Line2.YAxis, 0
TestParameter, AutoAnalysis.Line2.Point1.Type, 0
TestParameter, AutoAnalysis.Line2.Point1.XY.X, 
TestParameter, AutoAnalysis.Line2.Point1.XY.Y, 
TestParameter, AutoAnalysis.Line2.Point1.Data.Var, 
TestParameter, AutoAnalysis.Line2.Point1.Data.Condition, 
TestParameter, AutoAnalysis.Line2.Point1.Data.Start, false
TestParameter, AutoAnalysis.Line2.Point1.Data.StartVar, 
TestParameter, AutoAnalysis.Line2.Point1.Data.StartCondition, 
TestParameter, AutoAnalysis.Line2.Point2.Type, 0
TestParameter, AutoAnalysis.Line2.Point2.XY.X, 
TestParameter, AutoAnalysis.Line2.Point2.XY.Y, 
TestParameter, AutoAnalysis.Line2.Point2.Data.Var, 
TestParameter, AutoAnalysis.Line2.Point2.Data.Condition, 
TestParameter, AutoAnalysis.Line2.Point2.Data.Start, false
TestParameter, AutoAnalysis.Line2.Point2.Data.StartVar, 
TestParameter, AutoAnalysis.Line2.Point2.Data.StartCondition, 
TestParameter, AutoAnalysis.Line2.GradientExpr, 0
TestParameter, AutoAnalysis.Marker.Enabled, false
TestParameter, AutoAnalysis.Marker.Data.Var, 
TestParameter, AutoAnalysis.Marker.Data.Condition, 
TestParameter, AutoAnalysis.Marker.Data.Start, false
TestParameter, AutoAnalysis.Marker.Data.StartVar, 
TestParameter, AutoAnalysis.Marker.Data.StartCondition, 
MetaData, TestRecord.EntryPoint, true
MetaData, TestRecord.RecordTime, 04/15/2020 14:51:35
MetaData, TestRecord.TestTarget, S48_ExtFET_3D-C06_[10k-RES]_[TiN-BE]
MetaData, TestRecord.IterationIndex, 106
MetaData, TestRecord.Preservation, true
MetaData, TestRecord.Flag, 
MetaData, TestRecord.Remarks, 
MetaData, TestRecord.LinkKey, de180ddd-26a2-4b77-8c91-9d6336f8a9bf
MetaData, TestRecord.Parameters, 
Dimension1, 302, 302, 302, 302, 302
Dimension2, 1, 1, 1, 1, 1
DataName, V_TE, I_TE, absITE, V1, I2abs
DataValue, 0, 1.674E-09, 1.674E-09, , 
DataValue, -0.01, -5.5215999999999994E-07, 5.5215999999999994E-07, , 
DataValue, -0.02, -1.10804E-06, 1.10804E-06, , 
DataValue, -0.030000000000000002, -1.6539000000000002E-06, 1.6539000000000002E-06, , 
DataValue, -0.04, -2.2150000000000004E-06, 2.2150000000000004E-06, , 
DataValue, -0.05, -2.7623000000000002E-06, 2.7623000000000002E-06, , 
DataValue, -0.060000000000000005, -3.2944E-06, 3.2944E-06, , 
DataValue, -0.07, -3.8601000000000005E-06, 3.8601000000000005E-06, , 
DataValue, -0.08, -4.4164000000000006E-06, 4.4164000000000006E-06, , 
DataValue, -0.090000000000000011, -4.9680000000000005E-06, 4.9680000000000005E-06, , 
DataValue, -0.1, -5.5147000000000007E-06, 5.5147000000000007E-06, , 
DataValue, -0.11, -6.0319000000000006E-06, 6.0319000000000006E-06, , 
DataValue, -0.12000000000000001, -6.5643000000000008E-06, 6.5643000000000008E-06, , 
DataValue, -0.13, -7.0747000000000011E-06, 7.0747000000000011E-06, , 
DataValue, -0.14, -7.6281000000000007E-06, 7.6281000000000007E-06, , 
DataValue, -0.15, -8.1519E-06, 8.1519E-06, , 
DataValue, -0.16, -8.7191000000000009E-06, 8.7191000000000009E-06, , 
DataValue, -0.17, -9.2932000000000011E-06, 9.2932000000000011E-06, , 
DataValue, -0.18000000000000002, -9.8157000000000016E-06, 9.8157000000000016E-06, , 
DataValue, -0.19, -1.0338100000000002E-05, 1.0338100000000002E-05, , 
DataValue, -0.2, -1.0810800000000002E-05, 1.0810800000000002E-05, , 
DataValue, -0.21000000000000002, -1.1413500000000002E-05, 1.1413500000000002E-05, , 
DataValue, -0.22, -1.1964000000000001E-05, 1.1964000000000001E-05, , 
DataValue, -0.23, -1.2396000000000001E-05, 1.2396000000000001E-05, , 
DataValue, -0.24000000000000002, -1.2990000000000001E-05, 1.2990000000000001E-05, , 
DataValue, -0.25, -1.3578000000000001E-05, 1.3578000000000001E-05, , 
DataValue, -0.26, -1.3724000000000001E-05, 1.3724000000000001E-05, , 
DataValue, -0.27, -1.408E-05, 1.408E-05, , 
DataValue, -0.28, -1.346E-05, 1.346E-05, , 
DataValue, -0.29000000000000004, -1.4012E-05, 1.4012E-05, , 
DataValue, -0.3, -1.4576E-05, 1.4576E-05, , 
DataValue, -0.31, -1.5236000000000001E-05, 1.5236000000000001E-05, , 
DataValue, -0.32, -1.5784E-05, 1.5784E-05, , 
DataValue, -0.33, -1.5904000000000002E-05, 1.5904000000000002E-05, , 
DataValue, -0.34, -1.6118E-05, 1.6118E-05, , 
DataValue, -0.35000000000000003, -1.7078E-05, 1.7078E-05, , 
DataValue, -0.36000000000000004, -1.7104E-05, 1.7104E-05, , 
DataValue, -0.37, -1.7858E-05, 1.7858E-05, , 
DataValue, -0.38, -1.8304E-05, 1.8304E-05, , 
DataValue, -0.39, -1.9068E-05, 1.9068E-05, , 
DataValue, -0.4, -1.9824000000000002E-05, 1.9824000000000002E-05, , 
DataValue, -0.41000000000000003, -1.947E-05, 1.947E-05, , 
DataValue, -0.42000000000000004, -1.5088E-05, 1.5088E-05, , 
DataValue, -0.43, -2.0518000000000002E-05, 2.0518000000000002E-05, , 
DataValue, -0.44, -2.0542E-05, 2.0542E-05, , 
DataValue, -0.45, -1.8382E-05, 1.8382E-05, , 
DataValue, -0.46, -1.7866E-05, 1.7866E-05, , 
DataValue, -0.47000000000000003, -2.241E-05, 2.241E-05, , 
DataValue, -0.48000000000000004, -2.0636E-05, 2.0636E-05, , 
DataValue, -0.49000000000000005, -2.3038000000000002E-05, 2.3038000000000002E-05, , 
DataValue, -0.5, -2.3556E-05, 2.3556E-05, , 
DataValue, -0.51, -2.3092000000000002E-05, 2.3092000000000002E-05, , 
DataValue, -0.52, -2.3712E-05, 2.3712E-05, , 
DataValue, -0.53, -2.3622000000000002E-05, 2.3622000000000002E-05, , 
DataValue, -0.54, -2.34E-05, 2.34E-05, , 
DataValue, -0.55, -2.4076E-05, 2.4076E-05, , 
DataValue, -0.56, -2.567E-05, 2.567E-05, , 
DataValue, -0.57000000000000006, -2.6802000000000002E-05, 2.6802000000000002E-05, , 
DataValue, -0.58000000000000007, -2.3882E-05, 2.3882E-05, , 
DataValue, -0.59000000000000008, -2.3944E-05, 2.3944E-05, , 
DataValue, -0.6, -2.5614000000000002E-05, 2.5614000000000002E-05, , 
DataValue, -0.61, -2.5898000000000002E-05, 2.5898000000000002E-05, , 
DataValue, -0.62, -2.7052E-05, 2.7052E-05, , 
DataValue, -0.63, -2.4352E-05, 2.4352E-05, , 
DataValue, -0.64, -2.8146E-05, 2.8146E-05, , 
DataValue, -0.65, -2.8648E-05, 2.8648E-05, , 
DataValue, -0.66, -2.4436E-05, 2.4436E-05, , 
DataValue, -0.67, -2.4516E-05, 2.4516E-05, , 
DataValue, -0.68, -2.5272E-05, 2.5272E-05, , 
DataValue, -0.69000000000000006, -2.3728E-05, 2.3728E-05, , 
DataValue, -0.70000000000000007, -2.3786000000000002E-05, 2.3786000000000002E-05, , 
DataValue, -0.71000000000000008, -2.485E-05, 2.485E-05, , 
DataValue, -0.72000000000000008, -2.0912000000000002E-05, 2.0912000000000002E-05, , 
DataValue, -0.73, -1.9574E-05, 1.9574E-05, , 
DataValue, -0.74, -1.8428E-05, 1.8428E-05, , 
DataValue, -0.75, -1.9254000000000002E-05, 1.9254000000000002E-05, , 
DataValue, -0.76, -1.8312E-05, 1.8312E-05, , 
DataValue, -0.77, -2.1182E-05, 2.1182E-05, , 
DataValue, -0.78, -1.9712E-05, 1.9712E-05, , 
DataValue, -0.79, -1.8032E-05, 1.8032E-05, , 
DataValue, -0.8, -1.8536E-05, 1.8536E-05, , 
DataValue, -0.81, -1.874E-05, 1.874E-05, , 
DataValue, -0.82000000000000006, -2.1524E-05, 2.1524E-05, , 
DataValue, -0.83000000000000007, -2.3898E-05, 2.3898E-05, , 
DataValue, -0.84000000000000008, -2.3948000000000002E-05, 2.3948000000000002E-05, , 
DataValue, -0.85000000000000009, -1.9848E-05, 1.9848E-05, , 
DataValue, -0.86, -1.6962E-05, 1.6962E-05, , 
DataValue, -0.87, -1.846E-05, 1.846E-05, , 
DataValue, -0.88, -1.7284E-05, 1.7284E-05, , 
DataValue, -0.89, -1.256E-05, 1.256E-05, , 
DataValue, -0.9, -1.1776E-05, 1.1776E-05, , 
DataValue, -0.91, -1.0246E-05, 1.0246E-05, , 
DataValue, -0.92, -1.2414E-05, 1.2414E-05, , 
DataValue, -0.93, -1.2578E-05, 1.2578E-05, , 
DataValue, -0.94000000000000006, -7.1495000000000008E-06, 7.1495000000000008E-06, , 
DataValue, -0.95000000000000007, -6.983900000000001E-06, 6.983900000000001E-06, , 
DataValue, -0.96000000000000008, -7.576100000000001E-06, 7.576100000000001E-06, , 
DataValue, -0.97000000000000008, -1.3038000000000001E-05, 1.3038000000000001E-05, , 
DataValue, -0.98000000000000009, -1.3188E-05, 1.3188E-05, , 
DataValue, -0.9900000000000001, -1.1282E-05, 1.1282E-05, , 
DataValue, -1, -1.2586000000000001E-05, 1.2586000000000001E-05, , 
DataValue, -1.01, -8.3543E-06, 8.3543E-06, , 
DataValue, -1.02, -6.302E-06, 6.302E-06, , 
DataValue, -1.03, -7.0825E-06, 7.0825E-06, , 
DataValue, -1.04, -1.1112E-05, 1.1112E-05, , 
DataValue, -1.05, -8.8154E-06, 8.8154E-06, , 
DataValue, -1.06, -7.3608000000000007E-06, 7.3608000000000007E-06, , 
DataValue, -1.07, -6.101200000000001E-06, 6.101200000000001E-06, , 
DataValue, -1.08, -8.0494000000000012E-06, 8.0494000000000012E-06, , 
DataValue, -1.09, -9.061E-06, 9.061E-06, , 
DataValue, -1.1, -1.2298E-05, 1.2298E-05, , 
DataValue, -1.11, -4.0071E-06, 4.0071E-06, , 
DataValue, -1.12, -7.72E-06, 7.72E-06, , 
DataValue, -1.1300000000000001, -5.795E-06, 5.795E-06, , 
DataValue, -1.1400000000000001, -7.2562000000000009E-06, 7.2562000000000009E-06, , 
DataValue, -1.1500000000000001, -8.5401000000000015E-06, 8.5401000000000015E-06, , 
DataValue, -1.1600000000000001, -4.9383000000000006E-06, 4.9383000000000006E-06, , 
DataValue, -1.1700000000000002, -4.4517E-06, 4.4517E-06, , 
DataValue, -1.1800000000000002, -6.0036E-06, 6.0036E-06, , 
DataValue, -1.19, -6.4047000000000007E-06, 6.4047000000000007E-06, , 
DataValue, -1.2, -1.238E-06, 1.238E-06, , 
DataValue, -1.21, -1.2896000000000001E-06, 1.2896000000000001E-06, , 
DataValue, -1.22, -1.416E-06, 1.416E-06, , 
DataValue, -1.23, -1.3978000000000002E-06, 1.3978000000000002E-06, , 
DataValue, -1.24, -1.5100000000000002E-06, 1.5100000000000002E-06, , 
DataValue, -1.25, -1.6618000000000001E-06, 1.6618000000000001E-06, , 
DataValue, -1.26, -1.5161000000000002E-06, 1.5161000000000002E-06, , 
DataValue, -1.27, -1.5734000000000003E-06, 1.5734000000000003E-06, , 
DataValue, -1.28, -1.5988000000000003E-06, 1.5988000000000003E-06, , 
DataValue, -1.29, -1.6975000000000003E-06, 1.6975000000000003E-06, , 
DataValue, -1.3, -1.6893E-06, 1.6893E-06, , 
DataValue, -1.31, -1.8192E-06, 1.8192E-06, , 
DataValue, -1.32, -1.8358000000000003E-06, 1.8358000000000003E-06, , 
DataValue, -1.33, -1.7764000000000003E-06, 1.7764000000000003E-06, , 
DataValue, -1.34, -1.8519000000000002E-06, 1.8519000000000002E-06, , 
DataValue, -1.35, -1.8965000000000002E-06, 1.8965000000000002E-06, , 
DataValue, -1.36, -2.0424E-06, 2.0424E-06, , 
DataValue, -1.37, -2.0905E-06, 2.0905E-06, , 
DataValue, -1.3800000000000001, -1.8930000000000001E-06, 1.8930000000000001E-06, , 
DataValue, -1.3900000000000001, -2.1032E-06, 2.1032E-06, , 
DataValue, -1.4000000000000001, -2.1323000000000003E-06, 2.1323000000000003E-06, , 
DataValue, -1.4100000000000001, -2.0185000000000002E-06, 2.0185000000000002E-06, , 
DataValue, -1.4200000000000002, -2.2033E-06, 2.2033E-06, , 
DataValue, -1.4300000000000002, -2.3305000000000004E-06, 2.3305000000000004E-06, , 
DataValue, -1.4400000000000002, -2.4552000000000002E-06, 2.4552000000000002E-06, , 
DataValue, -1.4500000000000002, -2.5001000000000004E-06, 2.5001000000000004E-06, , 
DataValue, -1.46, -2.2935E-06, 2.2935E-06, , 
DataValue, -1.47, -2.4441000000000005E-06, 2.4441000000000005E-06, , 
DataValue, -1.48, -2.4900000000000003E-06, 2.4900000000000003E-06, , 
DataValue, -1.49, -2.5783000000000004E-06, 2.5783000000000004E-06, , 
DataValue, -1.5, -2.7111E-06, 2.7111E-06, , 
DataValue, -1.5, -2.6914E-06, 2.6914E-06, , 
DataValue, -1.49, -2.5924000000000004E-06, 2.5924000000000004E-06, , 
DataValue, -1.48, -2.4312E-06, 2.4312E-06, , 
DataValue, -1.47, -2.2870000000000003E-06, 2.2870000000000003E-06, , 
DataValue, -1.46, -2.3872E-06, 2.3872E-06, , 
DataValue, -1.4500000000000002, -2.3256000000000002E-06, 2.3256000000000002E-06, , 
DataValue, -1.4400000000000002, -2.2482000000000003E-06, 2.2482000000000003E-06, , 
DataValue, -1.4300000000000002, -2.2764000000000003E-06, 2.2764000000000003E-06, , 
DataValue, -1.4200000000000002, -2.1589E-06, 2.1589E-06, , 
DataValue, -1.4100000000000001, -2.2224E-06, 2.2224E-06, , 
DataValue, -1.4000000000000001, -2.1483000000000003E-06, 2.1483000000000003E-06, , 
DataValue, -1.3900000000000001, -2.0546E-06, 2.0546E-06, , 
DataValue, -1.3800000000000001, -2.1168000000000002E-06, 2.1168000000000002E-06, , 
DataValue, -1.37, -1.9578E-06, 1.9578E-06, , 
DataValue, -1.36, -1.9102000000000004E-06, 1.9102000000000004E-06, , 
DataValue, -1.35, -1.8511000000000002E-06, 1.8511000000000002E-06, , 
DataValue, -1.34, -1.8823000000000002E-06, 1.8823000000000002E-06, , 
DataValue, -1.33, -1.5918000000000002E-06, 1.5918000000000002E-06, , 
DataValue, -1.32, -1.8071000000000002E-06, 1.8071000000000002E-06, , 
DataValue, -1.31, -1.7917000000000001E-06, 1.7917000000000001E-06, , 
DataValue, -1.3, -1.7410000000000001E-06, 1.7410000000000001E-06, , 
DataValue, -1.29, -1.7564000000000002E-06, 1.7564000000000002E-06, , 
DataValue, -1.28, -1.6448000000000001E-06, 1.6448000000000001E-06, , 
DataValue, -1.27, -1.7118E-06, 1.7118E-06, , 
DataValue, -1.26, -1.7909E-06, 1.7909E-06, , 
DataValue, -1.25, -1.6816000000000001E-06, 1.6816000000000001E-06, , 
DataValue, -1.24, -1.8896E-06, 1.8896E-06, , 
DataValue, -1.23, -1.6219E-06, 1.6219E-06, , 
DataValue, -1.22, -1.6082000000000001E-06, 1.6082000000000001E-06, , 
DataValue, -1.21, -1.3734E-06, 1.3734E-06, , 
DataValue, -1.2, -1.5112000000000002E-06, 1.5112000000000002E-06, , 
DataValue, -1.19, -1.4446000000000001E-06, 1.4446000000000001E-06, , 
DataValue, -1.1800000000000002, -1.481E-06, 1.481E-06, , 
DataValue, -1.1700000000000002, -1.4650000000000002E-06, 1.4650000000000002E-06, , 
DataValue, -1.1600000000000001, -1.3966E-06, 1.3966E-06, , 
DataValue, -1.1500000000000001, -1.393E-06, 1.393E-06, , 
DataValue, -1.1400000000000001, -1.3153000000000001E-06, 1.3153000000000001E-06, , 
DataValue, -1.1300000000000001, -1.0949E-06, 1.0949E-06, , 
DataValue, -1.12, -1.1001E-06, 1.1001E-06, , 
DataValue, -1.11, -1.1937000000000001E-06, 1.1937000000000001E-06, , 
DataValue, -1.1, -1.0166000000000001E-06, 1.0166000000000001E-06, , 
DataValue, -1.09, -1.0029000000000002E-06, 1.0029000000000002E-06, , 
DataValue, -1.08, -1.0705000000000002E-06, 1.0705000000000002E-06, , 
DataValue, -1.07, -1.0712E-06, 1.0712E-06, , 
DataValue, -1.06, -1.0782000000000001E-06, 1.0782000000000001E-06, , 
DataValue, -1.05, -1.0464E-06, 1.0464E-06, , 
DataValue, -1.04, -1.0225000000000002E-06, 1.0225000000000002E-06, , 
DataValue, -1.03, -1.0343000000000002E-06, 1.0343000000000002E-06, , 
DataValue, -1.02, -9.755E-07, 9.755E-07, , 
DataValue, -1.01, -9.2368E-07, 9.2368E-07, , 
DataValue, -1, -9.8346E-07, 9.8346E-07, , 
DataValue, -0.9900000000000001, -9.5192E-07, 9.5192E-07, , 
DataValue, -0.98000000000000009, -8.8503999999999994E-07, 8.8503999999999994E-07, , 
DataValue, -0.97000000000000008, -9.5067999999999993E-07, 9.5067999999999993E-07, , 
DataValue, -0.96000000000000008, -9.2832E-07, 9.2832E-07, , 
DataValue, -0.95000000000000007, -9.2764E-07, 9.2764E-07, , 
DataValue, -0.94000000000000006, -8.4104E-07, 8.4104E-07, , 
DataValue, -0.93, -9.019E-07, 9.019E-07, , 
DataValue, -0.92, -8.0772E-07, 8.0772E-07, , 
DataValue, -0.91, -8.4328E-07, 8.4328E-07, , 
DataValue, -0.9, -7.7012E-07, 7.7012E-07, , 
DataValue, -0.89, -8.0092E-07, 8.0092E-07, , 
DataValue, -0.88, -7.2873999999999995E-07, 7.2873999999999995E-07, , 
DataValue, -0.87, -7.6024E-07, 7.6024E-07, , 
DataValue, -0.86, -7.415E-07, 7.415E-07, , 
