
SetupTitle, ExtFET - NEG RESET BE-1.5V
PrimitiveTest, I/V Sweep
TestParameter, Context.MainFrame, B1500A
TestParameter, Channel.UnitType, SMU, SMU, SMU
TestParameter, Channel.Unit, SMU2:HR, SMU4:HR, SMU3:HR
TestParameter, Channel.IName, I_TE, I_BE, I_G
TestParameter, Channel.VName, V_TE, V_BE, V_G
TestParameter, Channel.Mode, V, COMMON, V
TestParameter, Channel.Func, VAR1, CONST, CONST
TestParameter, Channel.Index, 
TestParameter, Channel.Time, 
TestParameter, Measurement.Port.Unit, SMU2:HR, SMU4:HR, SMU3:HR
TestParameter, Measurement.Port.SeriesResistor, NONE, NONE, NONE
TestParameter, Measurement.Port.Filter, ON, ON, ON
TestParameter, Measurement.Port.OutputVoltageComparison, 0, 0, 0
TestParameter, Measurement.Primary.Locus, Double
TestParameter, Measurement.Primary.Scale, LINEAR
TestParameter, Measurement.Primary.Start, 0
TestParameter, Measurement.Primary.Stop, -1.5
TestParameter, Measurement.Primary.Step, -0.01
TestParameter, Measurement.Primary.Compliance, 0.01
TestParameter, Measurement.Primary.PowerCompliance, 0
TestParameter, Measurement.Aborting.Condition, CONTINUE AT ANY
TestParameter, Measurement.PostOutput.Value, START
TestParameter, Measurement.PostOutput.Retention, OFF
TestParameter, Measurement.Bias.Source, 0, 0, 2
TestParameter, Measurement.Bias.Compliance, 0.01, 0.1, 0.0001
TestParameter, Measurement.Monitor.Unit, SMU2:HR, SMU4:HR, SMU3:HR
TestParameter, Measurement.Monitor.Adc, HR ADC, HR ADC, HR ADC
TestParameter, Measurement.Monitor.Measurement, Compliance Side, Compliance Side, Compliance Side
TestParameter, Measurement.Monitor.RangingMode, LIMITED, LIMITED, LIMITED
TestParameter, Measurement.Monitor.RangeBoundary, 1nA, 1nA, 1nA
TestParameter, Measurement.Monitor.RangeRating, BY FULL RANGE, BY FULL RANGE, BY FULL RANGE
TestParameter, Measurement.Monitor.RangeRatingCoeff, 50, 50, 50
TestParameter, Measurement.Timing.Hold, 0
TestParameter, Measurement.Timing.Delay, 0
TestParameter, Measurement.Adc.HighSpeed.Mode, AUTO
TestParameter, Measurement.Adc.HighSpeed.Coeff, 1
TestParameter, Measurement.Adc.HighResolution.AutoZero, OFF
TestParameter, Measurement.Adc.HighResolution.Mode, AUTO
TestParameter, Measurement.Adc.HighResolution.Coeff, 6
TestParameter, Measurement.WaitTime.Source.Coeff, 1
TestParameter, Measurement.WaitTime.Source.Offset, 0
TestParameter, Measurement.WaitTime.Monitor.Coeff, 1
TestParameter, Measurement.WaitTime.Monitor.Offset, 0
TestParameter, Function.User.Name, absITE
TestParameter, Function.User.Unit, A
TestParameter, Function.User.Definition, abs(I_TE)
TestParameter, Output.Graph.Enabled, true
TestParameter, Output.Graph.AutoScaling, false
TestParameter, Output.Graph.XAxis.Data, V_TE
TestParameter, Output.Graph.XAxis.Scale, Linear
TestParameter, Output.Graph.XAxis.Left, 0
TestParameter, Output.Graph.XAxis.Right, 10
TestParameter, Output.Graph.XAxis.RunTimeAutoScale, true
TestParameter, Output.Graph.YAxis.Data, absITE
TestParameter, Output.Graph.YAxis.Scale, Log
TestParameter, Output.Graph.YAxis.Bottom, 0
TestParameter, Output.Graph.YAxis.Top, 1
TestParameter, Output.Graph.YAxis.Group, 
TestParameter, Output.Graph.YAxis.RunTimeAutoScale, true
TestParameter, Output.List.Data, V1, I2abs
TestParameter, AutoAnalysis.Interpolation, false
TestParameter, AutoAnalysis.Var2StepCount, 1
TestParameter, AutoAnalysis.Var2StepScript, 
TestParameter, AutoAnalysis.Line1.Enabled, false
TestParameter, AutoAnalysis.Line1.Type, 1
TestParameter, AutoAnalysis.Line1.Fix, True
TestParameter, AutoAnalysis.Line1.YAxis, 0
TestParameter, AutoAnalysis.Line1.Point1.Type, 0
TestParameter, AutoAnalysis.Line1.Point1.XY.X, 
TestParameter, AutoAnalysis.Line1.Point1.XY.Y, 
TestParameter, AutoAnalysis.Line1.Point1.Data.Var, 
TestParameter, AutoAnalysis.Line1.Point1.Data.Condition, 
TestParameter, AutoAnalysis.Line1.Point1.Data.Start, false
TestParameter, AutoAnalysis.Line1.Point1.Data.StartVar, 
TestParameter, AutoAnalysis.Line1.Point1.Data.StartCondition, 
TestParameter, AutoAnalysis.Line1.Point2.Type, 0
TestParameter, AutoAnalysis.Line1.Point2.XY.X, 
TestParameter, AutoAnalysis.Line1.Point2.XY.Y, 
TestParameter, AutoAnalysis.Line1.Point2.Data.Var, 
TestParameter, AutoAnalysis.Line1.Point2.Data.Condition, 
TestParameter, AutoAnalysis.Line1.Point2.Data.Start, false
TestParameter, AutoAnalysis.Line1.Point2.Data.StartVar, 
TestParameter, AutoAnalysis.Line1.Point2.Data.StartCondition, 
TestParameter, AutoAnalysis.Line1.GradientExpr, 0
TestParameter, AutoAnalysis.Line2.Enabled, false
TestParameter, AutoAnalysis.Line2.Type, 1
TestParameter, AutoAnalysis.Line2.Fix, True
TestParameter, AutoAnalysis.Line2.YAxis, 0
TestParameter, AutoAnalysis.Line2.Point1.Type, 0
TestParameter, AutoAnalysis.Line2.Point1.XY.X, 
TestParameter, AutoAnalysis.Line2.Point1.XY.Y, 
TestParameter, AutoAnalysis.Line2.Point1.Data.Var, 
TestParameter, AutoAnalysis.Line2.Point1.Data.Condition, 
TestParameter, AutoAnalysis.Line2.Point1.Data.Start, false
TestParameter, AutoAnalysis.Line2.Point1.Data.StartVar, 
TestParameter, AutoAnalysis.Line2.Point1.Data.StartCondition, 
TestParameter, AutoAnalysis.Line2.Point2.Type, 0
TestParameter, AutoAnalysis.Line2.Point2.XY.X, 
TestParameter, AutoAnalysis.Line2.Point2.XY.Y, 
TestParameter, AutoAnalysis.Line2.Point2.Data.Var, 
TestParameter, AutoAnalysis.Line2.Point2.Data.Condition, 
TestParameter, AutoAnalysis.Line2.Point2.Data.Start, false
TestParameter, AutoAnalysis.Line2.Point2.Data.StartVar, 
TestParameter, AutoAnalysis.Line2.Point2.Data.StartCondition, 
TestParameter, AutoAnalysis.Line2.GradientExpr, 0
TestParameter, AutoAnalysis.Marker.Enabled, false
TestParameter, AutoAnalysis.Marker.Data.Var, 
TestParameter, AutoAnalysis.Marker.Data.Condition, 
TestParameter, AutoAnalysis.Marker.Data.Start, false
TestParameter, AutoAnalysis.Marker.Data.StartVar, 
TestParameter, AutoAnalysis.Marker.Data.StartCondition, 
MetaData, TestRecord.EntryPoint, true
MetaData, TestRecord.RecordTime, 04/15/2020 14:51:06
MetaData, TestRecord.TestTarget, S48_ExtFET_3D-C06_[10k-RES]_[TiN-BE]
MetaData, TestRecord.IterationIndex, 102
MetaData, TestRecord.Preservation, true
MetaData, TestRecord.Flag, 
MetaData, TestRecord.Remarks, 
MetaData, TestRecord.LinkKey, 74d0beab-b118-49f9-b810-2c931fc3752e
MetaData, TestRecord.Parameters, 
Dimension1, 302, 302, 302, 302, 302
Dimension2, 1, 1, 1, 1, 1
DataName, V_TE, I_TE, absITE, V1, I2abs
DataValue, 0, 1.5058E-09, 1.5058E-09, , 
DataValue, -0.01, -5.4288E-07, 5.4288E-07, , 
DataValue, -0.02, -1.08466E-06, 1.08466E-06, , 
DataValue, -0.030000000000000002, -1.6353000000000003E-06, 1.6353000000000003E-06, , 
DataValue, -0.04, -2.1766E-06, 2.1766E-06, , 
DataValue, -0.05, -2.7173000000000002E-06, 2.7173000000000002E-06, , 
DataValue, -0.060000000000000005, -3.2453000000000005E-06, 3.2453000000000005E-06, , 
DataValue, -0.07, -3.8000000000000005E-06, 3.8000000000000005E-06, , 
DataValue, -0.08, -4.3417E-06, 4.3417E-06, , 
DataValue, -0.090000000000000011, -4.8613E-06, 4.8613E-06, , 
DataValue, -0.1, -5.4129E-06, 5.4129E-06, , 
DataValue, -0.11, -5.9479E-06, 5.9479E-06, , 
DataValue, -0.12000000000000001, -6.5088E-06, 6.5088E-06, , 
DataValue, -0.13, -7.0269000000000004E-06, 7.0269000000000004E-06, , 
DataValue, -0.14, -7.5172000000000006E-06, 7.5172000000000006E-06, , 
DataValue, -0.15, -8.0992E-06, 8.0992E-06, , 
DataValue, -0.16, -8.6023E-06, 8.6023E-06, , 
DataValue, -0.17, -9.1489000000000015E-06, 9.1489000000000015E-06, , 
DataValue, -0.18000000000000002, -9.6994E-06, 9.6994E-06, , 
DataValue, -0.19, -1.00502E-05, 1.00502E-05, , 
DataValue, -0.2, -1.0523900000000001E-05, 1.0523900000000001E-05, , 
DataValue, -0.21000000000000002, -1.1256400000000001E-05, 1.1256400000000001E-05, , 
DataValue, -0.22, -1.1658000000000001E-05, 1.1658000000000001E-05, , 
DataValue, -0.23, -1.2242E-05, 1.2242E-05, , 
DataValue, -0.24000000000000002, -1.2668E-05, 1.2668E-05, , 
DataValue, -0.25, -1.3182E-05, 1.3182E-05, , 
DataValue, -0.26, -1.3912E-05, 1.3912E-05, , 
DataValue, -0.27, -1.4224E-05, 1.4224E-05, , 
DataValue, -0.28, -1.4992E-05, 1.4992E-05, , 
DataValue, -0.29000000000000004, -1.537E-05, 1.537E-05, , 
DataValue, -0.3, -1.5794E-05, 1.5794E-05, , 
DataValue, -0.31, -1.6332000000000002E-05, 1.6332000000000002E-05, , 
DataValue, -0.32, -1.685E-05, 1.685E-05, , 
DataValue, -0.33, -1.7408E-05, 1.7408E-05, , 
DataValue, -0.34, -1.7874000000000002E-05, 1.7874000000000002E-05, , 
DataValue, -0.35000000000000003, -1.8348E-05, 1.8348E-05, , 
DataValue, -0.36000000000000004, -1.8946E-05, 1.8946E-05, , 
DataValue, -0.37, -1.9608E-05, 1.9608E-05, , 
DataValue, -0.38, -2.0102E-05, 2.0102E-05, , 
DataValue, -0.39, -1.9776000000000002E-05, 1.9776000000000002E-05, , 
DataValue, -0.4, -2.0034E-05, 2.0034E-05, , 
DataValue, -0.41000000000000003, -2.0748000000000002E-05, 2.0748000000000002E-05, , 
DataValue, -0.42000000000000004, -2.1984E-05, 2.1984E-05, , 
DataValue, -0.43, -2.2564E-05, 2.2564E-05, , 
DataValue, -0.44, -2.3096E-05, 2.3096E-05, , 
DataValue, -0.45, -2.3618E-05, 2.3618E-05, , 
DataValue, -0.46, -2.4118000000000002E-05, 2.4118000000000002E-05, , 
DataValue, -0.47000000000000003, -2.4246E-05, 2.4246E-05, , 
DataValue, -0.48000000000000004, -2.4668E-05, 2.4668E-05, , 
DataValue, -0.49000000000000005, -2.4068E-05, 2.4068E-05, , 
DataValue, -0.5, -2.4806E-05, 2.4806E-05, , 
DataValue, -0.51, -2.5228E-05, 2.5228E-05, , 
DataValue, -0.52, -2.5898000000000002E-05, 2.5898000000000002E-05, , 
DataValue, -0.53, -2.631E-05, 2.631E-05, , 
DataValue, -0.54, -2.7340000000000003E-05, 2.7340000000000003E-05, , 
DataValue, -0.55, -2.6116000000000002E-05, 2.6116000000000002E-05, , 
DataValue, -0.56, -2.612E-05, 2.612E-05, , 
DataValue, -0.57000000000000006, -2.6602E-05, 2.6602E-05, , 
DataValue, -0.58000000000000007, -2.5814E-05, 2.5814E-05, , 
DataValue, -0.59000000000000008, -2.6448E-05, 2.6448E-05, , 
DataValue, -0.6, -2.6958000000000002E-05, 2.6958000000000002E-05, , 
DataValue, -0.61, -2.6660000000000002E-05, 2.6660000000000002E-05, , 
DataValue, -0.62, -2.5622E-05, 2.5622E-05, , 
DataValue, -0.63, -2.5088E-05, 2.5088E-05, , 
DataValue, -0.64, -2.5134E-05, 2.5134E-05, , 
DataValue, -0.65, -2.4452000000000002E-05, 2.4452000000000002E-05, , 
DataValue, -0.66, -2.4710000000000002E-05, 2.4710000000000002E-05, , 
DataValue, -0.67, -2.0318E-05, 2.0318E-05, , 
DataValue, -0.68, -2.2048E-05, 2.2048E-05, , 
DataValue, -0.69000000000000006, -2.4802E-05, 2.4802E-05, , 
DataValue, -0.70000000000000007, -2.2414E-05, 2.2414E-05, , 
DataValue, -0.71000000000000008, -2.1806E-05, 2.1806E-05, , 
DataValue, -0.72000000000000008, -2.168E-05, 2.168E-05, , 
DataValue, -0.73, -2.2256000000000002E-05, 2.2256000000000002E-05, , 
DataValue, -0.74, -2.2532E-05, 2.2532E-05, , 
DataValue, -0.75, -2.139E-05, 2.139E-05, , 
DataValue, -0.76, -2.1572E-05, 2.1572E-05, , 
DataValue, -0.77, -2.0152E-05, 2.0152E-05, , 
DataValue, -0.78, -2.0828E-05, 2.0828E-05, , 
DataValue, -0.79, -1.7914E-05, 1.7914E-05, , 
DataValue, -0.8, -2.1254E-05, 2.1254E-05, , 
DataValue, -0.81, -1.1266E-05, 1.1266E-05, , 
DataValue, -0.82000000000000006, -1.5744E-05, 1.5744E-05, , 
DataValue, -0.83000000000000007, -1.6326E-05, 1.6326E-05, , 
DataValue, -0.84000000000000008, -1.5098E-05, 1.5098E-05, , 
DataValue, -0.85000000000000009, -1.683E-05, 1.683E-05, , 
DataValue, -0.86, -1.6206E-05, 1.6206E-05, , 
DataValue, -0.87, -1.5348E-05, 1.5348E-05, , 
DataValue, -0.88, -1.4408E-05, 1.4408E-05, , 
DataValue, -0.89, -1.4078E-05, 1.4078E-05, , 
DataValue, -0.9, -1.1018E-05, 1.1018E-05, , 
DataValue, -0.91, -1.0948000000000001E-05, 1.0948000000000001E-05, , 
DataValue, -0.92, -9.69E-06, 9.69E-06, , 
DataValue, -0.93, -1.1706000000000001E-05, 1.1706000000000001E-05, , 
DataValue, -0.94000000000000006, -1.0860000000000001E-05, 1.0860000000000001E-05, , 
DataValue, -0.95000000000000007, -9.704E-06, 9.704E-06, , 
DataValue, -0.96000000000000008, -1.0366E-05, 1.0366E-05, , 
DataValue, -0.97000000000000008, -1.4786E-05, 1.4786E-05, , 
DataValue, -0.98000000000000009, -1.079E-05, 1.079E-05, , 
DataValue, -0.9900000000000001, -9.828E-06, 9.828E-06, , 
DataValue, -1, -1.2298E-05, 1.2298E-05, , 
DataValue, -1.01, -1.3340000000000001E-05, 1.3340000000000001E-05, , 
DataValue, -1.02, -1.0892E-05, 1.0892E-05, , 
DataValue, -1.03, -1.0866E-05, 1.0866E-05, , 
DataValue, -1.04, -1.1452E-05, 1.1452E-05, , 
DataValue, -1.05, -1.178E-05, 1.178E-05, , 
DataValue, -1.06, -1.3438E-05, 1.3438E-05, , 
DataValue, -1.07, -1.6302E-05, 1.6302E-05, , 
DataValue, -1.08, -1.408E-05, 1.408E-05, , 
DataValue, -1.09, -1.4720000000000001E-05, 1.4720000000000001E-05, , 
DataValue, -1.1, -1.231E-05, 1.231E-05, , 
DataValue, -1.11, -1.4046E-05, 1.4046E-05, , 
DataValue, -1.12, -1.2122E-05, 1.2122E-05, , 
DataValue, -1.1300000000000001, -1.4326E-05, 1.4326E-05, , 
DataValue, -1.1400000000000001, -1.242E-05, 1.242E-05, , 
DataValue, -1.1500000000000001, -1.2404E-05, 1.2404E-05, , 
DataValue, -1.1600000000000001, -1.0074E-05, 1.0074E-05, , 
DataValue, -1.1700000000000002, -1.232E-05, 1.232E-05, , 
DataValue, -1.1800000000000002, -1.145E-05, 1.145E-05, , 
DataValue, -1.19, -1.4628000000000001E-05, 1.4628000000000001E-05, , 
DataValue, -1.2, -1.2274E-05, 1.2274E-05, , 
DataValue, -1.21, -1.1092E-05, 1.1092E-05, , 
DataValue, -1.22, -1.838E-06, 1.838E-06, , 
DataValue, -1.23, -1.9094000000000003E-06, 1.9094000000000003E-06, , 
DataValue, -1.24, -2.0082E-06, 2.0082E-06, , 
DataValue, -1.25, -1.9840000000000004E-06, 1.9840000000000004E-06, , 
DataValue, -1.26, -1.9736E-06, 1.9736E-06, , 
DataValue, -1.27, -1.9673E-06, 1.9673E-06, , 
DataValue, -1.28, -2.156E-06, 2.156E-06, , 
DataValue, -1.29, -2.0219E-06, 2.0219E-06, , 
DataValue, -1.3, -1.8009000000000002E-06, 1.8009000000000002E-06, , 
DataValue, -1.31, -1.9362E-06, 1.9362E-06, , 
DataValue, -1.32, -1.5978000000000002E-06, 1.5978000000000002E-06, , 
DataValue, -1.33, -1.5594E-06, 1.5594E-06, , 
DataValue, -1.34, -1.6976000000000003E-06, 1.6976000000000003E-06, , 
DataValue, -1.35, -1.8460000000000002E-06, 1.8460000000000002E-06, , 
DataValue, -1.36, -1.9877E-06, 1.9877E-06, , 
DataValue, -1.37, -1.7249000000000002E-06, 1.7249000000000002E-06, , 
DataValue, -1.3800000000000001, -1.7494000000000001E-06, 1.7494000000000001E-06, , 
DataValue, -1.3900000000000001, -1.7884E-06, 1.7884E-06, , 
DataValue, -1.4000000000000001, -1.935E-06, 1.935E-06, , 
DataValue, -1.4100000000000001, -1.8417E-06, 1.8417E-06, , 
DataValue, -1.4200000000000002, -1.6359E-06, 1.6359E-06, , 
DataValue, -1.4300000000000002, -2.0288000000000004E-06, 2.0288000000000004E-06, , 
DataValue, -1.4400000000000002, -2.0803000000000002E-06, 2.0803000000000002E-06, , 
DataValue, -1.4500000000000002, -2.1793E-06, 2.1793E-06, , 
DataValue, -1.46, -2.1241E-06, 2.1241E-06, , 
DataValue, -1.47, -2.2579000000000004E-06, 2.2579000000000004E-06, , 
DataValue, -1.48, -2.4707000000000003E-06, 2.4707000000000003E-06, , 
DataValue, -1.49, -1.7642000000000002E-06, 1.7642000000000002E-06, , 
DataValue, -1.5, -2.1638000000000004E-06, 2.1638000000000004E-06, , 
DataValue, -1.5, -1.8460000000000002E-06, 1.8460000000000002E-06, , 
DataValue, -1.49, -1.9229000000000003E-06, 1.9229000000000003E-06, , 
DataValue, -1.48, -1.6449000000000001E-06, 1.6449000000000001E-06, , 
DataValue, -1.47, -2.1216E-06, 2.1216E-06, , 
DataValue, -1.46, -2.0630000000000004E-06, 2.0630000000000004E-06, , 
DataValue, -1.4500000000000002, -1.8873000000000001E-06, 1.8873000000000001E-06, , 
DataValue, -1.4400000000000002, -2.0989000000000004E-06, 2.0989000000000004E-06, , 
DataValue, -1.4300000000000002, -2.0166000000000003E-06, 2.0166000000000003E-06, , 
DataValue, -1.4200000000000002, -2.1234000000000003E-06, 2.1234000000000003E-06, , 
DataValue, -1.4100000000000001, -2.1018000000000004E-06, 2.1018000000000004E-06, , 
DataValue, -1.4000000000000001, -1.9677000000000002E-06, 1.9677000000000002E-06, , 
DataValue, -1.3900000000000001, -1.8953E-06, 1.8953E-06, , 
DataValue, -1.3800000000000001, -1.8497000000000003E-06, 1.8497000000000003E-06, , 
DataValue, -1.37, -1.7904000000000003E-06, 1.7904000000000003E-06, , 
DataValue, -1.36, -1.7908000000000003E-06, 1.7908000000000003E-06, , 
DataValue, -1.35, -1.7380000000000001E-06, 1.7380000000000001E-06, , 
DataValue, -1.34, -1.6836E-06, 1.6836E-06, , 
DataValue, -1.33, -1.6853000000000002E-06, 1.6853000000000002E-06, , 
DataValue, -1.32, -1.6263000000000002E-06, 1.6263000000000002E-06, , 
DataValue, -1.31, -1.4665E-06, 1.4665E-06, , 
DataValue, -1.3, -1.4000000000000002E-06, 1.4000000000000002E-06, , 
DataValue, -1.29, -1.3214000000000002E-06, 1.3214000000000002E-06, , 
DataValue, -1.28, -1.3052000000000002E-06, 1.3052000000000002E-06, , 
DataValue, -1.27, -1.2813000000000001E-06, 1.2813000000000001E-06, , 
DataValue, -1.26, -1.2817000000000002E-06, 1.2817000000000002E-06, , 
DataValue, -1.25, -1.2547E-06, 1.2547E-06, , 
DataValue, -1.24, -1.2264E-06, 1.2264E-06, , 
DataValue, -1.23, -1.1869E-06, 1.1869E-06, , 
DataValue, -1.22, -1.1138E-06, 1.1138E-06, , 
DataValue, -1.21, -1.0666E-06, 1.0666E-06, , 
DataValue, -1.2, -1.0578E-06, 1.0578E-06, , 
DataValue, -1.19, -1.0427000000000002E-06, 1.0427000000000002E-06, , 
DataValue, -1.1800000000000002, -9.838E-07, 9.838E-07, , 
DataValue, -1.1700000000000002, -9.763E-07, 9.763E-07, , 
DataValue, -1.1600000000000001, -9.244E-07, 9.244E-07, , 
DataValue, -1.1500000000000001, -8.846E-07, 8.846E-07, , 
DataValue, -1.1400000000000001, -9.3212E-07, 9.3212E-07, , 
DataValue, -1.1300000000000001, -8.6316E-07, 8.6316E-07, , 
DataValue, -1.12, -8.8146E-07, 8.8146E-07, , 
DataValue, -1.11, -8.5312E-07, 8.5312E-07, , 
DataValue, -1.1, -8.1956E-07, 8.1956E-07, , 
DataValue, -1.09, -7.6782E-07, 7.6782E-07, , 
DataValue, -1.08, -7.756E-07, 7.756E-07, , 
DataValue, -1.07, -7.3293999999999994E-07, 7.3293999999999994E-07, , 
DataValue, -1.06, -7.4202E-07, 7.4202E-07, , 
DataValue, -1.05, -6.9404E-07, 6.9404E-07, , 
DataValue, -1.04, -6.976E-07, 6.976E-07, , 
DataValue, -1.03, -6.6016E-07, 6.6016E-07, , 
DataValue, -1.02, -6.5588E-07, 6.5588E-07, , 
DataValue, -1.01, -6.4056E-07, 6.4056E-07, , 
DataValue, -1, -6.4052E-07, 6.4052E-07, , 
DataValue, -0.9900000000000001, -6.1708E-07, 6.1708E-07, , 
DataValue, -0.98000000000000009, -5.936E-07, 5.936E-07, , 
DataValue, -0.97000000000000008, -6.0248E-07, 6.0248E-07, , 
DataValue, -0.96000000000000008, -5.3418E-07, 5.3418E-07, , 
DataValue, -0.95000000000000007, -5.6592E-07, 5.6592E-07, , 
DataValue, -0.94000000000000006, -5.3864E-07, 5.3864E-07, , 
DataValue, -0.93, -5.2776E-07, 5.2776E-07, , 
DataValue, -0.92, -5.2448E-07, 5.2448E-07, , 
DataValue, -0.91, -4.8598E-07, 4.8598E-07, , 
DataValue, -0.9, -4.9216E-07, 4.9216E-07, , 
DataValue, -0.89, -4.6106E-07, 4.6106E-07, , 
DataValue, -0.88, -4.5636E-07, 4.5636E-07, , 
DataValue, -0.87, -4.6356E-07, 4.6356E-07, , 
DataValue, -0.86, -3.9856E-07, 3.9856E-07, , 
DataValue, -0.85000000000000009, -4.36E-07, 4.36E-07, , 
DataValue, -0.84000000000000008, -3.833E-07, 3.833E-07, , 
DataValue, -0.83000000000000007, -4.0472E-07, 4.0472E-07, , 
DataValue, -0.82000000000000006, -4.3444E-07, 4.3444E-07, , 
DataValue, -0.81, -4.0126E-07, 4.0126E-07, , 
DataValue, -0.8, -3.9601999999999997E-07, 3.9601999999999997E-07, , 
DataValue, -0.79, -4.023E-07, 4.023E-07, , 
DataValue, -0.78, -3.8484E-07, 3.8484E-07, , 
DataValue, -0.77, -3.6204E-07, 3.6204E-07, , 
DataValue, -0.76, -3.6032E-07, 3.6032E-07, , 
DataValue, -0.75, -3.4622E-07, 3.4622E-07, , 
DataValue, -0.74, -3.664E-07, 3.664E-07, , 
DataValue, -0.73, -3.566E-07, 3.566E-07, , 
DataValue, -0.72000000000000008, -3.2092E-07, 3.2092E-07, , 
DataValue, -0.71000000000000008, -3.1568E-07, 3.1568E-07, , 
DataValue, -0.70000000000000007, -3.193E-07, 3.193E-07, , 
DataValue, -0.69000000000000006, -3.1606E-07, 3.1606E-07, , 
