
SetupTitle, ExtFET - NEG RESET BE-1.5V
PrimitiveTest, I/V Sweep
TestParameter, Context.MainFrame, B1500A
TestParameter, Channel.UnitType, SMU, SMU, SMU
TestParameter, Channel.Unit, SMU2:HR, SMU4:HR, SMU3:HR
TestParameter, Channel.IName, I_TE, I_BE, I_G
TestParameter, Channel.VName, V_TE, V_BE, V_G
TestParameter, Channel.Mode, V, COMMON, V
TestParameter, Channel.Func, VAR1, CONST, CONST
TestParameter, Channel.Index, 
TestParameter, Channel.Time, 
TestParameter, Measurement.Port.Unit, SMU2:HR, SMU4:HR, SMU3:HR
TestParameter, Measurement.Port.SeriesResistor, NONE, NONE, NONE
TestParameter, Measurement.Port.Filter, ON, ON, ON
TestParameter, Measurement.Port.OutputVoltageComparison, 0, 0, 0
TestParameter, Measurement.Primary.Locus, Double
TestParameter, Measurement.Primary.Scale, LINEAR
TestParameter, Measurement.Primary.Start, 0
TestParameter, Measurement.Primary.Stop, -1.5
TestParameter, Measurement.Primary.Step, -0.01
TestParameter, Measurement.Primary.Compliance, 0.01
TestParameter, Measurement.Primary.PowerCompliance, 0
TestParameter, Measurement.Aborting.Condition, CONTINUE AT ANY
TestParameter, Measurement.PostOutput.Value, START
TestParameter, Measurement.PostOutput.Retention, OFF
TestParameter, Measurement.Bias.Source, 0, 0, 2
TestParameter, Measurement.Bias.Compliance, 0.01, 0.1, 0.0001
TestParameter, Measurement.Monitor.Unit, SMU2:HR, SMU4:HR, SMU3:HR
TestParameter, Measurement.Monitor.Adc, HR ADC, HR ADC, HR ADC
TestParameter, Measurement.Monitor.Measurement, Compliance Side, Compliance Side, Compliance Side
TestParameter, Measurement.Monitor.RangingMode, LIMITED, LIMITED, LIMITED
TestParameter, Measurement.Monitor.RangeBoundary, 1nA, 1nA, 1nA
TestParameter, Measurement.Monitor.RangeRating, BY FULL RANGE, BY FULL RANGE, BY FULL RANGE
TestParameter, Measurement.Monitor.RangeRatingCoeff, 50, 50, 50
TestParameter, Measurement.Timing.Hold, 0
TestParameter, Measurement.Timing.Delay, 0
TestParameter, Measurement.Adc.HighSpeed.Mode, AUTO
TestParameter, Measurement.Adc.HighSpeed.Coeff, 1
TestParameter, Measurement.Adc.HighResolution.AutoZero, OFF
TestParameter, Measurement.Adc.HighResolution.Mode, AUTO
TestParameter, Measurement.Adc.HighResolution.Coeff, 6
TestParameter, Measurement.WaitTime.Source.Coeff, 1
TestParameter, Measurement.WaitTime.Source.Offset, 0
TestParameter, Measurement.WaitTime.Monitor.Coeff, 1
TestParameter, Measurement.WaitTime.Monitor.Offset, 0
TestParameter, Function.User.Name, absITE
TestParameter, Function.User.Unit, A
TestParameter, Function.User.Definition, abs(I_TE)
TestParameter, Output.Graph.Enabled, true
TestParameter, Output.Graph.AutoScaling, false
TestParameter, Output.Graph.XAxis.Data, V_TE
TestParameter, Output.Graph.XAxis.Scale, Linear
TestParameter, Output.Graph.XAxis.Left, 0
TestParameter, Output.Graph.XAxis.Right, 10
TestParameter, Output.Graph.XAxis.RunTimeAutoScale, true
TestParameter, Output.Graph.YAxis.Data, absITE
TestParameter, Output.Graph.YAxis.Scale, Log
TestParameter, Output.Graph.YAxis.Bottom, 0
TestParameter, Output.Graph.YAxis.Top, 1
TestParameter, Output.Graph.YAxis.Group, 
TestParameter, Output.Graph.YAxis.RunTimeAutoScale, true
TestParameter, Output.List.Data, V1, I2abs
TestParameter, AutoAnalysis.Interpolation, false
TestParameter, AutoAnalysis.Var2StepCount, 1
TestParameter, AutoAnalysis.Var2StepScript, 
TestParameter, AutoAnalysis.Line1.Enabled, false
TestParameter, AutoAnalysis.Line1.Type, 1
TestParameter, AutoAnalysis.Line1.Fix, True
TestParameter, AutoAnalysis.Line1.YAxis, 0
TestParameter, AutoAnalysis.Line1.Point1.Type, 0
TestParameter, AutoAnalysis.Line1.Point1.XY.X, 
TestParameter, AutoAnalysis.Line1.Point1.XY.Y, 
TestParameter, AutoAnalysis.Line1.Point1.Data.Var, 
TestParameter, AutoAnalysis.Line1.Point1.Data.Condition, 
TestParameter, AutoAnalysis.Line1.Point1.Data.Start, false
TestParameter, AutoAnalysis.Line1.Point1.Data.StartVar, 
TestParameter, AutoAnalysis.Line1.Point1.Data.StartCondition, 
TestParameter, AutoAnalysis.Line1.Point2.Type, 0
TestParameter, AutoAnalysis.Line1.Point2.XY.X, 
TestParameter, AutoAnalysis.Line1.Point2.XY.Y, 
TestParameter, AutoAnalysis.Line1.Point2.Data.Var, 
TestParameter, AutoAnalysis.Line1.Point2.Data.Condition, 
TestParameter, AutoAnalysis.Line1.Point2.Data.Start, false
TestParameter, AutoAnalysis.Line1.Point2.Data.StartVar, 
TestParameter, AutoAnalysis.Line1.Point2.Data.StartCondition, 
TestParameter, AutoAnalysis.Line1.GradientExpr, 0
TestParameter, AutoAnalysis.Line2.Enabled, false
TestParameter, AutoAnalysis.Line2.Type, 1
TestParameter, AutoAnalysis.Line2.Fix, True
TestParameter, AutoAnalysis.Line2.YAxis, 0
TestParameter, AutoAnalysis.Line2.Point1.Type, 0
TestParameter, AutoAnalysis.Line2.Point1.XY.X, 
TestParameter, AutoAnalysis.Line2.Point1.XY.Y, 
TestParameter, AutoAnalysis.Line2.Point1.Data.Var, 
TestParameter, AutoAnalysis.Line2.Point1.Data.Condition, 
TestParameter, AutoAnalysis.Line2.Point1.Data.Start, false
TestParameter, AutoAnalysis.Line2.Point1.Data.StartVar, 
TestParameter, AutoAnalysis.Line2.Point1.Data.StartCondition, 
TestParameter, AutoAnalysis.Line2.Point2.Type, 0
TestParameter, AutoAnalysis.Line2.Point2.XY.X, 
TestParameter, AutoAnalysis.Line2.Point2.XY.Y, 
TestParameter, AutoAnalysis.Line2.Point2.Data.Var, 
TestParameter, AutoAnalysis.Line2.Point2.Data.Condition, 
TestParameter, AutoAnalysis.Line2.Point2.Data.Start, false
TestParameter, AutoAnalysis.Line2.Point2.Data.StartVar, 
TestParameter, AutoAnalysis.Line2.Point2.Data.StartCondition, 
TestParameter, AutoAnalysis.Line2.GradientExpr, 0
TestParameter, AutoAnalysis.Marker.Enabled, false
TestParameter, AutoAnalysis.Marker.Data.Var, 
TestParameter, AutoAnalysis.Marker.Data.Condition, 
TestParameter, AutoAnalysis.Marker.Data.Start, false
TestParameter, AutoAnalysis.Marker.Data.StartVar, 
TestParameter, AutoAnalysis.Marker.Data.StartCondition, 
MetaData, TestRecord.EntryPoint, true
MetaData, TestRecord.RecordTime, 04/15/2020 14:51:20
MetaData, TestRecord.TestTarget, S48_ExtFET_3D-C06_[10k-RES]_[TiN-BE]
MetaData, TestRecord.IterationIndex, 104
MetaData, TestRecord.Preservation, true
MetaData, TestRecord.Flag, 
MetaData, TestRecord.Remarks, 
MetaData, TestRecord.LinkKey, f061f5a7-00ad-48a0-a235-aa9f451fe3db
MetaData, TestRecord.Parameters, 
Dimension1, 302, 302, 302, 302, 302
Dimension2, 1, 1, 1, 1, 1
DataName, V_TE, I_TE, absITE, V1, I2abs
DataValue, 0, 1.7559E-09, 1.7559E-09, , 
DataValue, -0.01, -5.5586E-07, 5.5586E-07, , 
DataValue, -0.02, -1.10942E-06, 1.10942E-06, , 
DataValue, -0.030000000000000002, -1.6676000000000001E-06, 1.6676000000000001E-06, , 
DataValue, -0.04, -2.2234E-06, 2.2234E-06, , 
DataValue, -0.05, -2.7756E-06, 2.7756E-06, , 
DataValue, -0.060000000000000005, -3.3200000000000004E-06, 3.3200000000000004E-06, , 
DataValue, -0.07, -3.8721000000000006E-06, 3.8721000000000006E-06, , 
DataValue, -0.08, -4.4162E-06, 4.4162E-06, , 
DataValue, -0.090000000000000011, -4.9417000000000005E-06, 4.9417000000000005E-06, , 
DataValue, -0.1, -5.5161000000000004E-06, 5.5161000000000004E-06, , 
DataValue, -0.11, -6.0541E-06, 6.0541E-06, , 
DataValue, -0.12000000000000001, -6.6042000000000011E-06, 6.6042000000000011E-06, , 
DataValue, -0.13, -7.1580000000000008E-06, 7.1580000000000008E-06, , 
DataValue, -0.14, -7.6633E-06, 7.6633E-06, , 
DataValue, -0.15, -8.2407E-06, 8.2407E-06, , 
DataValue, -0.16, -8.7321E-06, 8.7321E-06, , 
DataValue, -0.17, -9.3144E-06, 9.3144E-06, , 
DataValue, -0.18000000000000002, -9.8689000000000013E-06, 9.8689000000000013E-06, , 
DataValue, -0.19, -1.03214E-05, 1.03214E-05, , 
DataValue, -0.2, -1.09046E-05, 1.09046E-05, , 
DataValue, -0.21000000000000002, -1.14283E-05, 1.14283E-05, , 
DataValue, -0.22, -1.1902E-05, 1.1902E-05, , 
DataValue, -0.23, -1.241E-05, 1.241E-05, , 
DataValue, -0.24000000000000002, -1.301E-05, 1.301E-05, , 
DataValue, -0.25, -1.3520000000000001E-05, 1.3520000000000001E-05, , 
DataValue, -0.26, -1.4034E-05, 1.4034E-05, , 
DataValue, -0.27, -1.4654E-05, 1.4654E-05, , 
DataValue, -0.28, -1.4796E-05, 1.4796E-05, , 
DataValue, -0.29000000000000004, -1.544E-05, 1.544E-05, , 
DataValue, -0.3, -1.595E-05, 1.595E-05, , 
DataValue, -0.31, -1.6408E-05, 1.6408E-05, , 
DataValue, -0.32, -1.6872E-05, 1.6872E-05, , 
DataValue, -0.33, -1.7364000000000002E-05, 1.7364000000000002E-05, , 
DataValue, -0.34, -1.7480000000000002E-05, 1.7480000000000002E-05, , 
DataValue, -0.35000000000000003, -1.7944E-05, 1.7944E-05, , 
DataValue, -0.36000000000000004, -1.8636E-05, 1.8636E-05, , 
DataValue, -0.37, -1.8856E-05, 1.8856E-05, , 
DataValue, -0.38, -1.8894E-05, 1.8894E-05, , 
DataValue, -0.39, -2.008E-05, 2.008E-05, , 
DataValue, -0.4, -2.082E-05, 2.082E-05, , 
DataValue, -0.41000000000000003, -2.075E-05, 2.075E-05, , 
DataValue, -0.42000000000000004, -2.1788000000000002E-05, 2.1788000000000002E-05, , 
DataValue, -0.43, -2.18E-05, 2.18E-05, , 
DataValue, -0.44, -2.2844E-05, 2.2844E-05, , 
DataValue, -0.45, -2.3462E-05, 2.3462E-05, , 
DataValue, -0.46, -2.4102E-05, 2.4102E-05, , 
DataValue, -0.47000000000000003, -2.5022000000000002E-05, 2.5022000000000002E-05, , 
DataValue, -0.48000000000000004, -2.4524E-05, 2.4524E-05, , 
DataValue, -0.49000000000000005, -2.4240000000000002E-05, 2.4240000000000002E-05, , 
DataValue, -0.5, -2.5114E-05, 2.5114E-05, , 
DataValue, -0.51, -2.6076000000000002E-05, 2.6076000000000002E-05, , 
DataValue, -0.52, -2.6384E-05, 2.6384E-05, , 
DataValue, -0.53, -2.6724E-05, 2.6724E-05, , 
DataValue, -0.54, -2.6988E-05, 2.6988E-05, , 
DataValue, -0.55, -2.756E-05, 2.756E-05, , 
DataValue, -0.56, -2.7972000000000003E-05, 2.7972000000000003E-05, , 
DataValue, -0.57000000000000006, -2.9026E-05, 2.9026E-05, , 
DataValue, -0.58000000000000007, -2.917E-05, 2.917E-05, , 
DataValue, -0.59000000000000008, -2.9244E-05, 2.9244E-05, , 
DataValue, -0.6, -2.9286E-05, 2.9286E-05, , 
DataValue, -0.61, -2.8322E-05, 2.8322E-05, , 
DataValue, -0.62, -2.8996E-05, 2.8996E-05, , 
DataValue, -0.63, -3.0116E-05, 3.0116E-05, , 
DataValue, -0.64, -2.9128E-05, 2.9128E-05, , 
DataValue, -0.65, -2.7344E-05, 2.7344E-05, , 
DataValue, -0.66, -3.1612E-05, 3.1612E-05, , 
DataValue, -0.67, -2.7986E-05, 2.7986E-05, , 
DataValue, -0.68, -2.5652E-05, 2.5652E-05, , 
DataValue, -0.69000000000000006, -2.5162E-05, 2.5162E-05, , 
DataValue, -0.70000000000000007, -2.4808E-05, 2.4808E-05, , 
DataValue, -0.71000000000000008, -2.6774E-05, 2.6774E-05, , 
DataValue, -0.72000000000000008, -2.8676E-05, 2.8676E-05, , 
DataValue, -0.73, -2.8772E-05, 2.8772E-05, , 
DataValue, -0.74, -2.5314000000000002E-05, 2.5314000000000002E-05, , 
DataValue, -0.75, -2.1214E-05, 2.1214E-05, , 
DataValue, -0.76, -2.4052E-05, 2.4052E-05, , 
DataValue, -0.77, -2.0546E-05, 2.0546E-05, , 
DataValue, -0.78, -2.0062000000000002E-05, 2.0062000000000002E-05, , 
DataValue, -0.79, -1.6786E-05, 1.6786E-05, , 
DataValue, -0.8, -2.0744E-05, 2.0744E-05, , 
DataValue, -0.81, -1.8764000000000002E-05, 1.8764000000000002E-05, , 
DataValue, -0.82000000000000006, -1.9750000000000002E-05, 1.9750000000000002E-05, , 
DataValue, -0.83000000000000007, -1.9874E-05, 1.9874E-05, , 
DataValue, -0.84000000000000008, -2.0048000000000002E-05, 2.0048000000000002E-05, , 
DataValue, -0.85000000000000009, -1.78E-05, 1.78E-05, , 
DataValue, -0.86, -1.7544E-05, 1.7544E-05, , 
DataValue, -0.87, -1.6244E-05, 1.6244E-05, , 
DataValue, -0.88, -1.4794000000000001E-05, 1.4794000000000001E-05, , 
DataValue, -0.89, -9.7427E-06, 9.7427E-06, , 
DataValue, -0.9, -9.8079000000000014E-06, 9.8079000000000014E-06, , 
DataValue, -0.91, -1.0509500000000002E-05, 1.0509500000000002E-05, , 
DataValue, -0.92, -1.0412100000000002E-05, 1.0412100000000002E-05, , 
DataValue, -0.93, -1.4762E-05, 1.4762E-05, , 
DataValue, -0.94000000000000006, -1.6424E-05, 1.6424E-05, , 
DataValue, -0.95000000000000007, -1.2724E-05, 1.2724E-05, , 
DataValue, -0.96000000000000008, -1.0316E-05, 1.0316E-05, , 
DataValue, -0.97000000000000008, -4.5400000000000006E-06, 4.5400000000000006E-06, , 
DataValue, -0.98000000000000009, -1.0332E-05, 1.0332E-05, , 
DataValue, -0.9900000000000001, -1.0151900000000002E-05, 1.0151900000000002E-05, , 
DataValue, -1, -8.8146E-06, 8.8146E-06, , 
DataValue, -1.01, -8.9002000000000016E-06, 8.9002000000000016E-06, , 
DataValue, -1.02, -1.0324900000000002E-05, 1.0324900000000002E-05, , 
DataValue, -1.03, -8.6858E-06, 8.6858E-06, , 
DataValue, -1.04, -2.7568000000000004E-06, 2.7568000000000004E-06, , 
DataValue, -1.05, -5.3156E-06, 5.3156E-06, , 
DataValue, -1.06, -6.4895E-06, 6.4895E-06, , 
DataValue, -1.07, -1.2611E-06, 1.2611E-06, , 
DataValue, -1.08, -1.3805000000000002E-06, 1.3805000000000002E-06, , 
DataValue, -1.09, -1.1883000000000001E-06, 1.1883000000000001E-06, , 
DataValue, -1.1, -1.2912000000000002E-06, 1.2912000000000002E-06, , 
DataValue, -1.11, -1.3180000000000001E-06, 1.3180000000000001E-06, , 
DataValue, -1.12, -1.9507000000000002E-06, 1.9507000000000002E-06, , 
DataValue, -1.1300000000000001, -1.5602000000000001E-06, 1.5602000000000001E-06, , 
DataValue, -1.1400000000000001, -1.6461000000000002E-06, 1.6461000000000002E-06, , 
DataValue, -1.1500000000000001, -1.7407000000000001E-06, 1.7407000000000001E-06, , 
DataValue, -1.1600000000000001, -1.7972000000000001E-06, 1.7972000000000001E-06, , 
DataValue, -1.1700000000000002, -2.3832000000000003E-06, 2.3832000000000003E-06, , 
DataValue, -1.1800000000000002, -1.6398000000000002E-06, 1.6398000000000002E-06, , 
DataValue, -1.19, -1.8691000000000002E-06, 1.8691000000000002E-06, , 
DataValue, -1.2, -1.9752E-06, 1.9752E-06, , 
DataValue, -1.21, -2.0127000000000002E-06, 2.0127000000000002E-06, , 
DataValue, -1.22, -2.0127000000000002E-06, 2.0127000000000002E-06, , 
DataValue, -1.23, -2.2105000000000003E-06, 2.2105000000000003E-06, , 
DataValue, -1.24, -2.6234E-06, 2.6234E-06, , 
DataValue, -1.25, -2.4682000000000004E-06, 2.4682000000000004E-06, , 
DataValue, -1.26, -2.5129E-06, 2.5129E-06, , 
DataValue, -1.27, -2.0432E-06, 2.0432E-06, , 
DataValue, -1.28, -1.6043000000000003E-06, 1.6043000000000003E-06, , 
DataValue, -1.29, -1.3754000000000002E-06, 1.3754000000000002E-06, , 
DataValue, -1.3, -1.3623E-06, 1.3623E-06, , 
DataValue, -1.31, -1.4959000000000002E-06, 1.4959000000000002E-06, , 
DataValue, -1.32, -1.5898000000000002E-06, 1.5898000000000002E-06, , 
DataValue, -1.33, -1.6588000000000001E-06, 1.6588000000000001E-06, , 
DataValue, -1.34, -1.5796E-06, 1.5796E-06, , 
DataValue, -1.35, -1.9058000000000002E-06, 1.9058000000000002E-06, , 
DataValue, -1.36, -2.6285000000000003E-06, 2.6285000000000003E-06, , 
DataValue, -1.37, -2.4316E-06, 2.4316E-06, , 
DataValue, -1.3800000000000001, -2.6206000000000004E-06, 2.6206000000000004E-06, , 
DataValue, -1.3900000000000001, -2.6564E-06, 2.6564E-06, , 
DataValue, -1.4000000000000001, -2.6073000000000004E-06, 2.6073000000000004E-06, , 
DataValue, -1.4100000000000001, -2.6789000000000003E-06, 2.6789000000000003E-06, , 
DataValue, -1.4200000000000002, -2.8172000000000003E-06, 2.8172000000000003E-06, , 
DataValue, -1.4300000000000002, -3.1130000000000005E-06, 3.1130000000000005E-06, , 
DataValue, -1.4400000000000002, -2.8167000000000005E-06, 2.8167000000000005E-06, , 
DataValue, -1.4500000000000002, -2.7454000000000004E-06, 2.7454000000000004E-06, , 
DataValue, -1.46, -2.5689E-06, 2.5689E-06, , 
DataValue, -1.47, -3.3029E-06, 3.3029E-06, , 
DataValue, -1.48, -3.6535000000000003E-06, 3.6535000000000003E-06, , 
DataValue, -1.49, -2.7747000000000003E-06, 2.7747000000000003E-06, , 
DataValue, -1.5, -2.3866E-06, 2.3866E-06, , 
DataValue, -1.5, -2.4574000000000004E-06, 2.4574000000000004E-06, , 
DataValue, -1.49, -2.5163000000000004E-06, 2.5163000000000004E-06, , 
DataValue, -1.48, -2.3816E-06, 2.3816E-06, , 
DataValue, -1.47, -2.325E-06, 2.325E-06, , 
DataValue, -1.46, -1.6651000000000002E-06, 1.6651000000000002E-06, , 
DataValue, -1.4500000000000002, -1.6254000000000001E-06, 1.6254000000000001E-06, , 
DataValue, -1.4400000000000002, -1.6932000000000002E-06, 1.6932000000000002E-06, , 
DataValue, -1.4300000000000002, -1.5823E-06, 1.5823E-06, , 
DataValue, -1.4200000000000002, -1.5045000000000002E-06, 1.5045000000000002E-06, , 
DataValue, -1.4100000000000001, -1.4868E-06, 1.4868E-06, , 
DataValue, -1.4000000000000001, -1.3747000000000002E-06, 1.3747000000000002E-06, , 
DataValue, -1.3900000000000001, -1.3761E-06, 1.3761E-06, , 
DataValue, -1.3800000000000001, -1.4229000000000002E-06, 1.4229000000000002E-06, , 
DataValue, -1.37, -1.4113000000000002E-06, 1.4113000000000002E-06, , 
DataValue, -1.36, -1.3401E-06, 1.3401E-06, , 
DataValue, -1.35, -1.2924000000000001E-06, 1.2924000000000001E-06, , 
DataValue, -1.34, -1.2544000000000002E-06, 1.2544000000000002E-06, , 
DataValue, -1.33, -1.2388000000000001E-06, 1.2388000000000001E-06, , 
DataValue, -1.32, -1.2055000000000002E-06, 1.2055000000000002E-06, , 
DataValue, -1.31, -1.1500000000000002E-06, 1.1500000000000002E-06, , 
DataValue, -1.3, -1.1669000000000002E-06, 1.1669000000000002E-06, , 
DataValue, -1.29, -1.0915E-06, 1.0915E-06, , 
DataValue, -1.28, -1.0765000000000002E-06, 1.0765000000000002E-06, , 
DataValue, -1.27, -1.0737000000000002E-06, 1.0737000000000002E-06, , 
DataValue, -1.26, -1.0353E-06, 1.0353E-06, , 
DataValue, -1.25, -1.0556000000000001E-06, 1.0556000000000001E-06, , 
DataValue, -1.24, -9.8684E-07, 9.8684E-07, , 
DataValue, -1.23, -9.5028E-07, 9.5028E-07, , 
DataValue, -1.22, -9.8228E-07, 9.8228E-07, , 
DataValue, -1.21, -9.6798E-07, 9.6798E-07, , 
DataValue, -1.2, -9.537E-07, 9.537E-07, , 
DataValue, -1.19, -9.3564E-07, 9.3564E-07, , 
DataValue, -1.1800000000000002, -9.187E-07, 9.187E-07, , 
DataValue, -1.1700000000000002, -9.3122E-07, 9.3122E-07, , 
DataValue, -1.1600000000000001, -8.8671999999999994E-07, 8.8671999999999994E-07, , 
DataValue, -1.1500000000000001, -8.6487999999999995E-07, 8.6487999999999995E-07, , 
DataValue, -1.1400000000000001, -8.0116E-07, 8.0116E-07, , 
DataValue, -1.1300000000000001, -7.9035999999999994E-07, 7.9035999999999994E-07, , 
DataValue, -1.12, -7.6072E-07, 7.6072E-07, , 
DataValue, -1.11, -7.601E-07, 7.601E-07, , 
DataValue, -1.1, -7.0066E-07, 7.0066E-07, , 
DataValue, -1.09, -6.9898E-07, 6.9898E-07, , 
DataValue, -1.08, -7.0144E-07, 7.0144E-07, , 
DataValue, -1.07, -6.6742E-07, 6.6742E-07, , 
DataValue, -1.06, -7.1418E-07, 7.1418E-07, , 
DataValue, -1.05, -6.896E-07, 6.896E-07, , 
DataValue, -1.04, -6.9648E-07, 6.9648E-07, , 
DataValue, -1.03, -6.7606E-07, 6.7606E-07, , 
DataValue, -1.02, -7.2374E-07, 7.2374E-07, , 
DataValue, -1.01, -6.6732E-07, 6.6732E-07, , 
DataValue, -1, -6.3054E-07, 6.3054E-07, , 
DataValue, -0.9900000000000001, -6.595E-07, 6.595E-07, , 
DataValue, -0.98000000000000009, -6.6999999999999994E-07, 6.6999999999999994E-07, , 
DataValue, -0.97000000000000008, -6.5346E-07, 6.5346E-07, , 
DataValue, -0.96000000000000008, -9.9262E-07, 9.9262E-07, , 
DataValue, -0.95000000000000007, -1.03926E-06, 1.03926E-06, , 
DataValue, -0.94000000000000006, -1.02072E-06, 1.02072E-06, , 
DataValue, -0.93, -9.7178E-07, 9.7178E-07, , 
DataValue, -0.92, -9.6492E-07, 9.6492E-07, , 
DataValue, -0.91, -9.006E-07, 9.006E-07, , 
DataValue, -0.9, -9.1246E-07, 9.1246E-07, , 
DataValue, -0.89, -8.9228E-07, 8.9228E-07, , 
DataValue, -0.88, -8.8788E-07, 8.8788E-07, , 
DataValue, -0.87, -8.6075999999999993E-07, 8.6075999999999993E-07, , 
DataValue, -0.86, -7.2894E-07, 7.2894E-07, , 
DataValue, -0.85000000000000009, -7.3616E-07, 7.3616E-07, , 
DataValue, -0.84000000000000008, -7.8864E-07, 7.8864E-07, , 
DataValue, -0.83000000000000007, -7.523E-07, 7.523E-07, , 
DataValue, -0.82000000000000006, -8.1534E-07, 8.1534E-07, , 
DataValue, -0.81, -8.1982E-07, 8.1982E-07, , 
DataValue, -0.8, -8.128E-07, 8.128E-07, , 
DataValue, -0.79, -7.5724E-07, 7.5724E-07, , 
DataValue, -0.78, -7.6592E-07, 7.6592E-07, , 
