
SetupTitle, ExtFET - NEG RESET BE-1.5V
PrimitiveTest, I/V Sweep
TestParameter, Context.MainFrame, B1500A
TestParameter, Channel.UnitType, SMU, SMU, SMU
TestParameter, Channel.Unit, SMU2:HR, SMU4:HR, SMU3:HR
TestParameter, Channel.IName, I_TE, I_BE, I_G
TestParameter, Channel.VName, V_TE, V_BE, V_G
TestParameter, Channel.Mode, V, COMMON, V
TestParameter, Channel.Func, VAR1, CONST, CONST
TestParameter, Channel.Index, 
TestParameter, Channel.Time, 
TestParameter, Measurement.Port.Unit, SMU2:HR, SMU4:HR, SMU3:HR
TestParameter, Measurement.Port.SeriesResistor, NONE, NONE, NONE
TestParameter, Measurement.Port.Filter, ON, ON, ON
TestParameter, Measurement.Port.OutputVoltageComparison, 0, 0, 0
TestParameter, Measurement.Primary.Locus, Double
TestParameter, Measurement.Primary.Scale, LINEAR
TestParameter, Measurement.Primary.Start, 0
TestParameter, Measurement.Primary.Stop, -1.5
TestParameter, Measurement.Primary.Step, -0.01
TestParameter, Measurement.Primary.Compliance, 0.01
TestParameter, Measurement.Primary.PowerCompliance, 0
TestParameter, Measurement.Aborting.Condition, CONTINUE AT ANY
TestParameter, Measurement.PostOutput.Value, START
TestParameter, Measurement.PostOutput.Retention, OFF
TestParameter, Measurement.Bias.Source, 0, 0, 2
TestParameter, Measurement.Bias.Compliance, 0.01, 0.1, 0.0001
TestParameter, Measurement.Monitor.Unit, SMU2:HR, SMU4:HR, SMU3:HR
TestParameter, Measurement.Monitor.Adc, HR ADC, HR ADC, HR ADC
TestParameter, Measurement.Monitor.Measurement, Compliance Side, Compliance Side, Compliance Side
TestParameter, Measurement.Monitor.RangingMode, LIMITED, LIMITED, LIMITED
TestParameter, Measurement.Monitor.RangeBoundary, 1nA, 1nA, 1nA
TestParameter, Measurement.Monitor.RangeRating, BY FULL RANGE, BY FULL RANGE, BY FULL RANGE
TestParameter, Measurement.Monitor.RangeRatingCoeff, 50, 50, 50
TestParameter, Measurement.Timing.Hold, 0
TestParameter, Measurement.Timing.Delay, 0
TestParameter, Measurement.Adc.HighSpeed.Mode, AUTO
TestParameter, Measurement.Adc.HighSpeed.Coeff, 1
TestParameter, Measurement.Adc.HighResolution.AutoZero, OFF
TestParameter, Measurement.Adc.HighResolution.Mode, AUTO
TestParameter, Measurement.Adc.HighResolution.Coeff, 6
TestParameter, Measurement.WaitTime.Source.Coeff, 1
TestParameter, Measurement.WaitTime.Source.Offset, 0
TestParameter, Measurement.WaitTime.Monitor.Coeff, 1
TestParameter, Measurement.WaitTime.Monitor.Offset, 0
TestParameter, Function.User.Name, absITE
TestParameter, Function.User.Unit, A
TestParameter, Function.User.Definition, abs(I_TE)
TestParameter, Output.Graph.Enabled, true
TestParameter, Output.Graph.AutoScaling, false
TestParameter, Output.Graph.XAxis.Data, V_TE
TestParameter, Output.Graph.XAxis.Scale, Linear
TestParameter, Output.Graph.XAxis.Left, 0
TestParameter, Output.Graph.XAxis.Right, 10
TestParameter, Output.Graph.XAxis.RunTimeAutoScale, true
TestParameter, Output.Graph.YAxis.Data, absITE
TestParameter, Output.Graph.YAxis.Scale, Log
TestParameter, Output.Graph.YAxis.Bottom, 0
TestParameter, Output.Graph.YAxis.Top, 1
TestParameter, Output.Graph.YAxis.Group, 
TestParameter, Output.Graph.YAxis.RunTimeAutoScale, true
TestParameter, Output.List.Data, V1, I2abs
TestParameter, AutoAnalysis.Interpolation, false
TestParameter, AutoAnalysis.Var2StepCount, 1
TestParameter, AutoAnalysis.Var2StepScript, 
TestParameter, AutoAnalysis.Line1.Enabled, false
TestParameter, AutoAnalysis.Line1.Type, 1
TestParameter, AutoAnalysis.Line1.Fix, True
TestParameter, AutoAnalysis.Line1.YAxis, 0
TestParameter, AutoAnalysis.Line1.Point1.Type, 0
TestParameter, AutoAnalysis.Line1.Point1.XY.X, 
TestParameter, AutoAnalysis.Line1.Point1.XY.Y, 
TestParameter, AutoAnalysis.Line1.Point1.Data.Var, 
TestParameter, AutoAnalysis.Line1.Point1.Data.Condition, 
TestParameter, AutoAnalysis.Line1.Point1.Data.Start, false
TestParameter, AutoAnalysis.Line1.Point1.Data.StartVar, 
TestParameter, AutoAnalysis.Line1.Point1.Data.StartCondition, 
TestParameter, AutoAnalysis.Line1.Point2.Type, 0
TestParameter, AutoAnalysis.Line1.Point2.XY.X, 
TestParameter, AutoAnalysis.Line1.Point2.XY.Y, 
TestParameter, AutoAnalysis.Line1.Point2.Data.Var, 
TestParameter, AutoAnalysis.Line1.Point2.Data.Condition, 
TestParameter, AutoAnalysis.Line1.Point2.Data.Start, false
TestParameter, AutoAnalysis.Line1.Point2.Data.StartVar, 
TestParameter, AutoAnalysis.Line1.Point2.Data.StartCondition, 
TestParameter, AutoAnalysis.Line1.GradientExpr, 0
TestParameter, AutoAnalysis.Line2.Enabled, false
TestParameter, AutoAnalysis.Line2.Type, 1
TestParameter, AutoAnalysis.Line2.Fix, True
TestParameter, AutoAnalysis.Line2.YAxis, 0
TestParameter, AutoAnalysis.Line2.Point1.Type, 0
TestParameter, AutoAnalysis.Line2.Point1.XY.X, 
TestParameter, AutoAnalysis.Line2.Point1.XY.Y, 
TestParameter, AutoAnalysis.Line2.Point1.Data.Var, 
TestParameter, AutoAnalysis.Line2.Point1.Data.Condition, 
TestParameter, AutoAnalysis.Line2.Point1.Data.Start, false
TestParameter, AutoAnalysis.Line2.Point1.Data.StartVar, 
TestParameter, AutoAnalysis.Line2.Point1.Data.StartCondition, 
TestParameter, AutoAnalysis.Line2.Point2.Type, 0
TestParameter, AutoAnalysis.Line2.Point2.XY.X, 
TestParameter, AutoAnalysis.Line2.Point2.XY.Y, 
TestParameter, AutoAnalysis.Line2.Point2.Data.Var, 
TestParameter, AutoAnalysis.Line2.Point2.Data.Condition, 
TestParameter, AutoAnalysis.Line2.Point2.Data.Start, false
TestParameter, AutoAnalysis.Line2.Point2.Data.StartVar, 
TestParameter, AutoAnalysis.Line2.Point2.Data.StartCondition, 
TestParameter, AutoAnalysis.Line2.GradientExpr, 0
TestParameter, AutoAnalysis.Marker.Enabled, false
TestParameter, AutoAnalysis.Marker.Data.Var, 
TestParameter, AutoAnalysis.Marker.Data.Condition, 
TestParameter, AutoAnalysis.Marker.Data.Start, false
TestParameter, AutoAnalysis.Marker.Data.StartVar, 
TestParameter, AutoAnalysis.Marker.Data.StartCondition, 
MetaData, TestRecord.EntryPoint, true
MetaData, TestRecord.RecordTime, 04/15/2020 14:51:28
MetaData, TestRecord.TestTarget, S48_ExtFET_3D-C06_[10k-RES]_[TiN-BE]
MetaData, TestRecord.IterationIndex, 105
MetaData, TestRecord.Preservation, true
MetaData, TestRecord.Flag, 
MetaData, TestRecord.Remarks, 
MetaData, TestRecord.LinkKey, 76304306-ca76-4a96-905d-ae1361327494
MetaData, TestRecord.Parameters, 
Dimension1, 302, 302, 302, 302, 302
Dimension2, 1, 1, 1, 1, 1
DataName, V_TE, I_TE, absITE, V1, I2abs
DataValue, 0, 1.6791E-09, 1.6791E-09, , 
DataValue, -0.01, -5.5146E-07, 5.5146E-07, , 
DataValue, -0.02, -1.10128E-06, 1.10128E-06, , 
DataValue, -0.030000000000000002, -1.6628000000000002E-06, 1.6628000000000002E-06, , 
DataValue, -0.04, -2.2144000000000003E-06, 2.2144000000000003E-06, , 
DataValue, -0.05, -2.7662000000000003E-06, 2.7662000000000003E-06, , 
DataValue, -0.060000000000000005, -3.317E-06, 3.317E-06, , 
DataValue, -0.07, -3.8666E-06, 3.8666E-06, , 
DataValue, -0.08, -4.4192000000000008E-06, 4.4192000000000008E-06, , 
DataValue, -0.090000000000000011, -4.9641000000000005E-06, 4.9641000000000005E-06, , 
DataValue, -0.1, -5.4979E-06, 5.4979E-06, , 
DataValue, -0.11, -6.0427000000000006E-06, 6.0427000000000006E-06, , 
DataValue, -0.12000000000000001, -6.516100000000001E-06, 6.516100000000001E-06, , 
DataValue, -0.13, -7.0717E-06, 7.0717E-06, , 
DataValue, -0.14, -7.6294E-06, 7.6294E-06, , 
DataValue, -0.15, -8.1679E-06, 8.1679E-06, , 
DataValue, -0.16, -8.6898000000000011E-06, 8.6898000000000011E-06, , 
DataValue, -0.17, -9.2432000000000016E-06, 9.2432000000000016E-06, , 
DataValue, -0.18000000000000002, -9.7483000000000012E-06, 9.7483000000000012E-06, , 
DataValue, -0.19, -1.0278500000000002E-05, 1.0278500000000002E-05, , 
DataValue, -0.2, -1.07818E-05, 1.07818E-05, , 
DataValue, -0.21000000000000002, -1.1333700000000001E-05, 1.1333700000000001E-05, , 
DataValue, -0.22, -1.1908E-05, 1.1908E-05, , 
DataValue, -0.23, -1.2436000000000001E-05, 1.2436000000000001E-05, , 
DataValue, -0.24000000000000002, -1.2886E-05, 1.2886E-05, , 
DataValue, -0.25, -1.3516E-05, 1.3516E-05, , 
DataValue, -0.26, -1.4032E-05, 1.4032E-05, , 
DataValue, -0.27, -1.4684E-05, 1.4684E-05, , 
DataValue, -0.28, -1.5076000000000001E-05, 1.5076000000000001E-05, , 
DataValue, -0.29000000000000004, -1.5658E-05, 1.5658E-05, , 
DataValue, -0.3, -1.6014E-05, 1.6014E-05, , 
DataValue, -0.31, -1.6252E-05, 1.6252E-05, , 
DataValue, -0.32, -1.6986E-05, 1.6986E-05, , 
DataValue, -0.33, -1.7342E-05, 1.7342E-05, , 
DataValue, -0.34, -1.7734E-05, 1.7734E-05, , 
DataValue, -0.35000000000000003, -1.8406E-05, 1.8406E-05, , 
DataValue, -0.36000000000000004, -1.881E-05, 1.881E-05, , 
DataValue, -0.37, -1.9674000000000002E-05, 1.9674000000000002E-05, , 
DataValue, -0.38, -2.0146E-05, 2.0146E-05, , 
DataValue, -0.39, -2.0782000000000002E-05, 2.0782000000000002E-05, , 
DataValue, -0.4, -2.1346000000000002E-05, 2.1346000000000002E-05, , 
DataValue, -0.41000000000000003, -2.1786E-05, 2.1786E-05, , 
DataValue, -0.42000000000000004, -2.2416E-05, 2.2416E-05, , 
DataValue, -0.43, -2.2382E-05, 2.2382E-05, , 
DataValue, -0.44, -2.277E-05, 2.277E-05, , 
DataValue, -0.45, -2.2642E-05, 2.2642E-05, , 
DataValue, -0.46, -2.404E-05, 2.404E-05, , 
DataValue, -0.47000000000000003, -2.3696E-05, 2.3696E-05, , 
DataValue, -0.48000000000000004, -2.4774E-05, 2.4774E-05, , 
DataValue, -0.49000000000000005, -2.4922E-05, 2.4922E-05, , 
DataValue, -0.5, -2.5456E-05, 2.5456E-05, , 
DataValue, -0.51, -2.5952E-05, 2.5952E-05, , 
DataValue, -0.52, -2.567E-05, 2.567E-05, , 
DataValue, -0.53, -2.3008E-05, 2.3008E-05, , 
DataValue, -0.54, -2.1578000000000002E-05, 2.1578000000000002E-05, , 
DataValue, -0.55, -2.4512000000000002E-05, 2.4512000000000002E-05, , 
DataValue, -0.56, -2.54E-05, 2.54E-05, , 
DataValue, -0.57000000000000006, -2.5394E-05, 2.5394E-05, , 
DataValue, -0.58000000000000007, -2.5326E-05, 2.5326E-05, , 
DataValue, -0.59000000000000008, -2.3248000000000002E-05, 2.3248000000000002E-05, , 
DataValue, -0.6, -2.7084E-05, 2.7084E-05, , 
DataValue, -0.61, -2.5722000000000002E-05, 2.5722000000000002E-05, , 
DataValue, -0.62, -2.7708E-05, 2.7708E-05, , 
DataValue, -0.63, -2.7008E-05, 2.7008E-05, , 
DataValue, -0.64, -2.5762000000000002E-05, 2.5762000000000002E-05, , 
DataValue, -0.65, -2.6094E-05, 2.6094E-05, , 
DataValue, -0.66, -2.3286E-05, 2.3286E-05, , 
DataValue, -0.67, -2.5648000000000002E-05, 2.5648000000000002E-05, , 
DataValue, -0.68, -2.3464E-05, 2.3464E-05, , 
DataValue, -0.69000000000000006, -1.8816E-05, 1.8816E-05, , 
DataValue, -0.70000000000000007, -1.8992E-05, 1.8992E-05, , 
DataValue, -0.71000000000000008, -1.9018E-05, 1.9018E-05, , 
DataValue, -0.72000000000000008, -1.7238E-05, 1.7238E-05, , 
DataValue, -0.73, -1.7072000000000002E-05, 1.7072000000000002E-05, , 
DataValue, -0.74, -1.6780000000000002E-05, 1.6780000000000002E-05, , 
DataValue, -0.75, -1.6836E-05, 1.6836E-05, , 
DataValue, -0.76, -1.2922000000000001E-05, 1.2922000000000001E-05, , 
DataValue, -0.77, -1.6486E-05, 1.6486E-05, , 
DataValue, -0.78, -1.0854E-05, 1.0854E-05, , 
DataValue, -0.79, -1.3528E-05, 1.3528E-05, , 
DataValue, -0.8, -1.2788E-05, 1.2788E-05, , 
DataValue, -0.81, -1.3728E-05, 1.3728E-05, , 
DataValue, -0.82000000000000006, -1.4602E-05, 1.4602E-05, , 
DataValue, -0.83000000000000007, -1.4554E-05, 1.4554E-05, , 
DataValue, -0.84000000000000008, -1.322E-05, 1.322E-05, , 
DataValue, -0.85000000000000009, -1.4040000000000001E-05, 1.4040000000000001E-05, , 
DataValue, -0.86, -1.3812000000000001E-05, 1.3812000000000001E-05, , 
DataValue, -0.87, -1.395E-05, 1.395E-05, , 
DataValue, -0.88, -1.4506E-05, 1.4506E-05, , 
DataValue, -0.89, -1.468E-05, 1.468E-05, , 
DataValue, -0.9, -1.3170000000000001E-05, 1.3170000000000001E-05, , 
DataValue, -0.91, -1.3192E-05, 1.3192E-05, , 
DataValue, -0.92, -1.2318E-05, 1.2318E-05, , 
DataValue, -0.93, -1.3680000000000001E-05, 1.3680000000000001E-05, , 
DataValue, -0.94000000000000006, -1.1228E-05, 1.1228E-05, , 
DataValue, -0.95000000000000007, -1.0276E-05, 1.0276E-05, , 
DataValue, -0.96000000000000008, -9.89E-06, 9.89E-06, , 
DataValue, -0.97000000000000008, -9.156E-06, 9.156E-06, , 
DataValue, -0.98000000000000009, -8.8942E-06, 8.8942E-06, , 
DataValue, -0.9900000000000001, -8.1096000000000011E-06, 8.1096000000000011E-06, , 
DataValue, -1, -7.927E-06, 7.927E-06, , 
DataValue, -1.01, -8.0809E-06, 8.0809E-06, , 
DataValue, -1.02, -7.873E-06, 7.873E-06, , 
DataValue, -1.03, -8.244000000000001E-06, 8.244000000000001E-06, , 
DataValue, -1.04, -8.1526E-06, 8.1526E-06, , 
DataValue, -1.05, -4.3492000000000006E-06, 4.3492000000000006E-06, , 
DataValue, -1.06, -4.4773E-06, 4.4773E-06, , 
DataValue, -1.07, -5.4638000000000009E-06, 5.4638000000000009E-06, , 
DataValue, -1.08, -5.6011000000000005E-06, 5.6011000000000005E-06, , 
DataValue, -1.09, -1.06788E-06, 1.06788E-06, , 
DataValue, -1.1, -1.08728E-06, 1.08728E-06, , 
DataValue, -1.11, -1.0588000000000001E-06, 1.0588000000000001E-06, , 
DataValue, -1.12, -1.1052E-06, 1.1052E-06, , 
DataValue, -1.1300000000000001, -1.8679000000000002E-06, 1.8679000000000002E-06, , 
DataValue, -1.1400000000000001, -1.1332E-06, 1.1332E-06, , 
DataValue, -1.1500000000000001, -1.9108E-06, 1.9108E-06, , 
DataValue, -1.1600000000000001, -1.7072000000000002E-06, 1.7072000000000002E-06, , 
DataValue, -1.1700000000000002, -1.6352000000000002E-06, 1.6352000000000002E-06, , 
DataValue, -1.1800000000000002, -1.5423000000000003E-06, 1.5423000000000003E-06, , 
DataValue, -1.19, -1.6017000000000003E-06, 1.6017000000000003E-06, , 
DataValue, -1.2, -1.8236000000000002E-06, 1.8236000000000002E-06, , 
DataValue, -1.21, -1.6538000000000002E-06, 1.6538000000000002E-06, , 
DataValue, -1.22, -2.0642E-06, 2.0642E-06, , 
DataValue, -1.23, -2.0286000000000004E-06, 2.0286000000000004E-06, , 
DataValue, -1.24, -1.8288000000000002E-06, 1.8288000000000002E-06, , 
DataValue, -1.25, -1.7036E-06, 1.7036E-06, , 
DataValue, -1.26, -1.8706000000000001E-06, 1.8706000000000001E-06, , 
DataValue, -1.27, -1.9758E-06, 1.9758E-06, , 
DataValue, -1.28, -2.1119E-06, 2.1119E-06, , 
DataValue, -1.29, -2.0258E-06, 2.0258E-06, , 
DataValue, -1.3, -2.0338000000000003E-06, 2.0338000000000003E-06, , 
DataValue, -1.31, -2.0614000000000003E-06, 2.0614000000000003E-06, , 
DataValue, -1.32, -2.0825000000000004E-06, 2.0825000000000004E-06, , 
DataValue, -1.33, -2.1105000000000004E-06, 2.1105000000000004E-06, , 
DataValue, -1.34, -1.8820000000000002E-06, 1.8820000000000002E-06, , 
DataValue, -1.35, -2.2045000000000002E-06, 2.2045000000000002E-06, , 
DataValue, -1.36, -2.1666E-06, 2.1666E-06, , 
DataValue, -1.37, -2.3631000000000003E-06, 2.3631000000000003E-06, , 
DataValue, -1.3800000000000001, -2.2735000000000003E-06, 2.2735000000000003E-06, , 
DataValue, -1.3900000000000001, -2.4462000000000004E-06, 2.4462000000000004E-06, , 
DataValue, -1.4000000000000001, -2.4096E-06, 2.4096E-06, , 
DataValue, -1.4100000000000001, -2.5565000000000004E-06, 2.5565000000000004E-06, , 
DataValue, -1.4200000000000002, -2.6116E-06, 2.6116E-06, , 
DataValue, -1.4300000000000002, -2.4318E-06, 2.4318E-06, , 
DataValue, -1.4400000000000002, -2.6924000000000003E-06, 2.6924000000000003E-06, , 
DataValue, -1.4500000000000002, -2.6770000000000004E-06, 2.6770000000000004E-06, , 
DataValue, -1.46, -2.607E-06, 2.607E-06, , 
DataValue, -1.47, -2.6346E-06, 2.6346E-06, , 
DataValue, -1.48, -2.1134000000000004E-06, 2.1134000000000004E-06, , 
DataValue, -1.49, -2.1731000000000004E-06, 2.1731000000000004E-06, , 
DataValue, -1.5, -2.1453E-06, 2.1453E-06, , 
DataValue, -1.5, -2.319E-06, 2.319E-06, , 
DataValue, -1.49, -1.9965000000000003E-06, 1.9965000000000003E-06, , 
DataValue, -1.48, -2.0518000000000004E-06, 2.0518000000000004E-06, , 
DataValue, -1.47, -2.442E-06, 2.442E-06, , 
DataValue, -1.46, -1.9802E-06, 1.9802E-06, , 
DataValue, -1.4500000000000002, -1.8976000000000003E-06, 1.8976000000000003E-06, , 
DataValue, -1.4400000000000002, -1.7845000000000002E-06, 1.7845000000000002E-06, , 
DataValue, -1.4300000000000002, -1.8119000000000002E-06, 1.8119000000000002E-06, , 
DataValue, -1.4200000000000002, -1.7088000000000003E-06, 1.7088000000000003E-06, , 
DataValue, -1.4100000000000001, -1.8014000000000002E-06, 1.8014000000000002E-06, , 
DataValue, -1.4000000000000001, -1.5485E-06, 1.5485E-06, , 
DataValue, -1.3900000000000001, -1.6879000000000002E-06, 1.6879000000000002E-06, , 
DataValue, -1.3800000000000001, -1.7360000000000002E-06, 1.7360000000000002E-06, , 
DataValue, -1.37, -1.3199E-06, 1.3199E-06, , 
DataValue, -1.36, -1.4010000000000002E-06, 1.4010000000000002E-06, , 
DataValue, -1.35, -1.3623E-06, 1.3623E-06, , 
DataValue, -1.34, -1.5471000000000002E-06, 1.5471000000000002E-06, , 
DataValue, -1.33, -1.4991000000000002E-06, 1.4991000000000002E-06, , 
DataValue, -1.32, -1.5027000000000002E-06, 1.5027000000000002E-06, , 
DataValue, -1.31, -1.4306000000000001E-06, 1.4306000000000001E-06, , 
DataValue, -1.3, -1.6016000000000003E-06, 1.6016000000000003E-06, , 
DataValue, -1.29, -1.2248000000000001E-06, 1.2248000000000001E-06, , 
DataValue, -1.28, -1.3128000000000002E-06, 1.3128000000000002E-06, , 
DataValue, -1.27, -1.2628000000000002E-06, 1.2628000000000002E-06, , 
DataValue, -1.26, -1.4785000000000001E-06, 1.4785000000000001E-06, , 
DataValue, -1.25, -1.3246000000000002E-06, 1.3246000000000002E-06, , 
DataValue, -1.24, -1.2623000000000002E-06, 1.2623000000000002E-06, , 
DataValue, -1.23, -1.1750000000000002E-06, 1.1750000000000002E-06, , 
DataValue, -1.22, -1.0925000000000001E-06, 1.0925000000000001E-06, , 
DataValue, -1.21, -1.1313E-06, 1.1313E-06, , 
DataValue, -1.2, -1.4912000000000002E-06, 1.4912000000000002E-06, , 
DataValue, -1.19, -1.4319000000000002E-06, 1.4319000000000002E-06, , 
DataValue, -1.1800000000000002, -1.4262000000000002E-06, 1.4262000000000002E-06, , 
DataValue, -1.1700000000000002, -1.3059E-06, 1.3059E-06, , 
DataValue, -1.1600000000000001, -1.2967000000000002E-06, 1.2967000000000002E-06, , 
DataValue, -1.1500000000000001, -1.2039E-06, 1.2039E-06, , 
DataValue, -1.1400000000000001, -1.2288000000000002E-06, 1.2288000000000002E-06, , 
DataValue, -1.1300000000000001, -1.2167000000000001E-06, 1.2167000000000001E-06, , 
DataValue, -1.12, -1.2452000000000002E-06, 1.2452000000000002E-06, , 
DataValue, -1.11, -1.1698000000000002E-06, 1.1698000000000002E-06, , 
DataValue, -1.1, -1.2126E-06, 1.2126E-06, , 
DataValue, -1.09, -1.1635000000000002E-06, 1.1635000000000002E-06, , 
DataValue, -1.08, -1.1915000000000002E-06, 1.1915000000000002E-06, , 
DataValue, -1.07, -1.1011000000000001E-06, 1.1011000000000001E-06, , 
DataValue, -1.06, -1.0786000000000001E-06, 1.0786000000000001E-06, , 
DataValue, -1.05, -1.0417000000000001E-06, 1.0417000000000001E-06, , 
DataValue, -1.04, -9.943E-07, 9.943E-07, , 
DataValue, -1.03, -9.7002E-07, 9.7002E-07, , 
DataValue, -1.02, -9.1316E-07, 9.1316E-07, , 
DataValue, -1.01, -8.8494E-07, 8.8494E-07, , 
DataValue, -1, -8.725E-07, 8.725E-07, , 
DataValue, -0.9900000000000001, -8.4731999999999994E-07, 8.4731999999999994E-07, , 
DataValue, -0.98000000000000009, -8.0351999999999993E-07, 8.0351999999999993E-07, , 
DataValue, -0.97000000000000008, -8.139E-07, 8.139E-07, , 
DataValue, -0.96000000000000008, -7.8204E-07, 7.8204E-07, , 
DataValue, -0.95000000000000007, -7.5696E-07, 7.5696E-07, , 
DataValue, -0.94000000000000006, -7.484E-07, 7.484E-07, , 
DataValue, -0.93, -7.8528E-07, 7.8528E-07, , 
DataValue, -0.92, -7.7086E-07, 7.7086E-07, , 
DataValue, -0.91, -7.4436E-07, 7.4436E-07, , 
DataValue, -0.9, -8.4644E-07, 8.4644E-07, , 
DataValue, -0.89, -8.2264E-07, 8.2264E-07, , 
DataValue, -0.88, -6.835E-07, 6.835E-07, , 
DataValue, -0.87, -6.2237999999999994E-07, 6.2237999999999994E-07, , 
DataValue, -0.86, -8.09E-07, 8.09E-07, , 
DataValue, -0.85000000000000009, -7.115E-07, 7.115E-07, , 
DataValue, -0.84000000000000008, -6.6738E-07, 6.6738E-07, , 
