
SetupTitle, ExtFET - NEG RESET BE-1.5V
PrimitiveTest, I/V Sweep
TestParameter, Context.MainFrame, B1500A
TestParameter, Channel.UnitType, SMU, SMU, SMU
TestParameter, Channel.Unit, SMU2:HR, SMU4:HR, SMU3:HR
TestParameter, Channel.IName, I_TE, I_BE, I_G
TestParameter, Channel.VName, V_TE, V_BE, V_G
TestParameter, Channel.Mode, V, COMMON, V
TestParameter, Channel.Func, VAR1, CONST, CONST
TestParameter, Channel.Index, 
TestParameter, Channel.Time, 
TestParameter, Measurement.Port.Unit, SMU2:HR, SMU4:HR, SMU3:HR
TestParameter, Measurement.Port.SeriesResistor, NONE, NONE, NONE
TestParameter, Measurement.Port.Filter, ON, ON, ON
TestParameter, Measurement.Port.OutputVoltageComparison, 0, 0, 0
TestParameter, Measurement.Primary.Locus, Double
TestParameter, Measurement.Primary.Scale, LINEAR
TestParameter, Measurement.Primary.Start, 0
TestParameter, Measurement.Primary.Stop, -1.5
TestParameter, Measurement.Primary.Step, -0.01
TestParameter, Measurement.Primary.Compliance, 0.01
TestParameter, Measurement.Primary.PowerCompliance, 0
TestParameter, Measurement.Aborting.Condition, CONTINUE AT ANY
TestParameter, Measurement.PostOutput.Value, START
TestParameter, Measurement.PostOutput.Retention, OFF
TestParameter, Measurement.Bias.Source, 0, 0, 2
TestParameter, Measurement.Bias.Compliance, 0.01, 0.1, 0.0001
TestParameter, Measurement.Monitor.Unit, SMU2:HR, SMU4:HR, SMU3:HR
TestParameter, Measurement.Monitor.Adc, HR ADC, HR ADC, HR ADC
TestParameter, Measurement.Monitor.Measurement, Compliance Side, Compliance Side, Compliance Side
TestParameter, Measurement.Monitor.RangingMode, LIMITED, LIMITED, LIMITED
TestParameter, Measurement.Monitor.RangeBoundary, 1nA, 1nA, 1nA
TestParameter, Measurement.Monitor.RangeRating, BY FULL RANGE, BY FULL RANGE, BY FULL RANGE
TestParameter, Measurement.Monitor.RangeRatingCoeff, 50, 50, 50
TestParameter, Measurement.Timing.Hold, 0
TestParameter, Measurement.Timing.Delay, 0
TestParameter, Measurement.Adc.HighSpeed.Mode, AUTO
TestParameter, Measurement.Adc.HighSpeed.Coeff, 1
TestParameter, Measurement.Adc.HighResolution.AutoZero, OFF
TestParameter, Measurement.Adc.HighResolution.Mode, AUTO
TestParameter, Measurement.Adc.HighResolution.Coeff, 6
TestParameter, Measurement.WaitTime.Source.Coeff, 1
TestParameter, Measurement.WaitTime.Source.Offset, 0
TestParameter, Measurement.WaitTime.Monitor.Coeff, 1
TestParameter, Measurement.WaitTime.Monitor.Offset, 0
TestParameter, Function.User.Name, absITE
TestParameter, Function.User.Unit, A
TestParameter, Function.User.Definition, abs(I_TE)
TestParameter, Output.Graph.Enabled, true
TestParameter, Output.Graph.AutoScaling, false
TestParameter, Output.Graph.XAxis.Data, V_TE
TestParameter, Output.Graph.XAxis.Scale, Linear
TestParameter, Output.Graph.XAxis.Left, 0
TestParameter, Output.Graph.XAxis.Right, 10
TestParameter, Output.Graph.XAxis.RunTimeAutoScale, true
TestParameter, Output.Graph.YAxis.Data, absITE
TestParameter, Output.Graph.YAxis.Scale, Log
TestParameter, Output.Graph.YAxis.Bottom, 0
TestParameter, Output.Graph.YAxis.Top, 1
TestParameter, Output.Graph.YAxis.Group, 
TestParameter, Output.Graph.YAxis.RunTimeAutoScale, true
TestParameter, Output.List.Data, V1, I2abs
TestParameter, AutoAnalysis.Interpolation, false
TestParameter, AutoAnalysis.Var2StepCount, 1
TestParameter, AutoAnalysis.Var2StepScript, 
TestParameter, AutoAnalysis.Line1.Enabled, false
TestParameter, AutoAnalysis.Line1.Type, 1
TestParameter, AutoAnalysis.Line1.Fix, True
TestParameter, AutoAnalysis.Line1.YAxis, 0
TestParameter, AutoAnalysis.Line1.Point1.Type, 0
TestParameter, AutoAnalysis.Line1.Point1.XY.X, 
TestParameter, AutoAnalysis.Line1.Point1.XY.Y, 
TestParameter, AutoAnalysis.Line1.Point1.Data.Var, 
TestParameter, AutoAnalysis.Line1.Point1.Data.Condition, 
TestParameter, AutoAnalysis.Line1.Point1.Data.Start, false
TestParameter, AutoAnalysis.Line1.Point1.Data.StartVar, 
TestParameter, AutoAnalysis.Line1.Point1.Data.StartCondition, 
TestParameter, AutoAnalysis.Line1.Point2.Type, 0
TestParameter, AutoAnalysis.Line1.Point2.XY.X, 
TestParameter, AutoAnalysis.Line1.Point2.XY.Y, 
TestParameter, AutoAnalysis.Line1.Point2.Data.Var, 
TestParameter, AutoAnalysis.Line1.Point2.Data.Condition, 
TestParameter, AutoAnalysis.Line1.Point2.Data.Start, false
TestParameter, AutoAnalysis.Line1.Point2.Data.StartVar, 
TestParameter, AutoAnalysis.Line1.Point2.Data.StartCondition, 
TestParameter, AutoAnalysis.Line1.GradientExpr, 0
TestParameter, AutoAnalysis.Line2.Enabled, false
TestParameter, AutoAnalysis.Line2.Type, 1
TestParameter, AutoAnalysis.Line2.Fix, True
TestParameter, AutoAnalysis.Line2.YAxis, 0
TestParameter, AutoAnalysis.Line2.Point1.Type, 0
TestParameter, AutoAnalysis.Line2.Point1.XY.X, 
TestParameter, AutoAnalysis.Line2.Point1.XY.Y, 
TestParameter, AutoAnalysis.Line2.Point1.Data.Var, 
TestParameter, AutoAnalysis.Line2.Point1.Data.Condition, 
TestParameter, AutoAnalysis.Line2.Point1.Data.Start, false
TestParameter, AutoAnalysis.Line2.Point1.Data.StartVar, 
TestParameter, AutoAnalysis.Line2.Point1.Data.StartCondition, 
TestParameter, AutoAnalysis.Line2.Point2.Type, 0
TestParameter, AutoAnalysis.Line2.Point2.XY.X, 
TestParameter, AutoAnalysis.Line2.Point2.XY.Y, 
TestParameter, AutoAnalysis.Line2.Point2.Data.Var, 
TestParameter, AutoAnalysis.Line2.Point2.Data.Condition, 
TestParameter, AutoAnalysis.Line2.Point2.Data.Start, false
TestParameter, AutoAnalysis.Line2.Point2.Data.StartVar, 
TestParameter, AutoAnalysis.Line2.Point2.Data.StartCondition, 
TestParameter, AutoAnalysis.Line2.GradientExpr, 0
TestParameter, AutoAnalysis.Marker.Enabled, false
TestParameter, AutoAnalysis.Marker.Data.Var, 
TestParameter, AutoAnalysis.Marker.Data.Condition, 
TestParameter, AutoAnalysis.Marker.Data.Start, false
TestParameter, AutoAnalysis.Marker.Data.StartVar, 
TestParameter, AutoAnalysis.Marker.Data.StartCondition, 
MetaData, TestRecord.EntryPoint, true
MetaData, TestRecord.RecordTime, 04/15/2020 14:51:50
MetaData, TestRecord.TestTarget, S48_ExtFET_3D-C06_[10k-RES]_[TiN-BE]
MetaData, TestRecord.IterationIndex, 108
MetaData, TestRecord.Preservation, true
MetaData, TestRecord.Flag, 
MetaData, TestRecord.Remarks, 
MetaData, TestRecord.LinkKey, 1fbc6750-326c-49a3-ba12-47d47bed03c6
MetaData, TestRecord.Parameters, 
Dimension1, 302, 302, 302, 302, 302
Dimension2, 1, 1, 1, 1, 1
DataName, V_TE, I_TE, absITE, V1, I2abs
DataValue, 0, 1.7052E-09, 1.7052E-09, , 
DataValue, -0.01, -5.5508E-07, 5.5508E-07, , 
DataValue, -0.02, -1.11214E-06, 1.11214E-06, , 
DataValue, -0.030000000000000002, -1.6767000000000002E-06, 1.6767000000000002E-06, , 
DataValue, -0.04, -2.2304000000000003E-06, 2.2304000000000003E-06, , 
DataValue, -0.05, -2.7907000000000002E-06, 2.7907000000000002E-06, , 
DataValue, -0.060000000000000005, -3.3441000000000003E-06, 3.3441000000000003E-06, , 
DataValue, -0.07, -3.9000000000000008E-06, 3.9000000000000008E-06, , 
DataValue, -0.08, -4.4532000000000008E-06, 4.4532000000000008E-06, , 
DataValue, -0.090000000000000011, -4.9999E-06, 4.9999E-06, , 
DataValue, -0.1, -5.5461E-06, 5.5461E-06, , 
DataValue, -0.11, -6.0959E-06, 6.0959E-06, , 
DataValue, -0.12000000000000001, -6.6491000000000004E-06, 6.6491000000000004E-06, , 
DataValue, -0.13, -7.2036000000000008E-06, 7.2036000000000008E-06, , 
DataValue, -0.14, -7.7598000000000015E-06, 7.7598000000000015E-06, , 
DataValue, -0.15, -8.3078E-06, 8.3078E-06, , 
DataValue, -0.16, -8.8436000000000012E-06, 8.8436000000000012E-06, , 
DataValue, -0.17, -9.3876000000000014E-06, 9.3876000000000014E-06, , 
DataValue, -0.18000000000000002, -9.952200000000001E-06, 9.952200000000001E-06, , 
DataValue, -0.19, -1.0497700000000001E-05, 1.0497700000000001E-05, , 
DataValue, -0.2, -1.10337E-05, 1.10337E-05, , 
DataValue, -0.21000000000000002, -1.159E-05, 1.159E-05, , 
DataValue, -0.22, -1.2114000000000001E-05, 1.2114000000000001E-05, , 
DataValue, -0.23, -1.248E-05, 1.248E-05, , 
DataValue, -0.24000000000000002, -1.3154E-05, 1.3154E-05, , 
DataValue, -0.25, -1.3616E-05, 1.3616E-05, , 
DataValue, -0.26, -1.4236E-05, 1.4236E-05, , 
DataValue, -0.27, -1.4816E-05, 1.4816E-05, , 
DataValue, -0.28, -1.5302E-05, 1.5302E-05, , 
DataValue, -0.29000000000000004, -1.5886E-05, 1.5886E-05, , 
DataValue, -0.3, -1.6378E-05, 1.6378E-05, , 
DataValue, -0.31, -1.692E-05, 1.692E-05, , 
DataValue, -0.32, -1.7466000000000002E-05, 1.7466000000000002E-05, , 
DataValue, -0.33, -1.7938E-05, 1.7938E-05, , 
DataValue, -0.34, -1.8164E-05, 1.8164E-05, , 
DataValue, -0.35000000000000003, -1.8784000000000002E-05, 1.8784000000000002E-05, , 
DataValue, -0.36000000000000004, -1.9344E-05, 1.9344E-05, , 
DataValue, -0.37, -2.0018E-05, 2.0018E-05, , 
DataValue, -0.38, -2.0298E-05, 2.0298E-05, , 
DataValue, -0.39, -2.095E-05, 2.095E-05, , 
DataValue, -0.4, -2.1442000000000002E-05, 2.1442000000000002E-05, , 
DataValue, -0.41000000000000003, -2.2024E-05, 2.2024E-05, , 
DataValue, -0.42000000000000004, -2.2188000000000002E-05, 2.2188000000000002E-05, , 
DataValue, -0.43, -2.2742E-05, 2.2742E-05, , 
DataValue, -0.44, -2.3234E-05, 2.3234E-05, , 
DataValue, -0.45, -2.3732000000000002E-05, 2.3732000000000002E-05, , 
DataValue, -0.46, -2.4556E-05, 2.4556E-05, , 
DataValue, -0.47000000000000003, -2.495E-05, 2.495E-05, , 
DataValue, -0.48000000000000004, -2.5532000000000002E-05, 2.5532000000000002E-05, , 
DataValue, -0.49000000000000005, -2.5766E-05, 2.5766E-05, , 
DataValue, -0.5, -2.6228E-05, 2.6228E-05, , 
DataValue, -0.51, -2.6448E-05, 2.6448E-05, , 
DataValue, -0.52, -2.6974E-05, 2.6974E-05, , 
DataValue, -0.53, -2.7708E-05, 2.7708E-05, , 
DataValue, -0.54, -2.8168000000000002E-05, 2.8168000000000002E-05, , 
DataValue, -0.55, -2.8314E-05, 2.8314E-05, , 
DataValue, -0.56, -2.8496E-05, 2.8496E-05, , 
DataValue, -0.57000000000000006, -2.896E-05, 2.896E-05, , 
DataValue, -0.58000000000000007, -2.9274E-05, 2.9274E-05, , 
DataValue, -0.59000000000000008, -3.0146000000000002E-05, 3.0146000000000002E-05, , 
DataValue, -0.6, -3.09E-05, 3.09E-05, , 
DataValue, -0.61, -3.1266E-05, 3.1266E-05, , 
DataValue, -0.62, -3.1208000000000003E-05, 3.1208000000000003E-05, , 
DataValue, -0.63, -3.1958E-05, 3.1958E-05, , 
DataValue, -0.64, -3.2306E-05, 3.2306E-05, , 
DataValue, -0.65, -3.2688E-05, 3.2688E-05, , 
DataValue, -0.66, -3.2836E-05, 3.2836E-05, , 
DataValue, -0.67, -3.2460000000000004E-05, 3.2460000000000004E-05, , 
DataValue, -0.68, -3.1922000000000004E-05, 3.1922000000000004E-05, , 
DataValue, -0.69000000000000006, -3.1398E-05, 3.1398E-05, , 
DataValue, -0.70000000000000007, -3.217E-05, 3.217E-05, , 
DataValue, -0.71000000000000008, -3.1996E-05, 3.1996E-05, , 
DataValue, -0.72000000000000008, -2.8936000000000002E-05, 2.8936000000000002E-05, , 
DataValue, -0.73, -3.0548E-05, 3.0548E-05, , 
DataValue, -0.74, -2.8676E-05, 2.8676E-05, , 
DataValue, -0.75, -2.8618E-05, 2.8618E-05, , 
DataValue, -0.76, -3.015E-05, 3.015E-05, , 
DataValue, -0.77, -2.7156000000000002E-05, 2.7156000000000002E-05, , 
DataValue, -0.78, -2.3522E-05, 2.3522E-05, , 
DataValue, -0.79, -2.4938E-05, 2.4938E-05, , 
DataValue, -0.8, -2.597E-05, 2.597E-05, , 
DataValue, -0.81, -2.4718E-05, 2.4718E-05, , 
DataValue, -0.82000000000000006, -2.3856E-05, 2.3856E-05, , 
DataValue, -0.83000000000000007, -1.7282E-05, 1.7282E-05, , 
DataValue, -0.84000000000000008, -1.7274E-05, 1.7274E-05, , 
DataValue, -0.85000000000000009, -1.207E-05, 1.207E-05, , 
DataValue, -0.86, -1.2366E-05, 1.2366E-05, , 
DataValue, -0.87, -1.2982E-05, 1.2982E-05, , 
DataValue, -0.88, -1.3888E-05, 1.3888E-05, , 
DataValue, -0.89, -1.1912E-05, 1.1912E-05, , 
DataValue, -0.9, -8.8471E-06, 8.8471E-06, , 
DataValue, -0.91, -1.1252E-05, 1.1252E-05, , 
DataValue, -0.92, -1.3204000000000001E-05, 1.3204000000000001E-05, , 
DataValue, -0.93, -1.1418E-05, 1.1418E-05, , 
DataValue, -0.94000000000000006, -1.616E-05, 1.616E-05, , 
DataValue, -0.95000000000000007, -8.7569E-06, 8.7569E-06, , 
DataValue, -0.96000000000000008, -9.2501000000000014E-06, 9.2501000000000014E-06, , 
DataValue, -0.97000000000000008, -8.4946000000000016E-06, 8.4946000000000016E-06, , 
DataValue, -0.98000000000000009, -8.7493000000000011E-06, 8.7493000000000011E-06, , 
DataValue, -0.9900000000000001, -8.954000000000001E-06, 8.954000000000001E-06, , 
DataValue, -1, -9.7469000000000015E-06, 9.7469000000000015E-06, , 
DataValue, -1.01, -1.3294E-05, 1.3294E-05, , 
DataValue, -1.02, -1.311E-05, 1.311E-05, , 
DataValue, -1.03, -6.0677E-06, 6.0677E-06, , 
DataValue, -1.04, -7.968E-06, 7.968E-06, , 
DataValue, -1.05, -8.240900000000001E-06, 8.240900000000001E-06, , 
DataValue, -1.06, -3.6931000000000003E-06, 3.6931000000000003E-06, , 
DataValue, -1.07, -3.6252000000000005E-06, 3.6252000000000005E-06, , 
DataValue, -1.08, -7.4920000000000004E-06, 7.4920000000000004E-06, , 
DataValue, -1.09, -7.4020000000000005E-06, 7.4020000000000005E-06, , 
DataValue, -1.1, -5.6318000000000009E-06, 5.6318000000000009E-06, , 
DataValue, -1.11, -8.257900000000001E-06, 8.257900000000001E-06, , 
DataValue, -1.12, -4.6895000000000006E-06, 4.6895000000000006E-06, , 
DataValue, -1.1300000000000001, -4.9033E-06, 4.9033E-06, , 
DataValue, -1.1400000000000001, -4.766E-06, 4.766E-06, , 
DataValue, -1.1500000000000001, -6.3864E-06, 6.3864E-06, , 
DataValue, -1.1600000000000001, -4.846E-06, 4.846E-06, , 
DataValue, -1.1700000000000002, -1.0834E-06, 1.0834E-06, , 
DataValue, -1.1800000000000002, -1.0412E-06, 1.0412E-06, , 
DataValue, -1.19, -1.0453000000000002E-06, 1.0453000000000002E-06, , 
DataValue, -1.2, -1.3599E-06, 1.3599E-06, , 
DataValue, -1.21, -1.3860000000000002E-06, 1.3860000000000002E-06, , 
DataValue, -1.22, -1.4150000000000002E-06, 1.4150000000000002E-06, , 
DataValue, -1.23, -1.4217E-06, 1.4217E-06, , 
DataValue, -1.24, -1.4113000000000002E-06, 1.4113000000000002E-06, , 
DataValue, -1.25, -1.4475000000000001E-06, 1.4475000000000001E-06, , 
DataValue, -1.26, -1.4826000000000002E-06, 1.4826000000000002E-06, , 
DataValue, -1.27, -1.5044000000000002E-06, 1.5044000000000002E-06, , 
DataValue, -1.28, -1.5434000000000001E-06, 1.5434000000000001E-06, , 
DataValue, -1.29, -1.5301000000000002E-06, 1.5301000000000002E-06, , 
DataValue, -1.3, -1.6293000000000002E-06, 1.6293000000000002E-06, , 
DataValue, -1.31, -1.7040000000000001E-06, 1.7040000000000001E-06, , 
DataValue, -1.32, -1.7383000000000002E-06, 1.7383000000000002E-06, , 
DataValue, -1.33, -1.7945000000000001E-06, 1.7945000000000001E-06, , 
DataValue, -1.34, -1.8460000000000002E-06, 1.8460000000000002E-06, , 
DataValue, -1.35, -1.8552000000000003E-06, 1.8552000000000003E-06, , 
DataValue, -1.36, -1.9258000000000003E-06, 1.9258000000000003E-06, , 
DataValue, -1.37, -2.0195000000000003E-06, 2.0195000000000003E-06, , 
DataValue, -1.3800000000000001, -1.8719000000000002E-06, 1.8719000000000002E-06, , 
DataValue, -1.3900000000000001, -2.0638E-06, 2.0638E-06, , 
DataValue, -1.4000000000000001, -2.5804000000000003E-06, 2.5804000000000003E-06, , 
DataValue, -1.4100000000000001, -2.6877E-06, 2.6877E-06, , 
DataValue, -1.4200000000000002, -2.6787000000000003E-06, 2.6787000000000003E-06, , 
DataValue, -1.4300000000000002, -2.5409E-06, 2.5409E-06, , 
DataValue, -1.4400000000000002, -2.7706E-06, 2.7706E-06, , 
DataValue, -1.4500000000000002, -2.8702000000000005E-06, 2.8702000000000005E-06, , 
DataValue, -1.46, -2.814E-06, 2.814E-06, , 
DataValue, -1.47, -2.7871000000000004E-06, 2.7871000000000004E-06, , 
DataValue, -1.48, -2.7441E-06, 2.7441E-06, , 
DataValue, -1.49, -3.1359000000000003E-06, 3.1359000000000003E-06, , 
DataValue, -1.5, -3.0558000000000005E-06, 3.0558000000000005E-06, , 
DataValue, -1.5, -2.9003000000000004E-06, 2.9003000000000004E-06, , 
DataValue, -1.49, -3.0264000000000004E-06, 3.0264000000000004E-06, , 
DataValue, -1.48, -2.2545E-06, 2.2545E-06, , 
DataValue, -1.47, -2.7546000000000003E-06, 2.7546000000000003E-06, , 
DataValue, -1.46, -3.0201E-06, 3.0201E-06, , 
DataValue, -1.4500000000000002, -2.7085000000000004E-06, 2.7085000000000004E-06, , 
DataValue, -1.4400000000000002, -2.7364E-06, 2.7364E-06, , 
DataValue, -1.4300000000000002, -2.9236000000000003E-06, 2.9236000000000003E-06, , 
DataValue, -1.4200000000000002, -2.4535000000000003E-06, 2.4535000000000003E-06, , 
DataValue, -1.4100000000000001, -2.8411E-06, 2.8411E-06, , 
DataValue, -1.4000000000000001, -2.2471E-06, 2.2471E-06, , 
DataValue, -1.3900000000000001, -2.0720000000000002E-06, 2.0720000000000002E-06, , 
DataValue, -1.3800000000000001, -2.1751E-06, 2.1751E-06, , 
DataValue, -1.37, -2.5293E-06, 2.5293E-06, , 
DataValue, -1.36, -2.4069E-06, 2.4069E-06, , 
DataValue, -1.35, -2.0111E-06, 2.0111E-06, , 
DataValue, -1.34, -2.3443E-06, 2.3443E-06, , 
DataValue, -1.33, -2.2895000000000003E-06, 2.2895000000000003E-06, , 
DataValue, -1.32, -2.3028000000000002E-06, 2.3028000000000002E-06, , 
DataValue, -1.31, -2.1668E-06, 2.1668E-06, , 
DataValue, -1.3, -2.1076000000000004E-06, 2.1076000000000004E-06, , 
DataValue, -1.29, -2.0108000000000003E-06, 2.0108000000000003E-06, , 
DataValue, -1.28, -1.9438000000000003E-06, 1.9438000000000003E-06, , 
DataValue, -1.27, -1.9617E-06, 1.9617E-06, , 
DataValue, -1.26, -1.8783000000000003E-06, 1.8783000000000003E-06, , 
DataValue, -1.25, -1.8535000000000001E-06, 1.8535000000000001E-06, , 
DataValue, -1.24, -1.8787000000000001E-06, 1.8787000000000001E-06, , 
DataValue, -1.23, -1.7386000000000002E-06, 1.7386000000000002E-06, , 
DataValue, -1.22, -1.7143000000000003E-06, 1.7143000000000003E-06, , 
DataValue, -1.21, -1.7337000000000002E-06, 1.7337000000000002E-06, , 
DataValue, -1.2, -1.6439000000000003E-06, 1.6439000000000003E-06, , 
DataValue, -1.19, -1.6825000000000002E-06, 1.6825000000000002E-06, , 
DataValue, -1.1800000000000002, -1.5184000000000002E-06, 1.5184000000000002E-06, , 
DataValue, -1.1700000000000002, -1.6426000000000002E-06, 1.6426000000000002E-06, , 
DataValue, -1.1600000000000001, -1.5562000000000002E-06, 1.5562000000000002E-06, , 
DataValue, -1.1500000000000001, -1.5855000000000001E-06, 1.5855000000000001E-06, , 
DataValue, -1.1400000000000001, -1.5822E-06, 1.5822E-06, , 
DataValue, -1.1300000000000001, -1.5419000000000002E-06, 1.5419000000000002E-06, , 
DataValue, -1.12, -1.4942000000000002E-06, 1.4942000000000002E-06, , 
DataValue, -1.11, -1.4955000000000001E-06, 1.4955000000000001E-06, , 
DataValue, -1.1, -1.4480000000000002E-06, 1.4480000000000002E-06, , 
DataValue, -1.09, -1.4042E-06, 1.4042E-06, , 
DataValue, -1.08, -1.3396E-06, 1.3396E-06, , 
DataValue, -1.07, -1.2533000000000001E-06, 1.2533000000000001E-06, , 
DataValue, -1.06, -1.3021000000000002E-06, 1.3021000000000002E-06, , 
DataValue, -1.05, -1.2469E-06, 1.2469E-06, , 
DataValue, -1.04, -1.2193000000000001E-06, 1.2193000000000001E-06, , 
DataValue, -1.03, -1.3608000000000002E-06, 1.3608000000000002E-06, , 
DataValue, -1.02, -1.2676000000000002E-06, 1.2676000000000002E-06, , 
DataValue, -1.01, -1.2061000000000002E-06, 1.2061000000000002E-06, , 
DataValue, -1, -1.2565000000000002E-06, 1.2565000000000002E-06, , 
DataValue, -0.9900000000000001, -1.1504E-06, 1.1504E-06, , 
DataValue, -0.98000000000000009, -1.0905000000000002E-06, 1.0905000000000002E-06, , 
DataValue, -0.97000000000000008, -1.0955000000000001E-06, 1.0955000000000001E-06, , 
DataValue, -0.96000000000000008, -1.0433E-06, 1.0433E-06, , 
DataValue, -0.95000000000000007, -1.0149E-06, 1.0149E-06, , 
DataValue, -0.94000000000000006, -1.01604E-06, 1.01604E-06, , 
DataValue, -0.93, -9.523E-07, 9.523E-07, , 
DataValue, -0.92, -9.915E-07, 9.915E-07, , 
DataValue, -0.91, -1.0520399999999999E-06, 1.0520399999999999E-06, , 
DataValue, -0.9, -9.117E-07, 9.117E-07, , 
DataValue, -0.89, -9.2686E-07, 9.2686E-07, , 
DataValue, -0.88, -1.04984E-06, 1.04984E-06, , 
DataValue, -0.87, -1.00534E-06, 1.00534E-06, , 
DataValue, -0.86, -9.9517999999999989E-07, 9.9517999999999989E-07, , 
