
SetupTitle, ExtFET - POS SET - VG-1.62V - TE-1.5V
PrimitiveTest, I/V Sweep
TestParameter, Context.MainFrame, B1500A
TestParameter, Channel.UnitType, SMU, SMU, SMU
TestParameter, Channel.Unit, SMU2:HR, SMU4:HR, SMU3:HR
TestParameter, Channel.IName, I_TE, I_BE, I_G
TestParameter, Channel.VName, V_TE, V_BE, V_G
TestParameter, Channel.Mode, V, COMMON, V
TestParameter, Channel.Func, VAR1, CONST, CONST
TestParameter, Channel.Index, 
TestParameter, Channel.Time, 
TestParameter, Measurement.Port.Unit, SMU2:HR, SMU4:HR, SMU3:HR
TestParameter, Measurement.Port.SeriesResistor, NONE, NONE, NONE
TestParameter, Measurement.Port.Filter, ON, ON, ON
TestParameter, Measurement.Port.OutputVoltageComparison, 0, 0, 0
TestParameter, Measurement.Primary.Locus, Double
TestParameter, Measurement.Primary.Scale, LINEAR
TestParameter, Measurement.Primary.Start, 0
TestParameter, Measurement.Primary.Stop, 1.5
TestParameter, Measurement.Primary.Step, 0.01
TestParameter, Measurement.Primary.Compliance, 0.01
TestParameter, Measurement.Primary.PowerCompliance, 0
TestParameter, Measurement.Aborting.Condition, CONTINUE AT ANY
TestParameter, Measurement.PostOutput.Value, START
TestParameter, Measurement.PostOutput.Retention, OFF
TestParameter, Measurement.Bias.Source, 0, 0, 1.62
TestParameter, Measurement.Bias.Compliance, 0.01, 0.1, 0.0001
TestParameter, Measurement.Monitor.Unit, SMU2:HR, SMU4:HR, SMU3:HR
TestParameter, Measurement.Monitor.Adc, HR ADC, HR ADC, HR ADC
TestParameter, Measurement.Monitor.Measurement, Compliance Side, Compliance Side, Compliance Side
TestParameter, Measurement.Monitor.RangingMode, LIMITED, LIMITED, LIMITED
TestParameter, Measurement.Monitor.RangeBoundary, 1nA, 1nA, 1nA
TestParameter, Measurement.Monitor.RangeRating, BY FULL RANGE, BY FULL RANGE, BY FULL RANGE
TestParameter, Measurement.Monitor.RangeRatingCoeff, 50, 50, 50
TestParameter, Measurement.Timing.Hold, 0
TestParameter, Measurement.Timing.Delay, 0
TestParameter, Measurement.Adc.HighSpeed.Mode, AUTO
TestParameter, Measurement.Adc.HighSpeed.Coeff, 1
TestParameter, Measurement.Adc.HighResolution.AutoZero, OFF
TestParameter, Measurement.Adc.HighResolution.Mode, AUTO
TestParameter, Measurement.Adc.HighResolution.Coeff, 6
TestParameter, Measurement.WaitTime.Source.Coeff, 1
TestParameter, Measurement.WaitTime.Source.Offset, 0
TestParameter, Measurement.WaitTime.Monitor.Coeff, 1
TestParameter, Measurement.WaitTime.Monitor.Offset, 0
TestParameter, Function.User.Name, absITE
TestParameter, Function.User.Unit, A
TestParameter, Function.User.Definition, abs(I_TE)
TestParameter, Output.Graph.Enabled, true
TestParameter, Output.Graph.AutoScaling, false
TestParameter, Output.Graph.XAxis.Data, V_TE
TestParameter, Output.Graph.XAxis.Scale, Linear
TestParameter, Output.Graph.XAxis.Left, 0
TestParameter, Output.Graph.XAxis.Right, 10
TestParameter, Output.Graph.XAxis.RunTimeAutoScale, true
TestParameter, Output.Graph.YAxis.Data, absITE
TestParameter, Output.Graph.YAxis.Scale, Log
TestParameter, Output.Graph.YAxis.Bottom, 0
TestParameter, Output.Graph.YAxis.Top, 1
TestParameter, Output.Graph.YAxis.Group, 
TestParameter, Output.Graph.YAxis.RunTimeAutoScale, true
TestParameter, Output.List.Data, V1, I2abs
TestParameter, AutoAnalysis.Interpolation, false
TestParameter, AutoAnalysis.Var2StepCount, 1
TestParameter, AutoAnalysis.Var2StepScript, 
TestParameter, AutoAnalysis.Line1.Enabled, false
TestParameter, AutoAnalysis.Line1.Type, 1
TestParameter, AutoAnalysis.Line1.Fix, True
TestParameter, AutoAnalysis.Line1.YAxis, 0
TestParameter, AutoAnalysis.Line1.Point1.Type, 0
TestParameter, AutoAnalysis.Line1.Point1.XY.X, 
TestParameter, AutoAnalysis.Line1.Point1.XY.Y, 
TestParameter, AutoAnalysis.Line1.Point1.Data.Var, 
TestParameter, AutoAnalysis.Line1.Point1.Data.Condition, 
TestParameter, AutoAnalysis.Line1.Point1.Data.Start, false
TestParameter, AutoAnalysis.Line1.Point1.Data.StartVar, 
TestParameter, AutoAnalysis.Line1.Point1.Data.StartCondition, 
TestParameter, AutoAnalysis.Line1.Point2.Type, 0
TestParameter, AutoAnalysis.Line1.Point2.XY.X, 
TestParameter, AutoAnalysis.Line1.Point2.XY.Y, 
TestParameter, AutoAnalysis.Line1.Point2.Data.Var, 
TestParameter, AutoAnalysis.Line1.Point2.Data.Condition, 
TestParameter, AutoAnalysis.Line1.Point2.Data.Start, false
TestParameter, AutoAnalysis.Line1.Point2.Data.StartVar, 
TestParameter, AutoAnalysis.Line1.Point2.Data.StartCondition, 
TestParameter, AutoAnalysis.Line1.GradientExpr, 0
TestParameter, AutoAnalysis.Line2.Enabled, false
TestParameter, AutoAnalysis.Line2.Type, 1
TestParameter, AutoAnalysis.Line2.Fix, True
TestParameter, AutoAnalysis.Line2.YAxis, 0
TestParameter, AutoAnalysis.Line2.Point1.Type, 0
TestParameter, AutoAnalysis.Line2.Point1.XY.X, 
TestParameter, AutoAnalysis.Line2.Point1.XY.Y, 
TestParameter, AutoAnalysis.Line2.Point1.Data.Var, 
TestParameter, AutoAnalysis.Line2.Point1.Data.Condition, 
TestParameter, AutoAnalysis.Line2.Point1.Data.Start, false
TestParameter, AutoAnalysis.Line2.Point1.Data.StartVar, 
TestParameter, AutoAnalysis.Line2.Point1.Data.StartCondition, 
TestParameter, AutoAnalysis.Line2.Point2.Type, 0
TestParameter, AutoAnalysis.Line2.Point2.XY.X, 
TestParameter, AutoAnalysis.Line2.Point2.XY.Y, 
TestParameter, AutoAnalysis.Line2.Point2.Data.Var, 
TestParameter, AutoAnalysis.Line2.Point2.Data.Condition, 
TestParameter, AutoAnalysis.Line2.Point2.Data.Start, false
TestParameter, AutoAnalysis.Line2.Point2.Data.StartVar, 
TestParameter, AutoAnalysis.Line2.Point2.Data.StartCondition, 
TestParameter, AutoAnalysis.Line2.GradientExpr, 0
TestParameter, AutoAnalysis.Marker.Enabled, false
TestParameter, AutoAnalysis.Marker.Data.Var, 
TestParameter, AutoAnalysis.Marker.Data.Condition, 
TestParameter, AutoAnalysis.Marker.Data.Start, false
TestParameter, AutoAnalysis.Marker.Data.StartVar, 
TestParameter, AutoAnalysis.Marker.Data.StartCondition, 
MetaData, TestRecord.EntryPoint, true
MetaData, TestRecord.RecordTime, 04/15/2020 14:50:55
MetaData, TestRecord.TestTarget, S48_ExtFET_3D-C06_[10k-RES]_[TiN-BE]
MetaData, TestRecord.IterationIndex, 101
MetaData, TestRecord.Preservation, true
MetaData, TestRecord.Flag, 
MetaData, TestRecord.Remarks, 
MetaData, TestRecord.LinkKey, 39dae2bb-1fca-4cdd-afb3-36e43ab6a817
MetaData, TestRecord.Parameters, 
Dimension1, 302, 302, 302, 302, 302
Dimension2, 1, 1, 1, 1, 1
DataName, V_TE, I_TE, absITE, V1, I2abs
DataValue, 0, 2.6340000000000003E-11, 2.6340000000000003E-11, , 
DataValue, 0.01, 7.8533E-09, 7.8533E-09, , 
DataValue, 0.02, 1.6087999999999998E-08, 1.6087999999999998E-08, , 
DataValue, 0.030000000000000002, 2.3933999999999998E-08, 2.3933999999999998E-08, , 
DataValue, 0.04, 3.0467E-08, 3.0467E-08, , 
DataValue, 0.05, 3.5252199999999995E-08, 3.5252199999999995E-08, , 
DataValue, 0.060000000000000005, 4.09228E-08, 4.09228E-08, , 
DataValue, 0.07, 4.8088599999999993E-08, 4.8088599999999993E-08, , 
DataValue, 0.08, 5.494E-08, 5.494E-08, , 
DataValue, 0.090000000000000011, 6.24192E-08, 6.24192E-08, , 
DataValue, 0.1, 6.7135799999999989E-08, 6.7135799999999989E-08, , 
DataValue, 0.11, 6.29208E-08, 6.29208E-08, , 
DataValue, 0.12000000000000001, 6.7609199999999991E-08, 6.7609199999999991E-08, , 
DataValue, 0.13, 7.40024E-08, 7.40024E-08, , 
DataValue, 0.14, 8.2725199999999992E-08, 8.2725199999999992E-08, , 
DataValue, 0.15, 8.74892E-08, 8.74892E-08, , 
DataValue, 0.16, 9.7639999999999993E-08, 9.7639999999999993E-08, , 
DataValue, 0.17, 1.1125999999999999E-07, 1.1125999999999999E-07, , 
DataValue, 0.18000000000000002, 3.5633999999999997E-07, 3.5633999999999997E-07, , 
DataValue, 0.19, 1.884E-07, 1.884E-07, , 
DataValue, 0.2, 3.3156E-07, 3.3156E-07, , 
DataValue, 0.21000000000000002, 3.2018E-07, 3.2018E-07, , 
DataValue, 0.22, 3.3818E-07, 3.3818E-07, , 
DataValue, 0.23, 3.5908E-07, 3.5908E-07, , 
DataValue, 0.24000000000000002, 3.9998E-07, 3.9998E-07, , 
DataValue, 0.25, 3.8348E-07, 3.8348E-07, , 
DataValue, 0.26, 4.198E-07, 4.198E-07, , 
DataValue, 0.27, 4.2246E-07, 4.2246E-07, , 
DataValue, 0.28, 4.4072E-07, 4.4072E-07, , 
DataValue, 0.29000000000000004, 2.3446E-07, 2.3446E-07, , 
DataValue, 0.3, 2.693E-07, 2.693E-07, , 
DataValue, 0.31, 3.0896E-07, 3.0896E-07, , 
DataValue, 0.32, 2.7206E-07, 2.7206E-07, , 
DataValue, 0.33, 2.5492E-07, 2.5492E-07, , 
DataValue, 0.34, 2.5824E-07, 2.5824E-07, , 
DataValue, 0.35000000000000003, 2.9414E-07, 2.9414E-07, , 
DataValue, 0.36000000000000004, 3.0238E-07, 3.0238E-07, , 
DataValue, 0.37, 3.1529999999999997E-07, 3.1529999999999997E-07, , 
DataValue, 0.38, 3.5434E-07, 3.5434E-07, , 
DataValue, 0.39, 3.8676E-07, 3.8676E-07, , 
DataValue, 0.4, 4.1522E-07, 4.1522E-07, , 
DataValue, 0.41000000000000003, 4.5376E-07, 4.5376E-07, , 
DataValue, 0.42000000000000004, 2.2138E-05, 2.2138E-05, , 
DataValue, 0.43, 2.2804E-05, 2.2804E-05, , 
DataValue, 0.44, 2.3338000000000003E-05, 2.3338000000000003E-05, , 
DataValue, 0.45, 2.397E-05, 2.397E-05, , 
DataValue, 0.46, 2.4446E-05, 2.4446E-05, , 
DataValue, 0.47000000000000003, 2.5086E-05, 2.5086E-05, , 
DataValue, 0.48000000000000004, 2.5654000000000002E-05, 2.5654000000000002E-05, , 
DataValue, 0.49000000000000005, 2.6428000000000002E-05, 2.6428000000000002E-05, , 
DataValue, 0.5, 2.7068000000000002E-05, 2.7068000000000002E-05, , 
DataValue, 0.51, 2.7696E-05, 2.7696E-05, , 
DataValue, 0.52, 2.8216000000000002E-05, 2.8216000000000002E-05, , 
DataValue, 0.53, 2.8762E-05, 2.8762E-05, , 
DataValue, 0.54, 2.9244E-05, 2.9244E-05, , 
DataValue, 0.55, 2.9812000000000002E-05, 2.9812000000000002E-05, , 
DataValue, 0.56, 3.0396000000000002E-05, 3.0396000000000002E-05, , 
DataValue, 0.57000000000000006, 3.094E-05, 3.094E-05, , 
DataValue, 0.58000000000000007, 3.159E-05, 3.159E-05, , 
DataValue, 0.59000000000000008, 3.211E-05, 3.211E-05, , 
DataValue, 0.6, 3.273E-05, 3.273E-05, , 
DataValue, 0.61, 3.3284E-05, 3.3284E-05, , 
DataValue, 0.62, 3.3832000000000004E-05, 3.3832000000000004E-05, , 
DataValue, 0.63, 3.4248E-05, 3.4248E-05, , 
DataValue, 0.64, 3.4878E-05, 3.4878E-05, , 
DataValue, 0.65, 3.5442000000000004E-05, 3.5442000000000004E-05, , 
DataValue, 0.66, 3.5988E-05, 3.5988E-05, , 
DataValue, 0.67, 3.6552E-05, 3.6552E-05, , 
DataValue, 0.68, 3.71E-05, 3.71E-05, , 
DataValue, 0.69000000000000006, 3.7630000000000004E-05, 3.7630000000000004E-05, , 
DataValue, 0.70000000000000007, 3.8186E-05, 3.8186E-05, , 
DataValue, 0.71000000000000008, 3.8724000000000004E-05, 3.8724000000000004E-05, , 
DataValue, 0.72000000000000008, 3.9216E-05, 3.9216E-05, , 
DataValue, 0.73, 3.9756000000000004E-05, 3.9756000000000004E-05, , 
DataValue, 0.74, 4.0354E-05, 4.0354E-05, , 
DataValue, 0.75, 4.0928E-05, 4.0928E-05, , 
DataValue, 0.76, 4.1494E-05, 4.1494E-05, , 
DataValue, 0.77, 4.1978000000000004E-05, 4.1978000000000004E-05, , 
DataValue, 0.78, 4.2552E-05, 4.2552E-05, , 
DataValue, 0.79, 4.3074E-05, 4.3074E-05, , 
DataValue, 0.8, 4.3696E-05, 4.3696E-05, , 
DataValue, 0.81, 4.4222000000000005E-05, 4.4222000000000005E-05, , 
DataValue, 0.82000000000000006, 4.4784000000000004E-05, 4.4784000000000004E-05, , 
DataValue, 0.83000000000000007, 4.533E-05, 4.533E-05, , 
DataValue, 0.84000000000000008, 4.5838000000000004E-05, 4.5838000000000004E-05, , 
DataValue, 0.85000000000000009, 4.6384E-05, 4.6384E-05, , 
DataValue, 0.86, 4.6936E-05, 4.6936E-05, , 
DataValue, 0.87, 4.7518E-05, 4.7518E-05, , 
DataValue, 0.88, 4.8064E-05, 4.8064E-05, , 
DataValue, 0.89, 4.8966E-05, 4.8966E-05, , 
DataValue, 0.9, 4.9372E-05, 4.9372E-05, , 
DataValue, 0.91, 5.0092E-05, 5.0092E-05, , 
DataValue, 0.92, 5.0794E-05, 5.0794E-05, , 
DataValue, 0.93, 5.1362E-05, 5.1362E-05, , 
DataValue, 0.94000000000000006, 5.1896E-05, 5.1896E-05, , 
DataValue, 0.95000000000000007, 5.2436000000000004E-05, 5.2436000000000004E-05, , 
DataValue, 0.96000000000000008, 5.2996E-05, 5.2996E-05, , 
DataValue, 0.97000000000000008, 5.3488E-05, 5.3488E-05, , 
DataValue, 0.98000000000000009, 5.3982E-05, 5.3982E-05, , 
DataValue, 0.9900000000000001, 5.4544000000000005E-05, 5.4544000000000005E-05, , 
DataValue, 1, 5.5076E-05, 5.5076E-05, , 
DataValue, 1.01, 5.562E-05, 5.562E-05, , 
DataValue, 1.02, 5.6172000000000004E-05, 5.6172000000000004E-05, , 
DataValue, 1.03, 5.6596000000000005E-05, 5.6596000000000005E-05, , 
DataValue, 1.04, 5.7156E-05, 5.7156E-05, , 
DataValue, 1.05, 5.7636E-05, 5.7636E-05, , 
DataValue, 1.06, 5.813E-05, 5.813E-05, , 
DataValue, 1.07, 5.868E-05, 5.868E-05, , 
DataValue, 1.08, 5.9174E-05, 5.9174E-05, , 
DataValue, 1.09, 5.9678E-05, 5.9678E-05, , 
DataValue, 1.1, 6.0178000000000006E-05, 6.0178000000000006E-05, , 
DataValue, 1.11, 6.0704E-05, 6.0704E-05, , 
DataValue, 1.12, 6.1198E-05, 6.1198E-05, , 
DataValue, 1.1300000000000001, 6.1698E-05, 6.1698E-05, , 
DataValue, 1.1400000000000001, 6.2204E-05, 6.2204E-05, , 
DataValue, 1.1500000000000001, 6.277E-05, 6.277E-05, , 
DataValue, 1.1600000000000001, 6.3244E-05, 6.3244E-05, , 
DataValue, 1.1700000000000002, 6.3776000000000007E-05, 6.3776000000000007E-05, , 
DataValue, 1.1800000000000002, 6.4318E-05, 6.4318E-05, , 
DataValue, 1.19, 6.4854E-05, 6.4854E-05, , 
DataValue, 1.2, 6.5332E-05, 6.5332E-05, , 
DataValue, 1.21, 6.5824E-05, 6.5824E-05, , 
DataValue, 1.22, 6.6324E-05, 6.6324E-05, , 
DataValue, 1.23, 6.679E-05, 6.679E-05, , 
DataValue, 1.24, 6.7258E-05, 6.7258E-05, , 
DataValue, 1.25, 6.7718E-05, 6.7718E-05, , 
DataValue, 1.26, 6.8208000000000008E-05, 6.8208000000000008E-05, , 
DataValue, 1.27, 6.8714E-05, 6.8714E-05, , 
DataValue, 1.28, 6.9124E-05, 6.9124E-05, , 
DataValue, 1.29, 6.9612E-05, 6.9612E-05, , 
DataValue, 1.3, 7.0058E-05, 7.0058E-05, , 
DataValue, 1.31, 7.0586E-05, 7.0586E-05, , 
DataValue, 1.32, 7.1098E-05, 7.1098E-05, , 
DataValue, 1.33, 7.1442E-05, 7.1442E-05, , 
DataValue, 1.34, 7.1992E-05, 7.1992E-05, , 
DataValue, 1.35, 7.2538E-05, 7.2538E-05, , 
DataValue, 1.36, 7.296E-05, 7.296E-05, , 
DataValue, 1.37, 7.3392E-05, 7.3392E-05, , 
DataValue, 1.3800000000000001, 7.3836E-05, 7.3836E-05, , 
DataValue, 1.3900000000000001, 7.4264E-05, 7.4264E-05, , 
DataValue, 1.4000000000000001, 7.4710000000000008E-05, 7.4710000000000008E-05, , 
DataValue, 1.4100000000000001, 7.5176E-05, 7.5176E-05, , 
DataValue, 1.4200000000000002, 7.5546E-05, 7.5546E-05, , 
DataValue, 1.4300000000000002, 7.5822000000000007E-05, 7.5822000000000007E-05, , 
DataValue, 1.4400000000000002, 7.6414E-05, 7.6414E-05, , 
DataValue, 1.4500000000000002, 7.6684E-05, 7.6684E-05, , 
DataValue, 1.46, 7.7114000000000007E-05, 7.7114000000000007E-05, , 
DataValue, 1.47, 7.742E-05, 7.742E-05, , 
DataValue, 1.48, 7.7816E-05, 7.7816E-05, , 
DataValue, 1.49, 7.8126E-05, 7.8126E-05, , 
DataValue, 1.5, 7.8646E-05, 7.8646E-05, , 
DataValue, 1.5, 7.8636E-05, 7.8636E-05, , 
DataValue, 1.49, 7.8196000000000008E-05, 7.8196000000000008E-05, , 
DataValue, 1.48, 7.7806000000000007E-05, 7.7806000000000007E-05, , 
DataValue, 1.47, 7.7458E-05, 7.7458E-05, , 
DataValue, 1.46, 7.7116E-05, 7.7116E-05, , 
DataValue, 1.4500000000000002, 7.6746E-05, 7.6746E-05, , 
DataValue, 1.4400000000000002, 7.6344E-05, 7.6344E-05, , 
DataValue, 1.4300000000000002, 7.5966E-05, 7.5966E-05, , 
DataValue, 1.4200000000000002, 7.5524E-05, 7.5524E-05, , 
DataValue, 1.4100000000000001, 7.5178E-05, 7.5178E-05, , 
DataValue, 1.4000000000000001, 7.4790000000000007E-05, 7.4790000000000007E-05, , 
DataValue, 1.3900000000000001, 7.4392E-05, 7.4392E-05, , 
DataValue, 1.3800000000000001, 7.3956000000000008E-05, 7.3956000000000008E-05, , 
DataValue, 1.37, 7.3452E-05, 7.3452E-05, , 
DataValue, 1.36, 7.3024E-05, 7.3024E-05, , 
DataValue, 1.35, 7.261E-05, 7.261E-05, , 
DataValue, 1.34, 7.2174E-05, 7.2174E-05, , 
DataValue, 1.33, 7.169E-05, 7.169E-05, , 
DataValue, 1.32, 7.1242E-05, 7.1242E-05, , 
DataValue, 1.31, 7.0716E-05, 7.0716E-05, , 
DataValue, 1.3, 7.0346000000000007E-05, 7.0346000000000007E-05, , 
DataValue, 1.29, 6.9908000000000009E-05, 6.9908000000000009E-05, , 
DataValue, 1.28, 6.942E-05, 6.942E-05, , 
DataValue, 1.27, 6.896E-05, 6.896E-05, , 
DataValue, 1.26, 6.8514E-05, 6.8514E-05, , 
DataValue, 1.25, 6.8084000000000007E-05, 6.8084000000000007E-05, , 
DataValue, 1.24, 6.7558E-05, 6.7558E-05, , 
DataValue, 1.23, 6.7078E-05, 6.7078E-05, , 
DataValue, 1.22, 6.6606E-05, 6.6606E-05, , 
DataValue, 1.21, 6.6092E-05, 6.6092E-05, , 
DataValue, 1.2, 6.5618000000000008E-05, 6.5618000000000008E-05, , 
DataValue, 1.19, 6.5162E-05, 6.5162E-05, , 
DataValue, 1.1800000000000002, 6.4666000000000007E-05, 6.4666000000000007E-05, , 
DataValue, 1.1700000000000002, 6.4178000000000008E-05, 6.4178000000000008E-05, , 
DataValue, 1.1600000000000001, 6.3674E-05, 6.3674E-05, , 
DataValue, 1.1500000000000001, 6.317E-05, 6.317E-05, , 
DataValue, 1.1400000000000001, 6.2662E-05, 6.2662E-05, , 
DataValue, 1.1300000000000001, 6.2166E-05, 6.2166E-05, , 
DataValue, 1.12, 6.1622E-05, 6.1622E-05, , 
DataValue, 1.11, 6.1082E-05, 6.1082E-05, , 
DataValue, 1.1, 6.0586E-05, 6.0586E-05, , 
DataValue, 1.09, 6.0104E-05, 6.0104E-05, , 
DataValue, 1.08, 5.9538000000000005E-05, 5.9538000000000005E-05, , 
DataValue, 1.07, 5.9032E-05, 5.9032E-05, , 
DataValue, 1.06, 5.8552000000000005E-05, 5.8552000000000005E-05, , 
DataValue, 1.05, 5.8012E-05, 5.8012E-05, , 
DataValue, 1.04, 5.7662000000000005E-05, 5.7662000000000005E-05, , 
DataValue, 1.03, 5.7104E-05, 5.7104E-05, , 
DataValue, 1.02, 5.6448E-05, 5.6448E-05, , 
DataValue, 1.01, 5.5906E-05, 5.5906E-05, , 
DataValue, 1, 5.5394000000000005E-05, 5.5394000000000005E-05, , 
DataValue, 0.9900000000000001, 5.4806000000000003E-05, 5.4806000000000003E-05, , 
DataValue, 0.98000000000000009, 5.4226E-05, 5.4226E-05, , 
DataValue, 0.97000000000000008, 5.369E-05, 5.369E-05, , 
DataValue, 0.96000000000000008, 5.3182E-05, 5.3182E-05, , 
DataValue, 0.95000000000000007, 5.2606000000000004E-05, 5.2606000000000004E-05, , 
DataValue, 0.94000000000000006, 5.2098E-05, 5.2098E-05, , 
DataValue, 0.93, 5.1548E-05, 5.1548E-05, , 
DataValue, 0.92, 5.0992E-05, 5.0992E-05, , 
DataValue, 0.91, 5.0488E-05, 5.0488E-05, , 
DataValue, 0.9, 5.0014E-05, 5.0014E-05, , 
DataValue, 0.89, 4.9500000000000004E-05, 4.9500000000000004E-05, , 
DataValue, 0.88, 4.8950000000000004E-05, 4.8950000000000004E-05, , 
DataValue, 0.87, 4.8346E-05, 4.8346E-05, , 
DataValue, 0.86, 4.7854E-05, 4.7854E-05, , 
DataValue, 0.85000000000000009, 4.7276E-05, 4.7276E-05, , 
DataValue, 0.84000000000000008, 4.6722000000000004E-05, 4.6722000000000004E-05, , 
DataValue, 0.83000000000000007, 4.6188E-05, 4.6188E-05, , 
DataValue, 0.82000000000000006, 4.5666E-05, 4.5666E-05, , 
DataValue, 0.81, 4.5118000000000004E-05, 4.5118000000000004E-05, , 
DataValue, 0.8, 4.4538E-05, 4.4538E-05, , 
DataValue, 0.79, 4.4002E-05, 4.4002E-05, , 
DataValue, 0.78, 4.3452000000000003E-05, 4.3452000000000003E-05, , 
DataValue, 0.77, 4.2944E-05, 4.2944E-05, , 
DataValue, 0.76, 4.2342E-05, 4.2342E-05, , 
DataValue, 0.75, 4.1808000000000004E-05, 4.1808000000000004E-05, , 
DataValue, 0.74, 4.1280000000000005E-05, 4.1280000000000005E-05, , 
DataValue, 0.73, 4.069E-05, 4.069E-05, , 
DataValue, 0.72000000000000008, 4.016E-05, 4.016E-05, , 
DataValue, 0.71000000000000008, 3.9636000000000005E-05, 3.9636000000000005E-05, , 
DataValue, 0.70000000000000007, 3.906E-05, 3.906E-05, , 
DataValue, 0.69000000000000006, 3.849E-05, 3.849E-05, , 
DataValue, 0.68, 3.7932E-05, 3.7932E-05, , 
DataValue, 0.67, 3.7396E-05, 3.7396E-05, , 
DataValue, 0.66, 3.6818E-05, 3.6818E-05, , 
DataValue, 0.65, 3.6318E-05, 3.6318E-05, , 
DataValue, 0.64, 3.5724E-05, 3.5724E-05, , 
DataValue, 0.63, 3.5164000000000004E-05, 3.5164000000000004E-05, , 
DataValue, 0.62, 3.4626000000000004E-05, 3.4626000000000004E-05, , 
DataValue, 0.61, 3.4086E-05, 3.4086E-05, , 
DataValue, 0.6, 3.351E-05, 3.351E-05, , 
DataValue, 0.59000000000000008, 3.2972E-05, 3.2972E-05, , 
