
SetupTitle, ExtFET - POS SET - VG-1.62V - TE-1.5V
PrimitiveTest, I/V Sweep
TestParameter, Context.MainFrame, B1500A
TestParameter, Channel.UnitType, SMU, SMU, SMU
TestParameter, Channel.Unit, SMU2:HR, SMU4:HR, SMU3:HR
TestParameter, Channel.IName, I_TE, I_BE, I_G
TestParameter, Channel.VName, V_TE, V_BE, V_G
TestParameter, Channel.Mode, V, COMMON, V
TestParameter, Channel.Func, VAR1, CONST, CONST
TestParameter, Channel.Index, 
TestParameter, Channel.Time, 
TestParameter, Measurement.Port.Unit, SMU2:HR, SMU4:HR, SMU3:HR
TestParameter, Measurement.Port.SeriesResistor, NONE, NONE, NONE
TestParameter, Measurement.Port.Filter, ON, ON, ON
TestParameter, Measurement.Port.OutputVoltageComparison, 0, 0, 0
TestParameter, Measurement.Primary.Locus, Double
TestParameter, Measurement.Primary.Scale, LINEAR
TestParameter, Measurement.Primary.Start, 0
TestParameter, Measurement.Primary.Stop, 1.5
TestParameter, Measurement.Primary.Step, 0.01
TestParameter, Measurement.Primary.Compliance, 0.01
TestParameter, Measurement.Primary.PowerCompliance, 0
TestParameter, Measurement.Aborting.Condition, CONTINUE AT ANY
TestParameter, Measurement.PostOutput.Value, START
TestParameter, Measurement.PostOutput.Retention, OFF
TestParameter, Measurement.Bias.Source, 0, 0, 1.62
TestParameter, Measurement.Bias.Compliance, 0.01, 0.1, 0.0001
TestParameter, Measurement.Monitor.Unit, SMU2:HR, SMU4:HR, SMU3:HR
TestParameter, Measurement.Monitor.Adc, HR ADC, HR ADC, HR ADC
TestParameter, Measurement.Monitor.Measurement, Compliance Side, Compliance Side, Compliance Side
TestParameter, Measurement.Monitor.RangingMode, LIMITED, LIMITED, LIMITED
TestParameter, Measurement.Monitor.RangeBoundary, 1nA, 1nA, 1nA
TestParameter, Measurement.Monitor.RangeRating, BY FULL RANGE, BY FULL RANGE, BY FULL RANGE
TestParameter, Measurement.Monitor.RangeRatingCoeff, 50, 50, 50
TestParameter, Measurement.Timing.Hold, 0
TestParameter, Measurement.Timing.Delay, 0
TestParameter, Measurement.Adc.HighSpeed.Mode, AUTO
TestParameter, Measurement.Adc.HighSpeed.Coeff, 1
TestParameter, Measurement.Adc.HighResolution.AutoZero, OFF
TestParameter, Measurement.Adc.HighResolution.Mode, AUTO
TestParameter, Measurement.Adc.HighResolution.Coeff, 6
TestParameter, Measurement.WaitTime.Source.Coeff, 1
TestParameter, Measurement.WaitTime.Source.Offset, 0
TestParameter, Measurement.WaitTime.Monitor.Coeff, 1
TestParameter, Measurement.WaitTime.Monitor.Offset, 0
TestParameter, Function.User.Name, absITE
TestParameter, Function.User.Unit, A
TestParameter, Function.User.Definition, abs(I_TE)
TestParameter, Output.Graph.Enabled, true
TestParameter, Output.Graph.AutoScaling, false
TestParameter, Output.Graph.XAxis.Data, V_TE
TestParameter, Output.Graph.XAxis.Scale, Linear
TestParameter, Output.Graph.XAxis.Left, 0
TestParameter, Output.Graph.XAxis.Right, 10
TestParameter, Output.Graph.XAxis.RunTimeAutoScale, true
TestParameter, Output.Graph.YAxis.Data, absITE
TestParameter, Output.Graph.YAxis.Scale, Log
TestParameter, Output.Graph.YAxis.Bottom, 0
TestParameter, Output.Graph.YAxis.Top, 1
TestParameter, Output.Graph.YAxis.Group, 
TestParameter, Output.Graph.YAxis.RunTimeAutoScale, true
TestParameter, Output.List.Data, V1, I2abs
TestParameter, AutoAnalysis.Interpolation, false
TestParameter, AutoAnalysis.Var2StepCount, 1
TestParameter, AutoAnalysis.Var2StepScript, 
TestParameter, AutoAnalysis.Line1.Enabled, false
TestParameter, AutoAnalysis.Line1.Type, 1
TestParameter, AutoAnalysis.Line1.Fix, True
TestParameter, AutoAnalysis.Line1.YAxis, 0
TestParameter, AutoAnalysis.Line1.Point1.Type, 0
TestParameter, AutoAnalysis.Line1.Point1.XY.X, 
TestParameter, AutoAnalysis.Line1.Point1.XY.Y, 
TestParameter, AutoAnalysis.Line1.Point1.Data.Var, 
TestParameter, AutoAnalysis.Line1.Point1.Data.Condition, 
TestParameter, AutoAnalysis.Line1.Point1.Data.Start, false
TestParameter, AutoAnalysis.Line1.Point1.Data.StartVar, 
TestParameter, AutoAnalysis.Line1.Point1.Data.StartCondition, 
TestParameter, AutoAnalysis.Line1.Point2.Type, 0
TestParameter, AutoAnalysis.Line1.Point2.XY.X, 
TestParameter, AutoAnalysis.Line1.Point2.XY.Y, 
TestParameter, AutoAnalysis.Line1.Point2.Data.Var, 
TestParameter, AutoAnalysis.Line1.Point2.Data.Condition, 
TestParameter, AutoAnalysis.Line1.Point2.Data.Start, false
TestParameter, AutoAnalysis.Line1.Point2.Data.StartVar, 
TestParameter, AutoAnalysis.Line1.Point2.Data.StartCondition, 
TestParameter, AutoAnalysis.Line1.GradientExpr, 0
TestParameter, AutoAnalysis.Line2.Enabled, false
TestParameter, AutoAnalysis.Line2.Type, 1
TestParameter, AutoAnalysis.Line2.Fix, True
TestParameter, AutoAnalysis.Line2.YAxis, 0
TestParameter, AutoAnalysis.Line2.Point1.Type, 0
TestParameter, AutoAnalysis.Line2.Point1.XY.X, 
TestParameter, AutoAnalysis.Line2.Point1.XY.Y, 
TestParameter, AutoAnalysis.Line2.Point1.Data.Var, 
TestParameter, AutoAnalysis.Line2.Point1.Data.Condition, 
TestParameter, AutoAnalysis.Line2.Point1.Data.Start, false
TestParameter, AutoAnalysis.Line2.Point1.Data.StartVar, 
TestParameter, AutoAnalysis.Line2.Point1.Data.StartCondition, 
TestParameter, AutoAnalysis.Line2.Point2.Type, 0
TestParameter, AutoAnalysis.Line2.Point2.XY.X, 
TestParameter, AutoAnalysis.Line2.Point2.XY.Y, 
TestParameter, AutoAnalysis.Line2.Point2.Data.Var, 
TestParameter, AutoAnalysis.Line2.Point2.Data.Condition, 
TestParameter, AutoAnalysis.Line2.Point2.Data.Start, false
TestParameter, AutoAnalysis.Line2.Point2.Data.StartVar, 
TestParameter, AutoAnalysis.Line2.Point2.Data.StartCondition, 
TestParameter, AutoAnalysis.Line2.GradientExpr, 0
TestParameter, AutoAnalysis.Marker.Enabled, false
TestParameter, AutoAnalysis.Marker.Data.Var, 
TestParameter, AutoAnalysis.Marker.Data.Condition, 
TestParameter, AutoAnalysis.Marker.Data.Start, false
TestParameter, AutoAnalysis.Marker.Data.StartVar, 
TestParameter, AutoAnalysis.Marker.Data.StartCondition, 
MetaData, TestRecord.EntryPoint, true
MetaData, TestRecord.RecordTime, 04/15/2020 14:51:17
MetaData, TestRecord.TestTarget, S48_ExtFET_3D-C06_[10k-RES]_[TiN-BE]
MetaData, TestRecord.IterationIndex, 104
MetaData, TestRecord.Preservation, true
MetaData, TestRecord.Flag, 
MetaData, TestRecord.Remarks, 
MetaData, TestRecord.LinkKey, 7e768efc-8603-4e48-83ee-d36809bd989a
MetaData, TestRecord.Parameters, 
Dimension1, 302, 302, 302, 302, 302
Dimension2, 1, 1, 1, 1, 1
DataName, V_TE, I_TE, absITE, V1, I2abs
DataValue, 0, 3.762E-10, 3.762E-10, , 
DataValue, 0.01, 9.2092799999999992E-08, 9.2092799999999992E-08, , 
DataValue, 0.02, 1.1464E-07, 1.1464E-07, , 
DataValue, 0.030000000000000002, 1.7284E-07, 1.7284E-07, , 
DataValue, 0.04, 3.7264E-07, 3.7264E-07, , 
DataValue, 0.05, 4.8392E-07, 4.8392E-07, , 
DataValue, 0.060000000000000005, 5.8566E-07, 5.8566E-07, , 
DataValue, 0.07, 6.5388E-07, 6.5388E-07, , 
DataValue, 0.08, 7.1948E-07, 7.1948E-07, , 
DataValue, 0.090000000000000011, 8.5738E-07, 8.5738E-07, , 
DataValue, 0.1, 8.9946E-07, 8.9946E-07, , 
DataValue, 0.11, 3.8471999999999997E-07, 3.8471999999999997E-07, , 
DataValue, 0.12000000000000001, 7.4189999999999994E-07, 7.4189999999999994E-07, , 
DataValue, 0.13, 1.0972399999999999E-06, 1.0972399999999999E-06, , 
DataValue, 0.14, 9.5628E-07, 9.5628E-07, , 
DataValue, 0.15, 2.8611999999999997E-07, 2.8611999999999997E-07, , 
DataValue, 0.16, 3.6008E-07, 3.6008E-07, , 
DataValue, 0.17, 2.9732E-07, 2.9732E-07, , 
DataValue, 0.18000000000000002, 3.8625999999999997E-07, 3.8625999999999997E-07, , 
DataValue, 0.19, 3.6949999999999997E-07, 3.6949999999999997E-07, , 
DataValue, 0.2, 4.3037999999999997E-07, 4.3037999999999997E-07, , 
DataValue, 0.21000000000000002, 4.0236E-07, 4.0236E-07, , 
DataValue, 0.22, 4.4514E-07, 4.4514E-07, , 
DataValue, 0.23, 4.3592E-07, 4.3592E-07, , 
DataValue, 0.24000000000000002, 4.9468E-07, 4.9468E-07, , 
DataValue, 0.25, 4.0776E-07, 4.0776E-07, , 
DataValue, 0.26, 1.6793000000000002E-06, 1.6793000000000002E-06, , 
DataValue, 0.27, 6.7710000000000009E-06, 6.7710000000000009E-06, , 
DataValue, 0.28, 8.4820000000000011E-06, 8.4820000000000011E-06, , 
DataValue, 0.29000000000000004, 9.3944000000000011E-06, 9.3944000000000011E-06, , 
DataValue, 0.3, 1.0376700000000002E-05, 1.0376700000000002E-05, , 
DataValue, 0.31, 1.0512400000000001E-05, 1.0512400000000001E-05, , 
DataValue, 0.32, 1.1036500000000002E-05, 1.1036500000000002E-05, , 
DataValue, 0.33, 1.11618E-05, 1.11618E-05, , 
DataValue, 0.34, 1.1516000000000001E-05, 1.1516000000000001E-05, , 
DataValue, 0.35000000000000003, 1.2002E-05, 1.2002E-05, , 
DataValue, 0.36000000000000004, 1.3652E-05, 1.3652E-05, , 
DataValue, 0.37, 1.4108000000000001E-05, 1.4108000000000001E-05, , 
DataValue, 0.38, 1.4550000000000001E-05, 1.4550000000000001E-05, , 
DataValue, 0.39, 1.4930000000000001E-05, 1.4930000000000001E-05, , 
DataValue, 0.4, 1.5252E-05, 1.5252E-05, , 
DataValue, 0.41000000000000003, 1.9366E-05, 1.9366E-05, , 
DataValue, 0.42000000000000004, 2.106E-05, 2.106E-05, , 
DataValue, 0.43, 2.1668E-05, 2.1668E-05, , 
DataValue, 0.44, 2.2230000000000002E-05, 2.2230000000000002E-05, , 
DataValue, 0.45, 2.2824E-05, 2.2824E-05, , 
DataValue, 0.46, 2.3362E-05, 2.3362E-05, , 
DataValue, 0.47000000000000003, 2.3862E-05, 2.3862E-05, , 
DataValue, 0.48000000000000004, 2.4042E-05, 2.4042E-05, , 
DataValue, 0.49000000000000005, 2.457E-05, 2.457E-05, , 
DataValue, 0.5, 2.5136E-05, 2.5136E-05, , 
DataValue, 0.51, 2.5596E-05, 2.5596E-05, , 
DataValue, 0.52, 2.6172E-05, 2.6172E-05, , 
DataValue, 0.53, 2.6684E-05, 2.6684E-05, , 
DataValue, 0.54, 2.7142000000000002E-05, 2.7142000000000002E-05, , 
DataValue, 0.55, 2.8080000000000002E-05, 2.8080000000000002E-05, , 
DataValue, 0.56, 2.8618E-05, 2.8618E-05, , 
DataValue, 0.57000000000000006, 2.9164E-05, 2.9164E-05, , 
DataValue, 0.58000000000000007, 2.9698000000000003E-05, 2.9698000000000003E-05, , 
DataValue, 0.59000000000000008, 3.0526E-05, 3.0526E-05, , 
DataValue, 0.6, 3.1228E-05, 3.1228E-05, , 
DataValue, 0.61, 3.2148E-05, 3.2148E-05, , 
DataValue, 0.62, 3.2800000000000004E-05, 3.2800000000000004E-05, , 
DataValue, 0.63, 3.338E-05, 3.338E-05, , 
DataValue, 0.64, 3.4028E-05, 3.4028E-05, , 
DataValue, 0.65, 3.4586000000000004E-05, 3.4586000000000004E-05, , 
DataValue, 0.66, 3.511E-05, 3.511E-05, , 
DataValue, 0.67, 3.5694E-05, 3.5694E-05, , 
DataValue, 0.68, 3.6506E-05, 3.6506E-05, , 
DataValue, 0.69000000000000006, 3.6898E-05, 3.6898E-05, , 
DataValue, 0.70000000000000007, 3.745E-05, 3.745E-05, , 
DataValue, 0.71000000000000008, 3.7908000000000004E-05, 3.7908000000000004E-05, , 
DataValue, 0.72000000000000008, 3.8814000000000005E-05, 3.8814000000000005E-05, , 
DataValue, 0.73, 3.9328E-05, 3.9328E-05, , 
DataValue, 0.74, 3.9904E-05, 3.9904E-05, , 
DataValue, 0.75, 4.0388E-05, 4.0388E-05, , 
DataValue, 0.76, 4.1020000000000004E-05, 4.1020000000000004E-05, , 
DataValue, 0.77, 4.1574E-05, 4.1574E-05, , 
DataValue, 0.78, 4.2086E-05, 4.2086E-05, , 
DataValue, 0.79, 4.2644E-05, 4.2644E-05, , 
DataValue, 0.8, 4.3188E-05, 4.3188E-05, , 
DataValue, 0.81, 4.3868E-05, 4.3868E-05, , 
DataValue, 0.82000000000000006, 4.4416E-05, 4.4416E-05, , 
DataValue, 0.83000000000000007, 4.4918E-05, 4.4918E-05, , 
DataValue, 0.84000000000000008, 4.5524E-05, 4.5524E-05, , 
DataValue, 0.85000000000000009, 4.6102E-05, 4.6102E-05, , 
DataValue, 0.86, 4.6626000000000004E-05, 4.6626000000000004E-05, , 
DataValue, 0.87, 4.7292E-05, 4.7292E-05, , 
DataValue, 0.88, 4.7924000000000004E-05, 4.7924000000000004E-05, , 
DataValue, 0.89, 4.8486E-05, 4.8486E-05, , 
DataValue, 0.9, 4.9006000000000005E-05, 4.9006000000000005E-05, , 
DataValue, 0.91, 4.952E-05, 4.952E-05, , 
DataValue, 0.92, 5.0066000000000005E-05, 5.0066000000000005E-05, , 
DataValue, 0.93, 5.0602E-05, 5.0602E-05, , 
DataValue, 0.94000000000000006, 5.1124E-05, 5.1124E-05, , 
DataValue, 0.95000000000000007, 5.1644E-05, 5.1644E-05, , 
DataValue, 0.96000000000000008, 5.2196E-05, 5.2196E-05, , 
DataValue, 0.97000000000000008, 5.2716E-05, 5.2716E-05, , 
DataValue, 0.98000000000000009, 5.325E-05, 5.325E-05, , 
DataValue, 0.9900000000000001, 5.3776E-05, 5.3776E-05, , 
DataValue, 1, 5.4288E-05, 5.4288E-05, , 
DataValue, 1.01, 5.4764E-05, 5.4764E-05, , 
DataValue, 1.02, 5.5324E-05, 5.5324E-05, , 
DataValue, 1.03, 5.5798000000000003E-05, 5.5798000000000003E-05, , 
DataValue, 1.04, 5.6386000000000005E-05, 5.6386000000000005E-05, , 
DataValue, 1.05, 5.6882E-05, 5.6882E-05, , 
DataValue, 1.06, 5.7350000000000005E-05, 5.7350000000000005E-05, , 
DataValue, 1.07, 5.7922000000000005E-05, 5.7922000000000005E-05, , 
DataValue, 1.08, 5.8416000000000004E-05, 5.8416000000000004E-05, , 
DataValue, 1.09, 5.8914000000000005E-05, 5.8914000000000005E-05, , 
DataValue, 1.1, 5.9456E-05, 5.9456E-05, , 
DataValue, 1.11, 5.9906000000000005E-05, 5.9906000000000005E-05, , 
DataValue, 1.12, 6.0424E-05, 6.0424E-05, , 
DataValue, 1.1300000000000001, 6.0948E-05, 6.0948E-05, , 
DataValue, 1.1400000000000001, 6.1388E-05, 6.1388E-05, , 
DataValue, 1.1500000000000001, 6.2008E-05, 6.2008E-05, , 
DataValue, 1.1600000000000001, 6.2642E-05, 6.2642E-05, , 
DataValue, 1.1700000000000002, 6.3208000000000009E-05, 6.3208000000000009E-05, , 
DataValue, 1.1800000000000002, 6.3692E-05, 6.3692E-05, , 
DataValue, 1.19, 6.4112E-05, 6.4112E-05, , 
DataValue, 1.2, 6.4652E-05, 6.4652E-05, , 
DataValue, 1.21, 6.5088E-05, 6.5088E-05, , 
DataValue, 1.22, 6.5552E-05, 6.5552E-05, , 
DataValue, 1.23, 6.6020000000000008E-05, 6.6020000000000008E-05, , 
DataValue, 1.24, 6.6642E-05, 6.6642E-05, , 
DataValue, 1.25, 6.7344E-05, 6.7344E-05, , 
DataValue, 1.26, 6.7804E-05, 6.7804E-05, , 
DataValue, 1.27, 6.826E-05, 6.826E-05, , 
DataValue, 1.28, 6.8702000000000007E-05, 6.8702000000000007E-05, , 
DataValue, 1.29, 6.9198E-05, 6.9198E-05, , 
DataValue, 1.3, 6.9654000000000008E-05, 6.9654000000000008E-05, , 
DataValue, 1.31, 7.0096E-05, 7.0096E-05, , 
DataValue, 1.32, 7.0472E-05, 7.0472E-05, , 
DataValue, 1.33, 7.0976E-05, 7.0976E-05, , 
DataValue, 1.34, 7.1448E-05, 7.1448E-05, , 
DataValue, 1.35, 7.1842000000000008E-05, 7.1842000000000008E-05, , 
DataValue, 1.36, 7.232E-05, 7.232E-05, , 
DataValue, 1.37, 7.29E-05, 7.29E-05, , 
DataValue, 1.3800000000000001, 7.3276000000000008E-05, 7.3276000000000008E-05, , 
DataValue, 1.3900000000000001, 7.3782E-05, 7.3782E-05, , 
DataValue, 1.4000000000000001, 7.4224E-05, 7.4224E-05, , 
DataValue, 1.4100000000000001, 7.4706E-05, 7.4706E-05, , 
DataValue, 1.4200000000000002, 7.5002E-05, 7.5002E-05, , 
DataValue, 1.4300000000000002, 7.5466E-05, 7.5466E-05, , 
DataValue, 1.4400000000000002, 7.5874E-05, 7.5874E-05, , 
DataValue, 1.4500000000000002, 7.6216E-05, 7.6216E-05, , 
DataValue, 1.46, 7.6540000000000009E-05, 7.6540000000000009E-05, , 
DataValue, 1.47, 7.7084000000000009E-05, 7.7084000000000009E-05, , 
DataValue, 1.48, 7.7522000000000008E-05, 7.7522000000000008E-05, , 
DataValue, 1.49, 7.79E-05, 7.79E-05, , 
DataValue, 1.5, 7.8224E-05, 7.8224E-05, , 
DataValue, 1.5, 7.8288E-05, 7.8288E-05, , 
DataValue, 1.49, 7.7934E-05, 7.7934E-05, , 
DataValue, 1.48, 7.7608E-05, 7.7608E-05, , 
DataValue, 1.47, 7.7076E-05, 7.7076E-05, , 
DataValue, 1.46, 7.6842000000000007E-05, 7.6842000000000007E-05, , 
DataValue, 1.4500000000000002, 7.6532E-05, 7.6532E-05, , 
DataValue, 1.4400000000000002, 7.6134E-05, 7.6134E-05, , 
DataValue, 1.4300000000000002, 7.5722E-05, 7.5722E-05, , 
DataValue, 1.4200000000000002, 7.533E-05, 7.533E-05, , 
DataValue, 1.4100000000000001, 7.4982000000000008E-05, 7.4982000000000008E-05, , 
DataValue, 1.4000000000000001, 7.4558E-05, 7.4558E-05, , 
DataValue, 1.3900000000000001, 7.4132E-05, 7.4132E-05, , 
DataValue, 1.3800000000000001, 7.3646E-05, 7.3646E-05, , 
DataValue, 1.37, 7.332E-05, 7.332E-05, , 
DataValue, 1.36, 7.2852E-05, 7.2852E-05, , 
DataValue, 1.35, 7.2464E-05, 7.2464E-05, , 
DataValue, 1.34, 7.1986E-05, 7.1986E-05, , 
DataValue, 1.33, 7.1596E-05, 7.1596E-05, , 
DataValue, 1.32, 7.117E-05, 7.117E-05, , 
DataValue, 1.31, 7.0654E-05, 7.0654E-05, , 
DataValue, 1.3, 7.0266000000000008E-05, 7.0266000000000008E-05, , 
DataValue, 1.29, 6.98E-05, 6.98E-05, , 
DataValue, 1.28, 6.9342E-05, 6.9342E-05, , 
DataValue, 1.27, 6.8856E-05, 6.8856E-05, , 
DataValue, 1.26, 6.8382E-05, 6.8382E-05, , 
DataValue, 1.25, 6.7906E-05, 6.7906E-05, , 
DataValue, 1.24, 6.7486E-05, 6.7486E-05, , 
DataValue, 1.23, 6.7002E-05, 6.7002E-05, , 
DataValue, 1.22, 6.6528E-05, 6.6528E-05, , 
DataValue, 1.21, 6.6048E-05, 6.6048E-05, , 
DataValue, 1.2, 6.559E-05, 6.559E-05, , 
DataValue, 1.19, 6.5138E-05, 6.5138E-05, , 
DataValue, 1.1800000000000002, 6.4604000000000007E-05, 6.4604000000000007E-05, , 
DataValue, 1.1700000000000002, 6.4104000000000008E-05, 6.4104000000000008E-05, , 
DataValue, 1.1600000000000001, 6.3614E-05, 6.3614E-05, , 
DataValue, 1.1500000000000001, 6.3124E-05, 6.3124E-05, , 
DataValue, 1.1400000000000001, 6.263E-05, 6.263E-05, , 
DataValue, 1.1300000000000001, 6.2136E-05, 6.2136E-05, , 
DataValue, 1.12, 6.1662000000000007E-05, 6.1662000000000007E-05, , 
DataValue, 1.11, 6.1124E-05, 6.1124E-05, , 
DataValue, 1.1, 6.0622E-05, 6.0622E-05, , 
DataValue, 1.09, 6.0048000000000005E-05, 6.0048000000000005E-05, , 
DataValue, 1.08, 5.9542E-05, 5.9542E-05, , 
DataValue, 1.07, 5.9032E-05, 5.9032E-05, , 
DataValue, 1.06, 5.8522E-05, 5.8522E-05, , 
DataValue, 1.05, 5.8E-05, 5.8E-05, , 
DataValue, 1.04, 5.7452000000000005E-05, 5.7452000000000005E-05, , 
DataValue, 1.03, 5.6996E-05, 5.6996E-05, , 
DataValue, 1.02, 5.6434E-05, 5.6434E-05, , 
DataValue, 1.01, 5.5858E-05, 5.5858E-05, , 
DataValue, 1, 5.5378000000000004E-05, 5.5378000000000004E-05, , 
DataValue, 0.9900000000000001, 5.4848E-05, 5.4848E-05, , 
DataValue, 0.98000000000000009, 5.4300000000000005E-05, 5.4300000000000005E-05, , 
DataValue, 0.97000000000000008, 5.3780000000000003E-05, 5.3780000000000003E-05, , 
DataValue, 0.96000000000000008, 5.3236E-05, 5.3236E-05, , 
DataValue, 0.95000000000000007, 5.2694E-05, 5.2694E-05, , 
DataValue, 0.94000000000000006, 5.216E-05, 5.216E-05, , 
DataValue, 0.93, 5.1612E-05, 5.1612E-05, , 
DataValue, 0.92, 5.1086000000000005E-05, 5.1086000000000005E-05, , 
DataValue, 0.91, 5.0542000000000005E-05, 5.0542000000000005E-05, , 
DataValue, 0.9, 4.9988E-05, 4.9988E-05, , 
DataValue, 0.89, 4.945E-05, 4.945E-05, , 
DataValue, 0.88, 4.8924E-05, 4.8924E-05, , 
DataValue, 0.87, 4.837E-05, 4.837E-05, , 
DataValue, 0.86, 4.7842E-05, 4.7842E-05, , 
DataValue, 0.85000000000000009, 4.7296E-05, 4.7296E-05, , 
DataValue, 0.84000000000000008, 4.671E-05, 4.671E-05, , 
DataValue, 0.83000000000000007, 4.6226E-05, 4.6226E-05, , 
DataValue, 0.82000000000000006, 4.5642E-05, 4.5642E-05, , 
DataValue, 0.81, 4.512E-05, 4.512E-05, , 
DataValue, 0.8, 4.4548E-05, 4.4548E-05, , 
DataValue, 0.79, 4.3982E-05, 4.3982E-05, , 
DataValue, 0.78, 4.3452000000000003E-05, 4.3452000000000003E-05, , 
DataValue, 0.77, 4.2922E-05, 4.2922E-05, , 
DataValue, 0.76, 4.236E-05, 4.236E-05, , 
DataValue, 0.75, 4.1826E-05, 4.1826E-05, , 
DataValue, 0.74, 4.123E-05, 4.123E-05, , 
DataValue, 0.73, 4.0688E-05, 4.0688E-05, , 
DataValue, 0.72000000000000008, 4.015E-05, 4.015E-05, , 
DataValue, 0.71000000000000008, 3.9582E-05, 3.9582E-05, , 
DataValue, 0.70000000000000007, 3.9038E-05, 3.9038E-05, , 
DataValue, 0.69000000000000006, 3.8466E-05, 3.8466E-05, , 
DataValue, 0.68, 3.7930000000000004E-05, 3.7930000000000004E-05, , 
DataValue, 0.67, 3.7380000000000005E-05, 3.7380000000000005E-05, , 
DataValue, 0.66, 3.6822E-05, 3.6822E-05, , 
DataValue, 0.65, 3.6256E-05, 3.6256E-05, , 
DataValue, 0.64, 3.569E-05, 3.569E-05, , 
DataValue, 0.63, 3.5142E-05, 3.5142E-05, , 
DataValue, 0.62, 3.4578E-05, 3.4578E-05, , 
DataValue, 0.61, 3.4006E-05, 3.4006E-05, , 
DataValue, 0.6, 3.3428E-05, 3.3428E-05, , 
DataValue, 0.59000000000000008, 3.2898E-05, 3.2898E-05, , 
DataValue, 0.58000000000000007, 3.2326E-05, 3.2326E-05, , 
