
SetupTitle, ExtFET - POS SET - VG-1.62V - TE-1.5V
PrimitiveTest, I/V Sweep
TestParameter, Context.MainFrame, B1500A
TestParameter, Channel.UnitType, SMU, SMU, SMU
TestParameter, Channel.Unit, SMU2:HR, SMU4:HR, SMU3:HR
TestParameter, Channel.IName, I_TE, I_BE, I_G
TestParameter, Channel.VName, V_TE, V_BE, V_G
TestParameter, Channel.Mode, V, COMMON, V
TestParameter, Channel.Func, VAR1, CONST, CONST
TestParameter, Channel.Index, 
TestParameter, Channel.Time, 
TestParameter, Measurement.Port.Unit, SMU2:HR, SMU4:HR, SMU3:HR
TestParameter, Measurement.Port.SeriesResistor, NONE, NONE, NONE
TestParameter, Measurement.Port.Filter, ON, ON, ON
TestParameter, Measurement.Port.OutputVoltageComparison, 0, 0, 0
TestParameter, Measurement.Primary.Locus, Double
TestParameter, Measurement.Primary.Scale, LINEAR
TestParameter, Measurement.Primary.Start, 0
TestParameter, Measurement.Primary.Stop, 1.5
TestParameter, Measurement.Primary.Step, 0.01
TestParameter, Measurement.Primary.Compliance, 0.01
TestParameter, Measurement.Primary.PowerCompliance, 0
TestParameter, Measurement.Aborting.Condition, CONTINUE AT ANY
TestParameter, Measurement.PostOutput.Value, START
TestParameter, Measurement.PostOutput.Retention, OFF
TestParameter, Measurement.Bias.Source, 0, 0, 1.62
TestParameter, Measurement.Bias.Compliance, 0.01, 0.1, 0.0001
TestParameter, Measurement.Monitor.Unit, SMU2:HR, SMU4:HR, SMU3:HR
TestParameter, Measurement.Monitor.Adc, HR ADC, HR ADC, HR ADC
TestParameter, Measurement.Monitor.Measurement, Compliance Side, Compliance Side, Compliance Side
TestParameter, Measurement.Monitor.RangingMode, LIMITED, LIMITED, LIMITED
TestParameter, Measurement.Monitor.RangeBoundary, 1nA, 1nA, 1nA
TestParameter, Measurement.Monitor.RangeRating, BY FULL RANGE, BY FULL RANGE, BY FULL RANGE
TestParameter, Measurement.Monitor.RangeRatingCoeff, 50, 50, 50
TestParameter, Measurement.Timing.Hold, 0
TestParameter, Measurement.Timing.Delay, 0
TestParameter, Measurement.Adc.HighSpeed.Mode, AUTO
TestParameter, Measurement.Adc.HighSpeed.Coeff, 1
TestParameter, Measurement.Adc.HighResolution.AutoZero, OFF
TestParameter, Measurement.Adc.HighResolution.Mode, AUTO
TestParameter, Measurement.Adc.HighResolution.Coeff, 6
TestParameter, Measurement.WaitTime.Source.Coeff, 1
TestParameter, Measurement.WaitTime.Source.Offset, 0
TestParameter, Measurement.WaitTime.Monitor.Coeff, 1
TestParameter, Measurement.WaitTime.Monitor.Offset, 0
TestParameter, Function.User.Name, absITE
TestParameter, Function.User.Unit, A
TestParameter, Function.User.Definition, abs(I_TE)
TestParameter, Output.Graph.Enabled, true
TestParameter, Output.Graph.AutoScaling, false
TestParameter, Output.Graph.XAxis.Data, V_TE
TestParameter, Output.Graph.XAxis.Scale, Linear
TestParameter, Output.Graph.XAxis.Left, 0
TestParameter, Output.Graph.XAxis.Right, 10
TestParameter, Output.Graph.XAxis.RunTimeAutoScale, true
TestParameter, Output.Graph.YAxis.Data, absITE
TestParameter, Output.Graph.YAxis.Scale, Log
TestParameter, Output.Graph.YAxis.Bottom, 0
TestParameter, Output.Graph.YAxis.Top, 1
TestParameter, Output.Graph.YAxis.Group, 
TestParameter, Output.Graph.YAxis.RunTimeAutoScale, true
TestParameter, Output.List.Data, V1, I2abs
TestParameter, AutoAnalysis.Interpolation, false
TestParameter, AutoAnalysis.Var2StepCount, 1
TestParameter, AutoAnalysis.Var2StepScript, 
TestParameter, AutoAnalysis.Line1.Enabled, false
TestParameter, AutoAnalysis.Line1.Type, 1
TestParameter, AutoAnalysis.Line1.Fix, True
TestParameter, AutoAnalysis.Line1.YAxis, 0
TestParameter, AutoAnalysis.Line1.Point1.Type, 0
TestParameter, AutoAnalysis.Line1.Point1.XY.X, 
TestParameter, AutoAnalysis.Line1.Point1.XY.Y, 
TestParameter, AutoAnalysis.Line1.Point1.Data.Var, 
TestParameter, AutoAnalysis.Line1.Point1.Data.Condition, 
TestParameter, AutoAnalysis.Line1.Point1.Data.Start, false
TestParameter, AutoAnalysis.Line1.Point1.Data.StartVar, 
TestParameter, AutoAnalysis.Line1.Point1.Data.StartCondition, 
TestParameter, AutoAnalysis.Line1.Point2.Type, 0
TestParameter, AutoAnalysis.Line1.Point2.XY.X, 
TestParameter, AutoAnalysis.Line1.Point2.XY.Y, 
TestParameter, AutoAnalysis.Line1.Point2.Data.Var, 
TestParameter, AutoAnalysis.Line1.Point2.Data.Condition, 
TestParameter, AutoAnalysis.Line1.Point2.Data.Start, false
TestParameter, AutoAnalysis.Line1.Point2.Data.StartVar, 
TestParameter, AutoAnalysis.Line1.Point2.Data.StartCondition, 
TestParameter, AutoAnalysis.Line1.GradientExpr, 0
TestParameter, AutoAnalysis.Line2.Enabled, false
TestParameter, AutoAnalysis.Line2.Type, 1
TestParameter, AutoAnalysis.Line2.Fix, True
TestParameter, AutoAnalysis.Line2.YAxis, 0
TestParameter, AutoAnalysis.Line2.Point1.Type, 0
TestParameter, AutoAnalysis.Line2.Point1.XY.X, 
TestParameter, AutoAnalysis.Line2.Point1.XY.Y, 
TestParameter, AutoAnalysis.Line2.Point1.Data.Var, 
TestParameter, AutoAnalysis.Line2.Point1.Data.Condition, 
TestParameter, AutoAnalysis.Line2.Point1.Data.Start, false
TestParameter, AutoAnalysis.Line2.Point1.Data.StartVar, 
TestParameter, AutoAnalysis.Line2.Point1.Data.StartCondition, 
TestParameter, AutoAnalysis.Line2.Point2.Type, 0
TestParameter, AutoAnalysis.Line2.Point2.XY.X, 
TestParameter, AutoAnalysis.Line2.Point2.XY.Y, 
TestParameter, AutoAnalysis.Line2.Point2.Data.Var, 
TestParameter, AutoAnalysis.Line2.Point2.Data.Condition, 
TestParameter, AutoAnalysis.Line2.Point2.Data.Start, false
TestParameter, AutoAnalysis.Line2.Point2.Data.StartVar, 
TestParameter, AutoAnalysis.Line2.Point2.Data.StartCondition, 
TestParameter, AutoAnalysis.Line2.GradientExpr, 0
TestParameter, AutoAnalysis.Marker.Enabled, false
TestParameter, AutoAnalysis.Marker.Data.Var, 
TestParameter, AutoAnalysis.Marker.Data.Condition, 
TestParameter, AutoAnalysis.Marker.Data.Start, false
TestParameter, AutoAnalysis.Marker.Data.StartVar, 
TestParameter, AutoAnalysis.Marker.Data.StartCondition, 
MetaData, TestRecord.EntryPoint, true
MetaData, TestRecord.RecordTime, 04/15/2020 14:51:39
MetaData, TestRecord.TestTarget, S48_ExtFET_3D-C06_[10k-RES]_[TiN-BE]
MetaData, TestRecord.IterationIndex, 107
MetaData, TestRecord.Preservation, true
MetaData, TestRecord.Flag, 
MetaData, TestRecord.Remarks, 
MetaData, TestRecord.LinkKey, 6acdf954-8bf2-48fe-973e-062cddc67c04
MetaData, TestRecord.Parameters, 
Dimension1, 302, 302, 302, 302, 302
Dimension2, 1, 1, 1, 1, 1
DataName, V_TE, I_TE, absITE, V1, I2abs
DataValue, 0, 2.9480000000000004E-11, 2.9480000000000004E-11, , 
DataValue, 0.01, 7.5144E-09, 7.5144E-09, , 
DataValue, 0.02, 1.5224799999999998E-08, 1.5224799999999998E-08, , 
DataValue, 0.030000000000000002, 2.29042E-08, 2.29042E-08, , 
DataValue, 0.04, 3.0239799999999994E-08, 3.0239799999999994E-08, , 
DataValue, 0.05, 3.6867999999999996E-08, 3.6867999999999996E-08, , 
DataValue, 0.060000000000000005, 4.5263399999999995E-08, 4.5263399999999995E-08, , 
DataValue, 0.07, 5.3184999999999996E-08, 5.3184999999999996E-08, , 
DataValue, 0.08, 6.1508399999999992E-08, 6.1508399999999992E-08, , 
DataValue, 0.090000000000000011, 6.9228199999999987E-08, 6.9228199999999987E-08, , 
DataValue, 0.1, 7.78478E-08, 7.78478E-08, , 
DataValue, 0.11, 7.8466799999999986E-08, 7.8466799999999986E-08, , 
DataValue, 0.12000000000000001, 8.4478E-08, 8.4478E-08, , 
DataValue, 0.13, 9.21482E-08, 9.21482E-08, , 
DataValue, 0.14, 9.6501799999999989E-08, 9.6501799999999989E-08, , 
DataValue, 0.15, 1.0607059999999999E-07, 1.0607059999999999E-07, , 
DataValue, 0.16, 1.1054E-07, 1.1054E-07, , 
DataValue, 0.17, 1.2314E-07, 1.2314E-07, , 
DataValue, 0.18000000000000002, 1.3068E-07, 1.3068E-07, , 
DataValue, 0.19, 1.397E-07, 1.397E-07, , 
DataValue, 0.2, 1.1708E-07, 1.1708E-07, , 
DataValue, 0.21000000000000002, 1.247E-07, 1.247E-07, , 
DataValue, 0.22, 1.2508E-07, 1.2508E-07, , 
DataValue, 0.23, 1.4142E-07, 1.4142E-07, , 
DataValue, 0.24000000000000002, 1.4947999999999999E-07, 1.4947999999999999E-07, , 
DataValue, 0.25, 1.4696E-07, 1.4696E-07, , 
DataValue, 0.26, 1.6864E-07, 1.6864E-07, , 
DataValue, 0.27, 1.702E-07, 1.702E-07, , 
DataValue, 0.28, 1.7921999999999999E-07, 1.7921999999999999E-07, , 
DataValue, 0.29000000000000004, 2.6228E-07, 2.6228E-07, , 
DataValue, 0.3, 2.618E-07, 2.618E-07, , 
DataValue, 0.31, 3.051E-07, 3.051E-07, , 
DataValue, 0.32, 3.2794E-07, 3.2794E-07, , 
DataValue, 0.33, 8.8025000000000008E-06, 8.8025000000000008E-06, , 
DataValue, 0.34, 1.55E-05, 1.55E-05, , 
DataValue, 0.35000000000000003, 1.6536000000000002E-05, 1.6536000000000002E-05, , 
DataValue, 0.36000000000000004, 1.7252E-05, 1.7252E-05, , 
DataValue, 0.37, 1.9106E-05, 1.9106E-05, , 
DataValue, 0.38, 1.9644E-05, 1.9644E-05, , 
DataValue, 0.39, 2.0292E-05, 2.0292E-05, , 
DataValue, 0.4, 2.0818E-05, 2.0818E-05, , 
DataValue, 0.41000000000000003, 2.1382E-05, 2.1382E-05, , 
DataValue, 0.42000000000000004, 2.1888E-05, 2.1888E-05, , 
DataValue, 0.43, 2.239E-05, 2.239E-05, , 
DataValue, 0.44, 2.296E-05, 2.296E-05, , 
DataValue, 0.45, 2.3532E-05, 2.3532E-05, , 
DataValue, 0.46, 2.408E-05, 2.408E-05, , 
DataValue, 0.47000000000000003, 2.4538E-05, 2.4538E-05, , 
DataValue, 0.48000000000000004, 2.519E-05, 2.519E-05, , 
DataValue, 0.49000000000000005, 2.6398E-05, 2.6398E-05, , 
DataValue, 0.5, 2.7026000000000002E-05, 2.7026000000000002E-05, , 
DataValue, 0.51, 2.7680000000000003E-05, 2.7680000000000003E-05, , 
DataValue, 0.52, 2.8164E-05, 2.8164E-05, , 
DataValue, 0.53, 2.8814000000000002E-05, 2.8814000000000002E-05, , 
DataValue, 0.54, 2.9344000000000002E-05, 2.9344000000000002E-05, , 
DataValue, 0.55, 2.9914000000000002E-05, 2.9914000000000002E-05, , 
DataValue, 0.56, 3.0478000000000002E-05, 3.0478000000000002E-05, , 
DataValue, 0.57000000000000006, 3.1104E-05, 3.1104E-05, , 
DataValue, 0.58000000000000007, 3.1676E-05, 3.1676E-05, , 
DataValue, 0.59000000000000008, 3.2226E-05, 3.2226E-05, , 
DataValue, 0.6, 3.278E-05, 3.278E-05, , 
DataValue, 0.61, 3.3248000000000004E-05, 3.3248000000000004E-05, , 
DataValue, 0.62, 3.3784E-05, 3.3784E-05, , 
DataValue, 0.63, 3.4372E-05, 3.4372E-05, , 
DataValue, 0.64, 3.4984E-05, 3.4984E-05, , 
DataValue, 0.65, 3.5512E-05, 3.5512E-05, , 
DataValue, 0.66, 3.6062E-05, 3.6062E-05, , 
DataValue, 0.67, 3.6632000000000004E-05, 3.6632000000000004E-05, , 
DataValue, 0.68, 3.715E-05, 3.715E-05, , 
DataValue, 0.69000000000000006, 3.771E-05, 3.771E-05, , 
DataValue, 0.70000000000000007, 3.8244E-05, 3.8244E-05, , 
DataValue, 0.71000000000000008, 3.874E-05, 3.874E-05, , 
DataValue, 0.72000000000000008, 3.934E-05, 3.934E-05, , 
DataValue, 0.73, 3.9894E-05, 3.9894E-05, , 
DataValue, 0.74, 4.0548E-05, 4.0548E-05, , 
DataValue, 0.75, 4.1190000000000004E-05, 4.1190000000000004E-05, , 
DataValue, 0.76, 4.1758E-05, 4.1758E-05, , 
DataValue, 0.77, 4.2306000000000005E-05, 4.2306000000000005E-05, , 
DataValue, 0.78, 4.2928E-05, 4.2928E-05, , 
DataValue, 0.79, 4.3452000000000003E-05, 4.3452000000000003E-05, , 
DataValue, 0.8, 4.4062E-05, 4.4062E-05, , 
DataValue, 0.81, 4.4634E-05, 4.4634E-05, , 
DataValue, 0.82000000000000006, 4.532E-05, 4.532E-05, , 
DataValue, 0.83000000000000007, 4.5872000000000004E-05, 4.5872000000000004E-05, , 
DataValue, 0.84000000000000008, 4.6408E-05, 4.6408E-05, , 
DataValue, 0.85000000000000009, 4.6960000000000004E-05, 4.6960000000000004E-05, , 
DataValue, 0.86, 4.75E-05, 4.75E-05, , 
DataValue, 0.87, 4.8066000000000004E-05, 4.8066000000000004E-05, , 
DataValue, 0.88, 4.8572E-05, 4.8572E-05, , 
DataValue, 0.89, 4.9082E-05, 4.9082E-05, , 
DataValue, 0.9, 4.9636000000000004E-05, 4.9636000000000004E-05, , 
DataValue, 0.91, 5.0162E-05, 5.0162E-05, , 
DataValue, 0.92, 5.0736000000000003E-05, 5.0736000000000003E-05, , 
DataValue, 0.93, 5.1266E-05, 5.1266E-05, , 
DataValue, 0.94000000000000006, 5.1802E-05, 5.1802E-05, , 
DataValue, 0.95000000000000007, 5.2308E-05, 5.2308E-05, , 
DataValue, 0.96000000000000008, 5.2856000000000004E-05, 5.2856000000000004E-05, , 
DataValue, 0.97000000000000008, 5.3332000000000004E-05, 5.3332000000000004E-05, , 
DataValue, 0.98000000000000009, 5.3882000000000004E-05, 5.3882000000000004E-05, , 
DataValue, 0.9900000000000001, 5.441E-05, 5.441E-05, , 
DataValue, 1, 5.4932E-05, 5.4932E-05, , 
DataValue, 1.01, 5.549E-05, 5.549E-05, , 
DataValue, 1.02, 5.5976E-05, 5.5976E-05, , 
DataValue, 1.03, 5.6546000000000004E-05, 5.6546000000000004E-05, , 
DataValue, 1.04, 5.7072000000000005E-05, 5.7072000000000005E-05, , 
DataValue, 1.05, 5.7556E-05, 5.7556E-05, , 
DataValue, 1.06, 5.8086E-05, 5.8086E-05, , 
DataValue, 1.07, 5.8656E-05, 5.8656E-05, , 
DataValue, 1.08, 5.9188E-05, 5.9188E-05, , 
DataValue, 1.09, 5.9636E-05, 5.9636E-05, , 
DataValue, 1.1, 6.0124E-05, 6.0124E-05, , 
DataValue, 1.11, 6.0624E-05, 6.0624E-05, , 
DataValue, 1.12, 6.1182E-05, 6.1182E-05, , 
DataValue, 1.1300000000000001, 6.1616E-05, 6.1616E-05, , 
DataValue, 1.1400000000000001, 6.2116E-05, 6.2116E-05, , 
DataValue, 1.1500000000000001, 6.2718E-05, 6.2718E-05, , 
DataValue, 1.1600000000000001, 6.3168E-05, 6.3168E-05, , 
DataValue, 1.1700000000000002, 6.3636E-05, 6.3636E-05, , 
DataValue, 1.1800000000000002, 6.417E-05, 6.417E-05, , 
DataValue, 1.19, 6.4626E-05, 6.4626E-05, , 
DataValue, 1.2, 6.5108E-05, 6.5108E-05, , 
DataValue, 1.21, 6.549E-05, 6.549E-05, , 
DataValue, 1.22, 6.5954E-05, 6.5954E-05, , 
DataValue, 1.23, 6.6472E-05, 6.6472E-05, , 
DataValue, 1.24, 6.6938E-05, 6.6938E-05, , 
DataValue, 1.25, 6.744E-05, 6.744E-05, , 
DataValue, 1.26, 6.79E-05, 6.79E-05, , 
DataValue, 1.27, 6.8366E-05, 6.8366E-05, , 
DataValue, 1.28, 6.874E-05, 6.874E-05, , 
DataValue, 1.29, 6.9448E-05, 6.9448E-05, , 
DataValue, 1.3, 6.989E-05, 6.989E-05, , 
DataValue, 1.31, 7.0364E-05, 7.0364E-05, , 
DataValue, 1.32, 7.0810000000000008E-05, 7.0810000000000008E-05, , 
DataValue, 1.33, 7.1328E-05, 7.1328E-05, , 
DataValue, 1.34, 7.1718000000000007E-05, 7.1718000000000007E-05, , 
DataValue, 1.35, 7.223E-05, 7.223E-05, , 
DataValue, 1.36, 7.2652000000000008E-05, 7.2652000000000008E-05, , 
DataValue, 1.37, 7.307E-05, 7.307E-05, , 
DataValue, 1.3800000000000001, 7.3466E-05, 7.3466E-05, , 
DataValue, 1.3900000000000001, 7.3908E-05, 7.3908E-05, , 
DataValue, 1.4000000000000001, 7.4314000000000007E-05, 7.4314000000000007E-05, , 
DataValue, 1.4100000000000001, 7.4712E-05, 7.4712E-05, , 
DataValue, 1.4200000000000002, 7.512E-05, 7.512E-05, , 
DataValue, 1.4300000000000002, 7.5468E-05, 7.5468E-05, , 
DataValue, 1.4400000000000002, 7.587E-05, 7.587E-05, , 
DataValue, 1.4500000000000002, 7.626E-05, 7.626E-05, , 
DataValue, 1.46, 7.663E-05, 7.663E-05, , 
DataValue, 1.47, 7.7044E-05, 7.7044E-05, , 
DataValue, 1.48, 7.742400000000001E-05, 7.742400000000001E-05, , 
DataValue, 1.49, 7.7828E-05, 7.7828E-05, , 
DataValue, 1.5, 7.8182E-05, 7.8182E-05, , 
DataValue, 1.5, 7.8112E-05, 7.8112E-05, , 
DataValue, 1.49, 7.7738000000000007E-05, 7.7738000000000007E-05, , 
DataValue, 1.48, 7.7352E-05, 7.7352E-05, , 
DataValue, 1.47, 7.6988E-05, 7.6988E-05, , 
DataValue, 1.46, 7.659E-05, 7.659E-05, , 
DataValue, 1.4500000000000002, 7.6218000000000008E-05, 7.6218000000000008E-05, , 
DataValue, 1.4400000000000002, 7.5822000000000007E-05, 7.5822000000000007E-05, , 
DataValue, 1.4300000000000002, 7.551E-05, 7.551E-05, , 
DataValue, 1.4200000000000002, 7.5212E-05, 7.5212E-05, , 
DataValue, 1.4100000000000001, 7.4824E-05, 7.4824E-05, , 
DataValue, 1.4000000000000001, 7.4446E-05, 7.4446E-05, , 
DataValue, 1.3900000000000001, 7.4022E-05, 7.4022E-05, , 
DataValue, 1.3800000000000001, 7.3478E-05, 7.3478E-05, , 
DataValue, 1.37, 7.303E-05, 7.303E-05, , 
DataValue, 1.36, 7.258E-05, 7.258E-05, , 
DataValue, 1.35, 7.2246E-05, 7.2246E-05, , 
DataValue, 1.34, 7.1858E-05, 7.1858E-05, , 
DataValue, 1.33, 7.1412E-05, 7.1412E-05, , 
DataValue, 1.32, 7.0890000000000007E-05, 7.0890000000000007E-05, , 
DataValue, 1.31, 7.0470000000000008E-05, 7.0470000000000008E-05, , 
DataValue, 1.3, 6.9858000000000008E-05, 6.9858000000000008E-05, , 
DataValue, 1.29, 6.949E-05, 6.949E-05, , 
DataValue, 1.28, 6.9024000000000009E-05, 6.9024000000000009E-05, , 
DataValue, 1.27, 6.8614E-05, 6.8614E-05, , 
DataValue, 1.26, 6.7976E-05, 6.7976E-05, , 
DataValue, 1.25, 6.7644E-05, 6.7644E-05, , 
DataValue, 1.24, 6.7114000000000008E-05, 6.7114000000000008E-05, , 
DataValue, 1.23, 6.6578E-05, 6.6578E-05, , 
DataValue, 1.22, 6.6128E-05, 6.6128E-05, , 
DataValue, 1.21, 6.5664E-05, 6.5664E-05, , 
DataValue, 1.2, 6.5168E-05, 6.5168E-05, , 
DataValue, 1.19, 6.4708E-05, 6.4708E-05, , 
DataValue, 1.1800000000000002, 6.4206E-05, 6.4206E-05, , 
DataValue, 1.1700000000000002, 6.3786E-05, 6.3786E-05, , 
DataValue, 1.1600000000000001, 6.3318E-05, 6.3318E-05, , 
DataValue, 1.1500000000000001, 6.2928E-05, 6.2928E-05, , 
DataValue, 1.1400000000000001, 6.2348000000000007E-05, 6.2348000000000007E-05, , 
DataValue, 1.1300000000000001, 6.1784E-05, 6.1784E-05, , 
DataValue, 1.12, 6.1266E-05, 6.1266E-05, , 
DataValue, 1.11, 6.0746000000000004E-05, 6.0746000000000004E-05, , 
DataValue, 1.1, 6.0274E-05, 6.0274E-05, , 
DataValue, 1.09, 5.9678E-05, 5.9678E-05, , 
DataValue, 1.08, 5.9152E-05, 5.9152E-05, , 
DataValue, 1.07, 5.8632000000000004E-05, 5.8632000000000004E-05, , 
DataValue, 1.06, 5.8214E-05, 5.8214E-05, , 
DataValue, 1.05, 5.7698E-05, 5.7698E-05, , 
DataValue, 1.04, 5.717E-05, 5.717E-05, , 
DataValue, 1.03, 5.6632E-05, 5.6632E-05, , 
DataValue, 1.02, 5.6094E-05, 5.6094E-05, , 
DataValue, 1.01, 5.559E-05, 5.559E-05, , 
DataValue, 1, 5.5092E-05, 5.5092E-05, , 
DataValue, 0.9900000000000001, 5.452E-05, 5.452E-05, , 
DataValue, 0.98000000000000009, 5.4002E-05, 5.4002E-05, , 
DataValue, 0.97000000000000008, 5.3482E-05, 5.3482E-05, , 
DataValue, 0.96000000000000008, 5.2952000000000004E-05, 5.2952000000000004E-05, , 
DataValue, 0.95000000000000007, 5.2436000000000004E-05, 5.2436000000000004E-05, , 
DataValue, 0.94000000000000006, 5.1902E-05, 5.1902E-05, , 
DataValue, 0.93, 5.1362E-05, 5.1362E-05, , 
DataValue, 0.92, 5.0826000000000004E-05, 5.0826000000000004E-05, , 
DataValue, 0.91, 5.0282000000000004E-05, 5.0282000000000004E-05, , 
DataValue, 0.9, 4.9744000000000003E-05, 4.9744000000000003E-05, , 
DataValue, 0.89, 4.9162E-05, 4.9162E-05, , 
DataValue, 0.88, 4.868E-05, 4.868E-05, , 
DataValue, 0.87, 4.812E-05, 4.812E-05, , 
DataValue, 0.86, 4.7532000000000005E-05, 4.7532000000000005E-05, , 
DataValue, 0.85000000000000009, 4.6996E-05, 4.6996E-05, , 
DataValue, 0.84000000000000008, 4.651E-05, 4.651E-05, , 
DataValue, 0.83000000000000007, 4.5954E-05, 4.5954E-05, , 
DataValue, 0.82000000000000006, 4.541E-05, 4.541E-05, , 
DataValue, 0.81, 4.4858E-05, 4.4858E-05, , 
DataValue, 0.8, 4.4314E-05, 4.4314E-05, , 
DataValue, 0.79, 4.3736E-05, 4.3736E-05, , 
DataValue, 0.78, 4.3142E-05, 4.3142E-05, , 
DataValue, 0.77, 4.2622E-05, 4.2622E-05, , 
DataValue, 0.76, 4.2086E-05, 4.2086E-05, , 
DataValue, 0.75, 4.1528E-05, 4.1528E-05, , 
DataValue, 0.74, 4.0992E-05, 4.0992E-05, , 
DataValue, 0.73, 4.0412E-05, 4.0412E-05, , 
DataValue, 0.72000000000000008, 3.9912E-05, 3.9912E-05, , 
DataValue, 0.71000000000000008, 3.931E-05, 3.931E-05, , 
DataValue, 0.70000000000000007, 3.8758000000000004E-05, 3.8758000000000004E-05, , 
DataValue, 0.69000000000000006, 3.8244E-05, 3.8244E-05, , 
DataValue, 0.68, 3.7670000000000004E-05, 3.7670000000000004E-05, , 
DataValue, 0.67, 3.7132E-05, 3.7132E-05, , 
DataValue, 0.66, 3.6528E-05, 3.6528E-05, , 
DataValue, 0.65, 3.5958000000000004E-05, 3.5958000000000004E-05, , 
DataValue, 0.64, 3.5412E-05, 3.5412E-05, , 
DataValue, 0.63, 3.4868E-05, 3.4868E-05, , 
DataValue, 0.62, 3.4342000000000004E-05, 3.4342000000000004E-05, , 
DataValue, 0.61, 3.3788E-05, 3.3788E-05, , 
DataValue, 0.6, 3.3222E-05, 3.3222E-05, , 
DataValue, 0.59000000000000008, 3.2672E-05, 3.2672E-05, , 
DataValue, 0.58000000000000007, 3.2094E-05, 3.2094E-05, , 
