
SetupTitle, ExtFET - POS SET - VG-1.62V - TE-1.5V
PrimitiveTest, I/V Sweep
TestParameter, Context.MainFrame, B1500A
TestParameter, Channel.UnitType, SMU, SMU, SMU
TestParameter, Channel.Unit, SMU2:HR, SMU4:HR, SMU3:HR
TestParameter, Channel.IName, I_TE, I_BE, I_G
TestParameter, Channel.VName, V_TE, V_BE, V_G
TestParameter, Channel.Mode, V, COMMON, V
TestParameter, Channel.Func, VAR1, CONST, CONST
TestParameter, Channel.Index, 
TestParameter, Channel.Time, 
TestParameter, Measurement.Port.Unit, SMU2:HR, SMU4:HR, SMU3:HR
TestParameter, Measurement.Port.SeriesResistor, NONE, NONE, NONE
TestParameter, Measurement.Port.Filter, ON, ON, ON
TestParameter, Measurement.Port.OutputVoltageComparison, 0, 0, 0
TestParameter, Measurement.Primary.Locus, Double
TestParameter, Measurement.Primary.Scale, LINEAR
TestParameter, Measurement.Primary.Start, 0
TestParameter, Measurement.Primary.Stop, 1.5
TestParameter, Measurement.Primary.Step, 0.01
TestParameter, Measurement.Primary.Compliance, 0.01
TestParameter, Measurement.Primary.PowerCompliance, 0
TestParameter, Measurement.Aborting.Condition, CONTINUE AT ANY
TestParameter, Measurement.PostOutput.Value, START
TestParameter, Measurement.PostOutput.Retention, OFF
TestParameter, Measurement.Bias.Source, 0, 0, 1.62
TestParameter, Measurement.Bias.Compliance, 0.01, 0.1, 0.0001
TestParameter, Measurement.Monitor.Unit, SMU2:HR, SMU4:HR, SMU3:HR
TestParameter, Measurement.Monitor.Adc, HR ADC, HR ADC, HR ADC
TestParameter, Measurement.Monitor.Measurement, Compliance Side, Compliance Side, Compliance Side
TestParameter, Measurement.Monitor.RangingMode, LIMITED, LIMITED, LIMITED
TestParameter, Measurement.Monitor.RangeBoundary, 1nA, 1nA, 1nA
TestParameter, Measurement.Monitor.RangeRating, BY FULL RANGE, BY FULL RANGE, BY FULL RANGE
TestParameter, Measurement.Monitor.RangeRatingCoeff, 50, 50, 50
TestParameter, Measurement.Timing.Hold, 0
TestParameter, Measurement.Timing.Delay, 0
TestParameter, Measurement.Adc.HighSpeed.Mode, AUTO
TestParameter, Measurement.Adc.HighSpeed.Coeff, 1
TestParameter, Measurement.Adc.HighResolution.AutoZero, OFF
TestParameter, Measurement.Adc.HighResolution.Mode, AUTO
TestParameter, Measurement.Adc.HighResolution.Coeff, 6
TestParameter, Measurement.WaitTime.Source.Coeff, 1
TestParameter, Measurement.WaitTime.Source.Offset, 0
TestParameter, Measurement.WaitTime.Monitor.Coeff, 1
TestParameter, Measurement.WaitTime.Monitor.Offset, 0
TestParameter, Function.User.Name, absITE
TestParameter, Function.User.Unit, A
TestParameter, Function.User.Definition, abs(I_TE)
TestParameter, Output.Graph.Enabled, true
TestParameter, Output.Graph.AutoScaling, false
TestParameter, Output.Graph.XAxis.Data, V_TE
TestParameter, Output.Graph.XAxis.Scale, Linear
TestParameter, Output.Graph.XAxis.Left, 0
TestParameter, Output.Graph.XAxis.Right, 10
TestParameter, Output.Graph.XAxis.RunTimeAutoScale, true
TestParameter, Output.Graph.YAxis.Data, absITE
TestParameter, Output.Graph.YAxis.Scale, Log
TestParameter, Output.Graph.YAxis.Bottom, 0
TestParameter, Output.Graph.YAxis.Top, 1
TestParameter, Output.Graph.YAxis.Group, 
TestParameter, Output.Graph.YAxis.RunTimeAutoScale, true
TestParameter, Output.List.Data, V1, I2abs
TestParameter, AutoAnalysis.Interpolation, false
TestParameter, AutoAnalysis.Var2StepCount, 1
TestParameter, AutoAnalysis.Var2StepScript, 
TestParameter, AutoAnalysis.Line1.Enabled, false
TestParameter, AutoAnalysis.Line1.Type, 1
TestParameter, AutoAnalysis.Line1.Fix, True
TestParameter, AutoAnalysis.Line1.YAxis, 0
TestParameter, AutoAnalysis.Line1.Point1.Type, 0
TestParameter, AutoAnalysis.Line1.Point1.XY.X, 
TestParameter, AutoAnalysis.Line1.Point1.XY.Y, 
TestParameter, AutoAnalysis.Line1.Point1.Data.Var, 
TestParameter, AutoAnalysis.Line1.Point1.Data.Condition, 
TestParameter, AutoAnalysis.Line1.Point1.Data.Start, false
TestParameter, AutoAnalysis.Line1.Point1.Data.StartVar, 
TestParameter, AutoAnalysis.Line1.Point1.Data.StartCondition, 
TestParameter, AutoAnalysis.Line1.Point2.Type, 0
TestParameter, AutoAnalysis.Line1.Point2.XY.X, 
TestParameter, AutoAnalysis.Line1.Point2.XY.Y, 
TestParameter, AutoAnalysis.Line1.Point2.Data.Var, 
TestParameter, AutoAnalysis.Line1.Point2.Data.Condition, 
TestParameter, AutoAnalysis.Line1.Point2.Data.Start, false
TestParameter, AutoAnalysis.Line1.Point2.Data.StartVar, 
TestParameter, AutoAnalysis.Line1.Point2.Data.StartCondition, 
TestParameter, AutoAnalysis.Line1.GradientExpr, 0
TestParameter, AutoAnalysis.Line2.Enabled, false
TestParameter, AutoAnalysis.Line2.Type, 1
TestParameter, AutoAnalysis.Line2.Fix, True
TestParameter, AutoAnalysis.Line2.YAxis, 0
TestParameter, AutoAnalysis.Line2.Point1.Type, 0
TestParameter, AutoAnalysis.Line2.Point1.XY.X, 
TestParameter, AutoAnalysis.Line2.Point1.XY.Y, 
TestParameter, AutoAnalysis.Line2.Point1.Data.Var, 
TestParameter, AutoAnalysis.Line2.Point1.Data.Condition, 
TestParameter, AutoAnalysis.Line2.Point1.Data.Start, false
TestParameter, AutoAnalysis.Line2.Point1.Data.StartVar, 
TestParameter, AutoAnalysis.Line2.Point1.Data.StartCondition, 
TestParameter, AutoAnalysis.Line2.Point2.Type, 0
TestParameter, AutoAnalysis.Line2.Point2.XY.X, 
TestParameter, AutoAnalysis.Line2.Point2.XY.Y, 
TestParameter, AutoAnalysis.Line2.Point2.Data.Var, 
TestParameter, AutoAnalysis.Line2.Point2.Data.Condition, 
TestParameter, AutoAnalysis.Line2.Point2.Data.Start, false
TestParameter, AutoAnalysis.Line2.Point2.Data.StartVar, 
TestParameter, AutoAnalysis.Line2.Point2.Data.StartCondition, 
TestParameter, AutoAnalysis.Line2.GradientExpr, 0
TestParameter, AutoAnalysis.Marker.Enabled, false
TestParameter, AutoAnalysis.Marker.Data.Var, 
TestParameter, AutoAnalysis.Marker.Data.Condition, 
TestParameter, AutoAnalysis.Marker.Data.Start, false
TestParameter, AutoAnalysis.Marker.Data.StartVar, 
TestParameter, AutoAnalysis.Marker.Data.StartCondition, 
MetaData, TestRecord.EntryPoint, true
MetaData, TestRecord.RecordTime, 04/15/2020 14:51:02
MetaData, TestRecord.TestTarget, S48_ExtFET_3D-C06_[10k-RES]_[TiN-BE]
MetaData, TestRecord.IterationIndex, 102
MetaData, TestRecord.Preservation, true
MetaData, TestRecord.Flag, 
MetaData, TestRecord.Remarks, 
MetaData, TestRecord.LinkKey, ab838b5f-7f58-4982-9e8c-8c2787a05533
MetaData, TestRecord.Parameters, 
Dimension1, 302, 302, 302, 302, 302
Dimension2, 1, 1, 1, 1, 1
DataName, V_TE, I_TE, absITE, V1, I2abs
DataValue, 0, 2.138E-11, 2.138E-11, , 
DataValue, 0.01, 1.1611599999999998E-08, 1.1611599999999998E-08, , 
DataValue, 0.02, 2.00608E-08, 2.00608E-08, , 
DataValue, 0.030000000000000002, 2.0930999999999997E-08, 2.0930999999999997E-08, , 
DataValue, 0.04, 4.9927999999999996E-08, 4.9927999999999996E-08, , 
DataValue, 0.05, 6.2944399999999993E-08, 6.2944399999999993E-08, , 
DataValue, 0.060000000000000005, 6.612839999999999E-08, 6.612839999999999E-08, , 
DataValue, 0.07, 6.0969E-08, 6.0969E-08, , 
DataValue, 0.08, 7.0129999999999993E-08, 7.0129999999999993E-08, , 
DataValue, 0.090000000000000011, 6.8327599999999993E-08, 6.8327599999999993E-08, , 
DataValue, 0.1, 7.8777399999999986E-08, 7.8777399999999986E-08, , 
DataValue, 0.11, 8.1085999999999989E-08, 8.1085999999999989E-08, , 
DataValue, 0.12000000000000001, 8.959819999999999E-08, 8.959819999999999E-08, , 
DataValue, 0.13, 9.778899999999999E-08, 9.778899999999999E-08, , 
DataValue, 0.14, 1.0578639999999999E-07, 1.0578639999999999E-07, , 
DataValue, 0.15, 1.1186E-07, 1.1186E-07, , 
DataValue, 0.16, 1.1716E-07, 1.1716E-07, , 
DataValue, 0.17, 1.9812E-07, 1.9812E-07, , 
DataValue, 0.18000000000000002, 2.4072E-07, 2.4072E-07, , 
DataValue, 0.19, 1.3992E-07, 1.3992E-07, , 
DataValue, 0.2, 1.4482E-07, 1.4482E-07, , 
DataValue, 0.21000000000000002, 1.5302E-07, 1.5302E-07, , 
DataValue, 0.22, 1.8494E-07, 1.8494E-07, , 
DataValue, 0.23, 1.5812E-07, 1.5812E-07, , 
DataValue, 0.24000000000000002, 2.8128E-07, 2.8128E-07, , 
DataValue, 0.25, 4.149E-07, 4.149E-07, , 
DataValue, 0.26, 3.8016E-07, 3.8016E-07, , 
DataValue, 0.27, 3.7005999999999997E-07, 3.7005999999999997E-07, , 
DataValue, 0.28, 5.4912E-07, 5.4912E-07, , 
DataValue, 0.29000000000000004, 9.9136000000000011E-06, 9.9136000000000011E-06, , 
DataValue, 0.3, 1.435E-05, 1.435E-05, , 
DataValue, 0.31, 1.4858E-05, 1.4858E-05, , 
DataValue, 0.32, 1.5356E-05, 1.5356E-05, , 
DataValue, 0.33, 1.593E-05, 1.593E-05, , 
DataValue, 0.34, 1.6622E-05, 1.6622E-05, , 
DataValue, 0.35000000000000003, 1.7094E-05, 1.7094E-05, , 
DataValue, 0.36000000000000004, 1.7828E-05, 1.7828E-05, , 
DataValue, 0.37, 1.8906E-05, 1.8906E-05, , 
DataValue, 0.38, 1.9576E-05, 1.9576E-05, , 
DataValue, 0.39, 2.0218000000000002E-05, 2.0218000000000002E-05, , 
DataValue, 0.4, 2.0658E-05, 2.0658E-05, , 
DataValue, 0.41000000000000003, 2.1048000000000002E-05, 2.1048000000000002E-05, , 
DataValue, 0.42000000000000004, 2.1644E-05, 2.1644E-05, , 
DataValue, 0.43, 2.2154E-05, 2.2154E-05, , 
DataValue, 0.44, 2.275E-05, 2.275E-05, , 
DataValue, 0.45, 2.3216E-05, 2.3216E-05, , 
DataValue, 0.46, 2.3876E-05, 2.3876E-05, , 
DataValue, 0.47000000000000003, 2.4682000000000002E-05, 2.4682000000000002E-05, , 
DataValue, 0.48000000000000004, 2.5366E-05, 2.5366E-05, , 
DataValue, 0.49000000000000005, 2.6026E-05, 2.6026E-05, , 
DataValue, 0.5, 2.6508E-05, 2.6508E-05, , 
DataValue, 0.51, 2.686E-05, 2.686E-05, , 
DataValue, 0.52, 2.748E-05, 2.748E-05, , 
DataValue, 0.53, 2.8148000000000002E-05, 2.8148000000000002E-05, , 
DataValue, 0.54, 2.8836E-05, 2.8836E-05, , 
DataValue, 0.55, 2.9408E-05, 2.9408E-05, , 
DataValue, 0.56, 2.9924E-05, 2.9924E-05, , 
DataValue, 0.57000000000000006, 3.0742E-05, 3.0742E-05, , 
DataValue, 0.58000000000000007, 3.1274E-05, 3.1274E-05, , 
DataValue, 0.59000000000000008, 3.181E-05, 3.181E-05, , 
DataValue, 0.6, 3.2356E-05, 3.2356E-05, , 
DataValue, 0.61, 3.2888E-05, 3.2888E-05, , 
DataValue, 0.62, 3.344E-05, 3.344E-05, , 
DataValue, 0.63, 3.3986E-05, 3.3986E-05, , 
DataValue, 0.64, 3.4524000000000004E-05, 3.4524000000000004E-05, , 
DataValue, 0.65, 3.507E-05, 3.507E-05, , 
DataValue, 0.66, 3.5614E-05, 3.5614E-05, , 
DataValue, 0.67, 3.6214E-05, 3.6214E-05, , 
DataValue, 0.68, 3.6696E-05, 3.6696E-05, , 
DataValue, 0.69000000000000006, 3.7252E-05, 3.7252E-05, , 
DataValue, 0.70000000000000007, 3.7816E-05, 3.7816E-05, , 
DataValue, 0.71000000000000008, 3.8408E-05, 3.8408E-05, , 
DataValue, 0.72000000000000008, 3.8938E-05, 3.8938E-05, , 
DataValue, 0.73, 3.957E-05, 3.957E-05, , 
DataValue, 0.74, 4.0090000000000004E-05, 4.0090000000000004E-05, , 
DataValue, 0.75, 4.061E-05, 4.061E-05, , 
DataValue, 0.76, 4.1150000000000004E-05, 4.1150000000000004E-05, , 
DataValue, 0.77, 4.1704E-05, 4.1704E-05, , 
DataValue, 0.78, 4.264E-05, 4.264E-05, , 
DataValue, 0.79, 4.3296E-05, 4.3296E-05, , 
DataValue, 0.8, 4.3832E-05, 4.3832E-05, , 
DataValue, 0.81, 4.4410000000000003E-05, 4.4410000000000003E-05, , 
DataValue, 0.82000000000000006, 4.4970000000000005E-05, 4.4970000000000005E-05, , 
DataValue, 0.83000000000000007, 4.562E-05, 4.562E-05, , 
DataValue, 0.84000000000000008, 4.616E-05, 4.616E-05, , 
DataValue, 0.85000000000000009, 4.6574000000000005E-05, 4.6574000000000005E-05, , 
DataValue, 0.86, 4.7334000000000005E-05, 4.7334000000000005E-05, , 
DataValue, 0.87, 4.7652000000000004E-05, 4.7652000000000004E-05, , 
DataValue, 0.88, 4.834E-05, 4.834E-05, , 
DataValue, 0.89, 4.889E-05, 4.889E-05, , 
DataValue, 0.9, 4.9622E-05, 4.9622E-05, , 
DataValue, 0.91, 5.012E-05, 5.012E-05, , 
DataValue, 0.92, 5.0716E-05, 5.0716E-05, , 
DataValue, 0.93, 5.1162E-05, 5.1162E-05, , 
DataValue, 0.94000000000000006, 5.1826E-05, 5.1826E-05, , 
DataValue, 0.95000000000000007, 5.2408000000000004E-05, 5.2408000000000004E-05, , 
DataValue, 0.96000000000000008, 5.28E-05, 5.28E-05, , 
DataValue, 0.97000000000000008, 5.3412E-05, 5.3412E-05, , 
DataValue, 0.98000000000000009, 5.393E-05, 5.393E-05, , 
DataValue, 0.9900000000000001, 5.4514E-05, 5.4514E-05, , 
DataValue, 1, 5.499E-05, 5.499E-05, , 
DataValue, 1.01, 5.551E-05, 5.551E-05, , 
DataValue, 1.02, 5.6298E-05, 5.6298E-05, , 
DataValue, 1.03, 5.6848E-05, 5.6848E-05, , 
DataValue, 1.04, 5.7342E-05, 5.7342E-05, , 
DataValue, 1.05, 5.7838000000000004E-05, 5.7838000000000004E-05, , 
DataValue, 1.06, 5.8528E-05, 5.8528E-05, , 
DataValue, 1.07, 5.8948000000000005E-05, 5.8948000000000005E-05, , 
DataValue, 1.08, 5.948E-05, 5.948E-05, , 
DataValue, 1.09, 5.996E-05, 5.996E-05, , 
DataValue, 1.1, 6.0404E-05, 6.0404E-05, , 
DataValue, 1.11, 6.088E-05, 6.088E-05, , 
DataValue, 1.12, 6.1376E-05, 6.1376E-05, , 
DataValue, 1.1300000000000001, 6.1982E-05, 6.1982E-05, , 
DataValue, 1.1400000000000001, 6.2494E-05, 6.2494E-05, , 
DataValue, 1.1500000000000001, 6.2952E-05, 6.2952E-05, , 
DataValue, 1.1600000000000001, 6.3458E-05, 6.3458E-05, , 
DataValue, 1.1700000000000002, 6.4006E-05, 6.4006E-05, , 
DataValue, 1.1800000000000002, 6.498E-05, 6.498E-05, , 
DataValue, 1.19, 6.5418E-05, 6.5418E-05, , 
DataValue, 1.2, 6.5938E-05, 6.5938E-05, , 
DataValue, 1.21, 6.641E-05, 6.641E-05, , 
DataValue, 1.22, 6.6838E-05, 6.6838E-05, , 
DataValue, 1.23, 6.7330000000000008E-05, 6.7330000000000008E-05, , 
DataValue, 1.24, 6.7872E-05, 6.7872E-05, , 
DataValue, 1.25, 6.8288000000000008E-05, 6.8288000000000008E-05, , 
DataValue, 1.26, 6.8776000000000007E-05, 6.8776000000000007E-05, , 
DataValue, 1.27, 6.923E-05, 6.923E-05, , 
DataValue, 1.28, 6.9618E-05, 6.9618E-05, , 
DataValue, 1.29, 7.0108E-05, 7.0108E-05, , 
DataValue, 1.3, 7.0638E-05, 7.0638E-05, , 
DataValue, 1.31, 7.1064E-05, 7.1064E-05, , 
DataValue, 1.32, 7.151E-05, 7.151E-05, , 
DataValue, 1.33, 7.1946E-05, 7.1946E-05, , 
DataValue, 1.34, 7.244E-05, 7.244E-05, , 
DataValue, 1.35, 7.2872E-05, 7.2872E-05, , 
DataValue, 1.36, 7.3252E-05, 7.3252E-05, , 
DataValue, 1.37, 7.368E-05, 7.368E-05, , 
DataValue, 1.3800000000000001, 7.4204E-05, 7.4204E-05, , 
DataValue, 1.3900000000000001, 7.4598E-05, 7.4598E-05, , 
DataValue, 1.4000000000000001, 7.4986E-05, 7.4986E-05, , 
DataValue, 1.4100000000000001, 7.5392E-05, 7.5392E-05, , 
DataValue, 1.4200000000000002, 7.5854000000000009E-05, 7.5854000000000009E-05, , 
DataValue, 1.4300000000000002, 7.6212000000000008E-05, 7.6212000000000008E-05, , 
DataValue, 1.4400000000000002, 7.6486E-05, 7.6486E-05, , 
DataValue, 1.4500000000000002, 7.6906E-05, 7.6906E-05, , 
DataValue, 1.46, 7.7224E-05, 7.7224E-05, , 
DataValue, 1.47, 7.762800000000001E-05, 7.762800000000001E-05, , 
DataValue, 1.48, 7.8022E-05, 7.8022E-05, , 
DataValue, 1.49, 7.8162E-05, 7.8162E-05, , 
DataValue, 1.5, 7.851E-05, 7.851E-05, , 
DataValue, 1.5, 7.8558E-05, 7.8558E-05, , 
DataValue, 1.49, 7.8198E-05, 7.8198E-05, , 
DataValue, 1.48, 7.7882E-05, 7.7882E-05, , 
DataValue, 1.47, 7.7468E-05, 7.7468E-05, , 
DataValue, 1.46, 7.7086E-05, 7.7086E-05, , 
DataValue, 1.4500000000000002, 7.6688000000000008E-05, 7.6688000000000008E-05, , 
DataValue, 1.4400000000000002, 7.6432E-05, 7.6432E-05, , 
DataValue, 1.4300000000000002, 7.5882E-05, 7.5882E-05, , 
DataValue, 1.4200000000000002, 7.5584E-05, 7.5584E-05, , 
DataValue, 1.4100000000000001, 7.512E-05, 7.512E-05, , 
DataValue, 1.4000000000000001, 7.459E-05, 7.459E-05, , 
DataValue, 1.3900000000000001, 7.4196E-05, 7.4196E-05, , 
DataValue, 1.3800000000000001, 7.3758000000000008E-05, 7.3758000000000008E-05, , 
DataValue, 1.37, 7.3356000000000007E-05, 7.3356000000000007E-05, , 
DataValue, 1.36, 7.295E-05, 7.295E-05, , 
DataValue, 1.35, 7.2456E-05, 7.2456E-05, , 
DataValue, 1.34, 7.1996E-05, 7.1996E-05, , 
DataValue, 1.33, 7.1526E-05, 7.1526E-05, , 
DataValue, 1.32, 7.1104E-05, 7.1104E-05, , 
DataValue, 1.31, 7.072E-05, 7.072E-05, , 
DataValue, 1.3, 7.033E-05, 7.033E-05, , 
DataValue, 1.29, 6.9926000000000008E-05, 6.9926000000000008E-05, , 
DataValue, 1.28, 6.939E-05, 6.939E-05, , 
DataValue, 1.27, 6.8980000000000007E-05, 6.8980000000000007E-05, , 
DataValue, 1.26, 6.8522E-05, 6.8522E-05, , 
DataValue, 1.25, 6.8060000000000009E-05, 6.8060000000000009E-05, , 
DataValue, 1.24, 6.7604E-05, 6.7604E-05, , 
DataValue, 1.23, 6.7112E-05, 6.7112E-05, , 
DataValue, 1.22, 6.6612E-05, 6.6612E-05, , 
DataValue, 1.21, 6.613E-05, 6.613E-05, , 
DataValue, 1.2, 6.5622E-05, 6.5622E-05, , 
DataValue, 1.19, 6.52E-05, 6.52E-05, , 
DataValue, 1.1800000000000002, 6.4716000000000009E-05, 6.4716000000000009E-05, , 
DataValue, 1.1700000000000002, 6.421E-05, 6.421E-05, , 
DataValue, 1.1600000000000001, 6.3768E-05, 6.3768E-05, , 
DataValue, 1.1500000000000001, 6.324E-05, 6.324E-05, , 
DataValue, 1.1400000000000001, 6.2738000000000008E-05, 6.2738000000000008E-05, , 
DataValue, 1.1300000000000001, 6.2224E-05, 6.2224E-05, , 
DataValue, 1.12, 6.1694E-05, 6.1694E-05, , 
DataValue, 1.11, 6.1196E-05, 6.1196E-05, , 
DataValue, 1.1, 6.0658E-05, 6.0658E-05, , 
DataValue, 1.09, 6.016E-05, 6.016E-05, , 
DataValue, 1.08, 5.9640000000000005E-05, 5.9640000000000005E-05, , 
DataValue, 1.07, 5.912E-05, 5.912E-05, , 
DataValue, 1.06, 5.8530000000000004E-05, 5.8530000000000004E-05, , 
DataValue, 1.05, 5.7982E-05, 5.7982E-05, , 
DataValue, 1.04, 5.7478E-05, 5.7478E-05, , 
DataValue, 1.03, 5.694E-05, 5.694E-05, , 
DataValue, 1.02, 5.6406E-05, 5.6406E-05, , 
DataValue, 1.01, 5.587E-05, 5.587E-05, , 
DataValue, 1, 5.5366000000000005E-05, 5.5366000000000005E-05, , 
DataValue, 0.9900000000000001, 5.4804E-05, 5.4804E-05, , 
DataValue, 0.98000000000000009, 5.4304E-05, 5.4304E-05, , 
DataValue, 0.97000000000000008, 5.3740000000000004E-05, 5.3740000000000004E-05, , 
DataValue, 0.96000000000000008, 5.3230000000000004E-05, 5.3230000000000004E-05, , 
DataValue, 0.95000000000000007, 5.2720000000000003E-05, 5.2720000000000003E-05, , 
DataValue, 0.94000000000000006, 5.2166E-05, 5.2166E-05, , 
DataValue, 0.93, 5.1642000000000005E-05, 5.1642000000000005E-05, , 
DataValue, 0.92, 5.1074E-05, 5.1074E-05, , 
DataValue, 0.91, 5.0534E-05, 5.0534E-05, , 
DataValue, 0.9, 5.0036E-05, 5.0036E-05, , 
DataValue, 0.89, 4.9472E-05, 4.9472E-05, , 
DataValue, 0.88, 4.8914E-05, 4.8914E-05, , 
DataValue, 0.87, 4.835E-05, 4.835E-05, , 
DataValue, 0.86, 4.7802E-05, 4.7802E-05, , 
DataValue, 0.85000000000000009, 4.7244000000000004E-05, 4.7244000000000004E-05, , 
DataValue, 0.84000000000000008, 4.6732E-05, 4.6732E-05, , 
DataValue, 0.83000000000000007, 4.6198E-05, 4.6198E-05, , 
DataValue, 0.82000000000000006, 4.5636E-05, 4.5636E-05, , 
DataValue, 0.81, 4.5074E-05, 4.5074E-05, , 
DataValue, 0.8, 4.451E-05, 4.451E-05, , 
DataValue, 0.79, 4.3968E-05, 4.3968E-05, , 
DataValue, 0.78, 4.3452000000000003E-05, 4.3452000000000003E-05, , 
DataValue, 0.77, 4.2922E-05, 4.2922E-05, , 
DataValue, 0.76, 4.2342E-05, 4.2342E-05, , 
DataValue, 0.75, 4.1806E-05, 4.1806E-05, , 
DataValue, 0.74, 4.125E-05, 4.125E-05, , 
DataValue, 0.73, 4.0692E-05, 4.0692E-05, , 
DataValue, 0.72000000000000008, 4.0142E-05, 4.0142E-05, , 
DataValue, 0.71000000000000008, 3.9594E-05, 3.9594E-05, , 
DataValue, 0.70000000000000007, 3.9048E-05, 3.9048E-05, , 
DataValue, 0.69000000000000006, 3.849E-05, 3.849E-05, , 
DataValue, 0.68, 3.7928E-05, 3.7928E-05, , 
DataValue, 0.67, 3.7372E-05, 3.7372E-05, , 
DataValue, 0.66, 3.6788E-05, 3.6788E-05, , 
DataValue, 0.65, 3.6208E-05, 3.6208E-05, , 
DataValue, 0.64, 3.5644E-05, 3.5644E-05, , 
DataValue, 0.63, 3.5122E-05, 3.5122E-05, , 
DataValue, 0.62, 3.456E-05, 3.456E-05, , 
DataValue, 0.61, 3.4006E-05, 3.4006E-05, , 
DataValue, 0.6, 3.344E-05, 3.344E-05, , 
DataValue, 0.59000000000000008, 3.2874000000000004E-05, 3.2874000000000004E-05, , 
DataValue, 0.58000000000000007, 3.2290000000000004E-05, 3.2290000000000004E-05, , 
DataValue, 0.57000000000000006, 3.1756E-05, 3.1756E-05, , 
DataValue, 0.56, 3.1202000000000004E-05, 3.1202000000000004E-05, , 
DataValue, 0.55, 3.0656E-05, 3.0656E-05, , 
DataValue, 0.54, 3.009E-05, 3.009E-05, , 
DataValue, 0.53, 2.9538E-05, 2.9538E-05, , 
