
SetupTitle, ExtFET - POS SET - VG-1.62V - TE-1.5V
PrimitiveTest, I/V Sweep
TestParameter, Context.MainFrame, B1500A
TestParameter, Channel.UnitType, SMU, SMU, SMU
TestParameter, Channel.Unit, SMU2:HR, SMU4:HR, SMU3:HR
TestParameter, Channel.IName, I_TE, I_BE, I_G
TestParameter, Channel.VName, V_TE, V_BE, V_G
TestParameter, Channel.Mode, V, COMMON, V
TestParameter, Channel.Func, VAR1, CONST, CONST
TestParameter, Channel.Index, 
TestParameter, Channel.Time, 
TestParameter, Measurement.Port.Unit, SMU2:HR, SMU4:HR, SMU3:HR
TestParameter, Measurement.Port.SeriesResistor, NONE, NONE, NONE
TestParameter, Measurement.Port.Filter, ON, ON, ON
TestParameter, Measurement.Port.OutputVoltageComparison, 0, 0, 0
TestParameter, Measurement.Primary.Locus, Double
TestParameter, Measurement.Primary.Scale, LINEAR
TestParameter, Measurement.Primary.Start, 0
TestParameter, Measurement.Primary.Stop, 1.5
TestParameter, Measurement.Primary.Step, 0.01
TestParameter, Measurement.Primary.Compliance, 0.01
TestParameter, Measurement.Primary.PowerCompliance, 0
TestParameter, Measurement.Aborting.Condition, CONTINUE AT ANY
TestParameter, Measurement.PostOutput.Value, START
TestParameter, Measurement.PostOutput.Retention, OFF
TestParameter, Measurement.Bias.Source, 0, 0, 1.62
TestParameter, Measurement.Bias.Compliance, 0.01, 0.1, 0.0001
TestParameter, Measurement.Monitor.Unit, SMU2:HR, SMU4:HR, SMU3:HR
TestParameter, Measurement.Monitor.Adc, HR ADC, HR ADC, HR ADC
TestParameter, Measurement.Monitor.Measurement, Compliance Side, Compliance Side, Compliance Side
TestParameter, Measurement.Monitor.RangingMode, LIMITED, LIMITED, LIMITED
TestParameter, Measurement.Monitor.RangeBoundary, 1nA, 1nA, 1nA
TestParameter, Measurement.Monitor.RangeRating, BY FULL RANGE, BY FULL RANGE, BY FULL RANGE
TestParameter, Measurement.Monitor.RangeRatingCoeff, 50, 50, 50
TestParameter, Measurement.Timing.Hold, 0
TestParameter, Measurement.Timing.Delay, 0
TestParameter, Measurement.Adc.HighSpeed.Mode, AUTO
TestParameter, Measurement.Adc.HighSpeed.Coeff, 1
TestParameter, Measurement.Adc.HighResolution.AutoZero, OFF
TestParameter, Measurement.Adc.HighResolution.Mode, AUTO
TestParameter, Measurement.Adc.HighResolution.Coeff, 6
TestParameter, Measurement.WaitTime.Source.Coeff, 1
TestParameter, Measurement.WaitTime.Source.Offset, 0
TestParameter, Measurement.WaitTime.Monitor.Coeff, 1
TestParameter, Measurement.WaitTime.Monitor.Offset, 0
TestParameter, Function.User.Name, absITE
TestParameter, Function.User.Unit, A
TestParameter, Function.User.Definition, abs(I_TE)
TestParameter, Output.Graph.Enabled, true
TestParameter, Output.Graph.AutoScaling, false
TestParameter, Output.Graph.XAxis.Data, V_TE
TestParameter, Output.Graph.XAxis.Scale, Linear
TestParameter, Output.Graph.XAxis.Left, 0
TestParameter, Output.Graph.XAxis.Right, 10
TestParameter, Output.Graph.XAxis.RunTimeAutoScale, true
TestParameter, Output.Graph.YAxis.Data, absITE
TestParameter, Output.Graph.YAxis.Scale, Log
TestParameter, Output.Graph.YAxis.Bottom, 0
TestParameter, Output.Graph.YAxis.Top, 1
TestParameter, Output.Graph.YAxis.Group, 
TestParameter, Output.Graph.YAxis.RunTimeAutoScale, true
TestParameter, Output.List.Data, V1, I2abs
TestParameter, AutoAnalysis.Interpolation, false
TestParameter, AutoAnalysis.Var2StepCount, 1
TestParameter, AutoAnalysis.Var2StepScript, 
TestParameter, AutoAnalysis.Line1.Enabled, false
TestParameter, AutoAnalysis.Line1.Type, 1
TestParameter, AutoAnalysis.Line1.Fix, True
TestParameter, AutoAnalysis.Line1.YAxis, 0
TestParameter, AutoAnalysis.Line1.Point1.Type, 0
TestParameter, AutoAnalysis.Line1.Point1.XY.X, 
TestParameter, AutoAnalysis.Line1.Point1.XY.Y, 
TestParameter, AutoAnalysis.Line1.Point1.Data.Var, 
TestParameter, AutoAnalysis.Line1.Point1.Data.Condition, 
TestParameter, AutoAnalysis.Line1.Point1.Data.Start, false
TestParameter, AutoAnalysis.Line1.Point1.Data.StartVar, 
TestParameter, AutoAnalysis.Line1.Point1.Data.StartCondition, 
TestParameter, AutoAnalysis.Line1.Point2.Type, 0
TestParameter, AutoAnalysis.Line1.Point2.XY.X, 
TestParameter, AutoAnalysis.Line1.Point2.XY.Y, 
TestParameter, AutoAnalysis.Line1.Point2.Data.Var, 
TestParameter, AutoAnalysis.Line1.Point2.Data.Condition, 
TestParameter, AutoAnalysis.Line1.Point2.Data.Start, false
TestParameter, AutoAnalysis.Line1.Point2.Data.StartVar, 
TestParameter, AutoAnalysis.Line1.Point2.Data.StartCondition, 
TestParameter, AutoAnalysis.Line1.GradientExpr, 0
TestParameter, AutoAnalysis.Line2.Enabled, false
TestParameter, AutoAnalysis.Line2.Type, 1
TestParameter, AutoAnalysis.Line2.Fix, True
TestParameter, AutoAnalysis.Line2.YAxis, 0
TestParameter, AutoAnalysis.Line2.Point1.Type, 0
TestParameter, AutoAnalysis.Line2.Point1.XY.X, 
TestParameter, AutoAnalysis.Line2.Point1.XY.Y, 
TestParameter, AutoAnalysis.Line2.Point1.Data.Var, 
TestParameter, AutoAnalysis.Line2.Point1.Data.Condition, 
TestParameter, AutoAnalysis.Line2.Point1.Data.Start, false
TestParameter, AutoAnalysis.Line2.Point1.Data.StartVar, 
TestParameter, AutoAnalysis.Line2.Point1.Data.StartCondition, 
TestParameter, AutoAnalysis.Line2.Point2.Type, 0
TestParameter, AutoAnalysis.Line2.Point2.XY.X, 
TestParameter, AutoAnalysis.Line2.Point2.XY.Y, 
TestParameter, AutoAnalysis.Line2.Point2.Data.Var, 
TestParameter, AutoAnalysis.Line2.Point2.Data.Condition, 
TestParameter, AutoAnalysis.Line2.Point2.Data.Start, false
TestParameter, AutoAnalysis.Line2.Point2.Data.StartVar, 
TestParameter, AutoAnalysis.Line2.Point2.Data.StartCondition, 
TestParameter, AutoAnalysis.Line2.GradientExpr, 0
TestParameter, AutoAnalysis.Marker.Enabled, false
TestParameter, AutoAnalysis.Marker.Data.Var, 
TestParameter, AutoAnalysis.Marker.Data.Condition, 
TestParameter, AutoAnalysis.Marker.Data.Start, false
TestParameter, AutoAnalysis.Marker.Data.StartVar, 
TestParameter, AutoAnalysis.Marker.Data.StartCondition, 
MetaData, TestRecord.EntryPoint, true
MetaData, TestRecord.RecordTime, 04/15/2020 14:50:47
MetaData, TestRecord.TestTarget, S48_ExtFET_3D-C06_[10k-RES]_[TiN-BE]
MetaData, TestRecord.IterationIndex, 100
MetaData, TestRecord.Preservation, true
MetaData, TestRecord.Flag, 
MetaData, TestRecord.Remarks, 
MetaData, TestRecord.LinkKey, 10027eb7-8724-44fe-958c-cc203210f9b3
MetaData, TestRecord.Parameters, 
Dimension1, 302, 302, 302, 302, 302
Dimension2, 1, 1, 1, 1, 1
DataName, V_TE, I_TE, absITE, V1, I2abs
DataValue, 0, 5.6760000000000006E-11, 5.6760000000000006E-11, , 
DataValue, 0.01, 1.4818199999999998E-08, 1.4818199999999998E-08, , 
DataValue, 0.02, 2.9794199999999996E-08, 2.9794199999999996E-08, , 
DataValue, 0.030000000000000002, 4.43624E-08, 4.43624E-08, , 
DataValue, 0.04, 5.9044199999999993E-08, 5.9044199999999993E-08, , 
DataValue, 0.05, 7.34316E-08, 7.34316E-08, , 
DataValue, 0.060000000000000005, 8.8360399999999987E-08, 8.8360399999999987E-08, , 
DataValue, 0.07, 1.023516E-07, 1.023516E-07, , 
DataValue, 0.08, 1.1862E-07, 1.1862E-07, , 
DataValue, 0.090000000000000011, 1.3338E-07, 1.3338E-07, , 
DataValue, 0.1, 1.4916E-07, 1.4916E-07, , 
DataValue, 0.11, 1.6588E-07, 1.6588E-07, , 
DataValue, 0.12000000000000001, 1.7874E-07, 1.7874E-07, , 
DataValue, 0.13, 2.057E-07, 2.057E-07, , 
DataValue, 0.14, 2.1328E-07, 2.1328E-07, , 
DataValue, 0.15, 2.2868E-07, 2.2868E-07, , 
DataValue, 0.16, 2.4998E-07, 2.4998E-07, , 
DataValue, 0.17, 2.7382E-07, 2.7382E-07, , 
DataValue, 0.18000000000000002, 2.8102E-07, 2.8102E-07, , 
DataValue, 0.19, 3.0094E-07, 3.0094E-07, , 
DataValue, 0.2, 3.2046E-07, 3.2046E-07, , 
DataValue, 0.21000000000000002, 3.4038E-07, 3.4038E-07, , 
DataValue, 0.22, 3.496E-07, 3.496E-07, , 
DataValue, 0.23, 3.7976E-07, 3.7976E-07, , 
DataValue, 0.24000000000000002, 3.3742E-07, 3.3742E-07, , 
DataValue, 0.25, 3.1193999999999997E-07, 3.1193999999999997E-07, , 
DataValue, 0.26, 3.1428E-07, 3.1428E-07, , 
DataValue, 0.27, 3.3492E-07, 3.3492E-07, , 
DataValue, 0.28, 3.8012E-07, 3.8012E-07, , 
DataValue, 0.29000000000000004, 3.648E-07, 3.648E-07, , 
DataValue, 0.3, 3.3814E-07, 3.3814E-07, , 
DataValue, 0.31, 5.018E-07, 5.018E-07, , 
DataValue, 0.32, 1.5044E-05, 1.5044E-05, , 
DataValue, 0.33, 1.5836000000000002E-05, 1.5836000000000002E-05, , 
DataValue, 0.34, 1.645E-05, 1.645E-05, , 
DataValue, 0.35000000000000003, 1.7542E-05, 1.7542E-05, , 
DataValue, 0.36000000000000004, 1.7962000000000002E-05, 1.7962000000000002E-05, , 
DataValue, 0.37, 1.8408E-05, 1.8408E-05, , 
DataValue, 0.38, 1.8952E-05, 1.8952E-05, , 
DataValue, 0.39, 1.942E-05, 1.942E-05, , 
DataValue, 0.4, 1.9988E-05, 1.9988E-05, , 
DataValue, 0.41000000000000003, 2.0546E-05, 2.0546E-05, , 
DataValue, 0.42000000000000004, 2.1056E-05, 2.1056E-05, , 
DataValue, 0.43, 2.1586E-05, 2.1586E-05, , 
DataValue, 0.44, 2.2606E-05, 2.2606E-05, , 
DataValue, 0.45, 2.3066000000000002E-05, 2.3066000000000002E-05, , 
DataValue, 0.46, 2.3676E-05, 2.3676E-05, , 
DataValue, 0.47000000000000003, 2.4236E-05, 2.4236E-05, , 
DataValue, 0.48000000000000004, 2.4702E-05, 2.4702E-05, , 
DataValue, 0.49000000000000005, 2.537E-05, 2.537E-05, , 
DataValue, 0.5, 2.5836E-05, 2.5836E-05, , 
DataValue, 0.51, 2.6436000000000002E-05, 2.6436000000000002E-05, , 
DataValue, 0.52, 2.6976E-05, 2.6976E-05, , 
DataValue, 0.53, 2.7466E-05, 2.7466E-05, , 
DataValue, 0.54, 2.8934E-05, 2.8934E-05, , 
DataValue, 0.55, 2.9478E-05, 2.9478E-05, , 
DataValue, 0.56, 3.0032E-05, 3.0032E-05, , 
DataValue, 0.57000000000000006, 3.0672E-05, 3.0672E-05, , 
DataValue, 0.58000000000000007, 3.1272E-05, 3.1272E-05, , 
DataValue, 0.59000000000000008, 3.1826E-05, 3.1826E-05, , 
DataValue, 0.6, 3.2282E-05, 3.2282E-05, , 
DataValue, 0.61, 3.2816E-05, 3.2816E-05, , 
DataValue, 0.62, 3.3390000000000004E-05, 3.3390000000000004E-05, , 
DataValue, 0.63, 3.395E-05, 3.395E-05, , 
DataValue, 0.64, 3.4410000000000004E-05, 3.4410000000000004E-05, , 
DataValue, 0.65, 3.4968E-05, 3.4968E-05, , 
DataValue, 0.66, 3.5462E-05, 3.5462E-05, , 
DataValue, 0.67, 3.6098E-05, 3.6098E-05, , 
DataValue, 0.68, 3.6564000000000004E-05, 3.6564000000000004E-05, , 
DataValue, 0.69000000000000006, 3.7132E-05, 3.7132E-05, , 
DataValue, 0.70000000000000007, 3.7714E-05, 3.7714E-05, , 
DataValue, 0.71000000000000008, 3.8228E-05, 3.8228E-05, , 
DataValue, 0.72000000000000008, 3.8778E-05, 3.8778E-05, , 
DataValue, 0.73, 3.9362E-05, 3.9362E-05, , 
DataValue, 0.74, 3.9918E-05, 3.9918E-05, , 
DataValue, 0.75, 4.0442000000000003E-05, 4.0442000000000003E-05, , 
DataValue, 0.76, 4.101E-05, 4.101E-05, , 
DataValue, 0.77, 4.1608E-05, 4.1608E-05, , 
DataValue, 0.78, 4.2256E-05, 4.2256E-05, , 
DataValue, 0.79, 4.2806E-05, 4.2806E-05, , 
DataValue, 0.8, 4.3348E-05, 4.3348E-05, , 
DataValue, 0.81, 4.3974E-05, 4.3974E-05, , 
DataValue, 0.82000000000000006, 4.4500000000000004E-05, 4.4500000000000004E-05, , 
DataValue, 0.83000000000000007, 4.5010000000000004E-05, 4.5010000000000004E-05, , 
DataValue, 0.84000000000000008, 4.5546E-05, 4.5546E-05, , 
DataValue, 0.85000000000000009, 4.6054E-05, 4.6054E-05, , 
DataValue, 0.86, 4.6614000000000005E-05, 4.6614000000000005E-05, , 
DataValue, 0.87, 4.723E-05, 4.723E-05, , 
DataValue, 0.88, 4.7774E-05, 4.7774E-05, , 
DataValue, 0.89, 4.8294E-05, 4.8294E-05, , 
DataValue, 0.9, 4.8684000000000003E-05, 4.8684000000000003E-05, , 
DataValue, 0.91, 4.9206E-05, 4.9206E-05, , 
DataValue, 0.92, 4.9734E-05, 4.9734E-05, , 
DataValue, 0.93, 5.0286E-05, 5.0286E-05, , 
DataValue, 0.94000000000000006, 5.0804000000000004E-05, 5.0804000000000004E-05, , 
DataValue, 0.95000000000000007, 5.1316E-05, 5.1316E-05, , 
DataValue, 0.96000000000000008, 5.1812000000000005E-05, 5.1812000000000005E-05, , 
DataValue, 0.97000000000000008, 5.2674000000000004E-05, 5.2674000000000004E-05, , 
DataValue, 0.98000000000000009, 5.3058E-05, 5.3058E-05, , 
DataValue, 0.9900000000000001, 5.3932000000000005E-05, 5.3932000000000005E-05, , 
DataValue, 1, 5.4568E-05, 5.4568E-05, , 
DataValue, 1.01, 5.515E-05, 5.515E-05, , 
DataValue, 1.02, 5.5706000000000005E-05, 5.5706000000000005E-05, , 
DataValue, 1.03, 5.6162E-05, 5.6162E-05, , 
DataValue, 1.04, 5.6676000000000004E-05, 5.6676000000000004E-05, , 
DataValue, 1.05, 5.7184E-05, 5.7184E-05, , 
DataValue, 1.06, 5.7732E-05, 5.7732E-05, , 
DataValue, 1.07, 5.8236E-05, 5.8236E-05, , 
DataValue, 1.08, 5.8988000000000005E-05, 5.8988000000000005E-05, , 
DataValue, 1.09, 5.9572000000000005E-05, 5.9572000000000005E-05, , 
DataValue, 1.1, 6.0234E-05, 6.0234E-05, , 
DataValue, 1.11, 6.0832E-05, 6.0832E-05, , 
DataValue, 1.12, 6.128E-05, 6.128E-05, , 
DataValue, 1.1300000000000001, 6.1754E-05, 6.1754E-05, , 
DataValue, 1.1400000000000001, 6.2278E-05, 6.2278E-05, , 
DataValue, 1.1500000000000001, 6.2786E-05, 6.2786E-05, , 
DataValue, 1.1600000000000001, 6.3192E-05, 6.3192E-05, , 
DataValue, 1.1700000000000002, 6.366E-05, 6.366E-05, , 
DataValue, 1.1800000000000002, 6.4184000000000008E-05, 6.4184000000000008E-05, , 
DataValue, 1.19, 6.464E-05, 6.464E-05, , 
DataValue, 1.2, 6.5108E-05, 6.5108E-05, , 
DataValue, 1.21, 6.553E-05, 6.553E-05, , 
DataValue, 1.22, 6.6124E-05, 6.6124E-05, , 
DataValue, 1.23, 6.6566E-05, 6.6566E-05, , 
DataValue, 1.24, 6.7168E-05, 6.7168E-05, , 
DataValue, 1.25, 6.7502E-05, 6.7502E-05, , 
DataValue, 1.26, 6.8078000000000008E-05, 6.8078000000000008E-05, , 
DataValue, 1.27, 6.854E-05, 6.854E-05, , 
DataValue, 1.28, 6.8986E-05, 6.8986E-05, , 
DataValue, 1.29, 6.9494000000000009E-05, 6.9494000000000009E-05, , 
DataValue, 1.3, 6.9902E-05, 6.9902E-05, , 
DataValue, 1.31, 7.045E-05, 7.045E-05, , 
DataValue, 1.32, 7.0854E-05, 7.0854E-05, , 
DataValue, 1.33, 7.1304000000000007E-05, 7.1304000000000007E-05, , 
DataValue, 1.34, 7.1732E-05, 7.1732E-05, , 
DataValue, 1.35, 7.2192E-05, 7.2192E-05, , 
DataValue, 1.36, 7.2578000000000009E-05, 7.2578000000000009E-05, , 
DataValue, 1.37, 7.2964E-05, 7.2964E-05, , 
DataValue, 1.3800000000000001, 7.3414E-05, 7.3414E-05, , 
DataValue, 1.3900000000000001, 7.3820000000000008E-05, 7.3820000000000008E-05, , 
DataValue, 1.4000000000000001, 7.4176E-05, 7.4176E-05, , 
DataValue, 1.4100000000000001, 7.4622E-05, 7.4622E-05, , 
DataValue, 1.4200000000000002, 7.5082E-05, 7.5082E-05, , 
DataValue, 1.4300000000000002, 7.5458000000000008E-05, 7.5458000000000008E-05, , 
DataValue, 1.4400000000000002, 7.5854000000000009E-05, 7.5854000000000009E-05, , 
DataValue, 1.4500000000000002, 7.622E-05, 7.622E-05, , 
DataValue, 1.46, 7.6706000000000007E-05, 7.6706000000000007E-05, , 
DataValue, 1.47, 7.7170000000000008E-05, 7.7170000000000008E-05, , 
DataValue, 1.48, 7.7488E-05, 7.7488E-05, , 
DataValue, 1.49, 7.7942000000000007E-05, 7.7942000000000007E-05, , 
DataValue, 1.5, 7.8272E-05, 7.8272E-05, , 
DataValue, 1.5, 7.8242E-05, 7.8242E-05, , 
DataValue, 1.49, 7.789E-05, 7.789E-05, , 
DataValue, 1.48, 7.7518E-05, 7.7518E-05, , 
DataValue, 1.47, 7.7168E-05, 7.7168E-05, , 
DataValue, 1.46, 7.6858E-05, 7.6858E-05, , 
DataValue, 1.4500000000000002, 7.642E-05, 7.642E-05, , 
DataValue, 1.4400000000000002, 7.6018E-05, 7.6018E-05, , 
DataValue, 1.4300000000000002, 7.5636E-05, 7.5636E-05, , 
DataValue, 1.4200000000000002, 7.5204000000000007E-05, 7.5204000000000007E-05, , 
DataValue, 1.4100000000000001, 7.4806E-05, 7.4806E-05, , 
DataValue, 1.4000000000000001, 7.4392E-05, 7.4392E-05, , 
DataValue, 1.3900000000000001, 7.4012000000000009E-05, 7.4012000000000009E-05, , 
DataValue, 1.3800000000000001, 7.359E-05, 7.359E-05, , 
DataValue, 1.37, 7.3166E-05, 7.3166E-05, , 
DataValue, 1.36, 7.2764E-05, 7.2764E-05, , 
DataValue, 1.35, 7.2352E-05, 7.2352E-05, , 
DataValue, 1.34, 7.188E-05, 7.188E-05, , 
DataValue, 1.33, 7.1358E-05, 7.1358E-05, , 
DataValue, 1.32, 7.1006E-05, 7.1006E-05, , 
DataValue, 1.31, 7.0544000000000008E-05, 7.0544000000000008E-05, , 
DataValue, 1.3, 7.0112000000000009E-05, 7.0112000000000009E-05, , 
DataValue, 1.29, 6.9638E-05, 6.9638E-05, , 
DataValue, 1.28, 6.92E-05, 6.92E-05, , 
DataValue, 1.27, 6.87E-05, 6.87E-05, , 
DataValue, 1.26, 6.8234E-05, 6.8234E-05, , 
DataValue, 1.25, 6.7796E-05, 6.7796E-05, , 
DataValue, 1.24, 6.734E-05, 6.734E-05, , 
DataValue, 1.23, 6.6860000000000007E-05, 6.6860000000000007E-05, , 
DataValue, 1.22, 6.6392E-05, 6.6392E-05, , 
DataValue, 1.21, 6.5844E-05, 6.5844E-05, , 
DataValue, 1.2, 6.5404E-05, 6.5404E-05, , 
DataValue, 1.19, 6.4932000000000008E-05, 6.4932000000000008E-05, , 
DataValue, 1.1800000000000002, 6.4474E-05, 6.4474E-05, , 
DataValue, 1.1700000000000002, 6.3938E-05, 6.3938E-05, , 
DataValue, 1.1600000000000001, 6.3434E-05, 6.3434E-05, , 
DataValue, 1.1500000000000001, 6.297E-05, 6.297E-05, , 
DataValue, 1.1400000000000001, 6.2460000000000008E-05, 6.2460000000000008E-05, , 
DataValue, 1.1300000000000001, 6.196E-05, 6.196E-05, , 
DataValue, 1.12, 6.1514000000000008E-05, 6.1514000000000008E-05, , 
DataValue, 1.11, 6.0992E-05, 6.0992E-05, , 
DataValue, 1.1, 6.0438E-05, 6.0438E-05, , 
DataValue, 1.09, 5.9940000000000005E-05, 5.9940000000000005E-05, , 
DataValue, 1.08, 5.9452E-05, 5.9452E-05, , 
DataValue, 1.07, 5.8932000000000004E-05, 5.8932000000000004E-05, , 
DataValue, 1.06, 5.8398E-05, 5.8398E-05, , 
DataValue, 1.05, 5.7882E-05, 5.7882E-05, , 
DataValue, 1.04, 5.733E-05, 5.733E-05, , 
DataValue, 1.03, 5.6768E-05, 5.6768E-05, , 
DataValue, 1.02, 5.6284000000000005E-05, 5.6284000000000005E-05, , 
DataValue, 1.01, 5.5780000000000005E-05, 5.5780000000000005E-05, , 
DataValue, 1, 5.5248000000000004E-05, 5.5248000000000004E-05, , 
DataValue, 0.9900000000000001, 5.4702E-05, 5.4702E-05, , 
DataValue, 0.98000000000000009, 5.4172E-05, 5.4172E-05, , 
DataValue, 0.97000000000000008, 5.3632000000000004E-05, 5.3632000000000004E-05, , 
DataValue, 0.96000000000000008, 5.3158E-05, 5.3158E-05, , 
DataValue, 0.95000000000000007, 5.2574E-05, 5.2574E-05, , 
DataValue, 0.94000000000000006, 5.2082E-05, 5.2082E-05, , 
DataValue, 0.93, 5.1484000000000004E-05, 5.1484000000000004E-05, , 
DataValue, 0.92, 5.0966E-05, 5.0966E-05, , 
DataValue, 0.91, 5.046E-05, 5.046E-05, , 
DataValue, 0.9, 4.9884E-05, 4.9884E-05, , 
DataValue, 0.89, 4.9398000000000004E-05, 4.9398000000000004E-05, , 
DataValue, 0.88, 4.888E-05, 4.888E-05, , 
DataValue, 0.87, 4.8266E-05, 4.8266E-05, , 
DataValue, 0.86, 4.7748000000000004E-05, 4.7748000000000004E-05, , 
DataValue, 0.85000000000000009, 4.7168E-05, 4.7168E-05, , 
DataValue, 0.84000000000000008, 4.6584E-05, 4.6584E-05, , 
DataValue, 0.83000000000000007, 4.6076000000000004E-05, 4.6076000000000004E-05, , 
DataValue, 0.82000000000000006, 4.555E-05, 4.555E-05, , 
DataValue, 0.81, 4.4932E-05, 4.4932E-05, , 
DataValue, 0.8, 4.4442E-05, 4.4442E-05, , 
DataValue, 0.79, 4.3852E-05, 4.3852E-05, , 
DataValue, 0.78, 4.335E-05, 4.335E-05, , 
DataValue, 0.77, 4.2796E-05, 4.2796E-05, , 
DataValue, 0.76, 4.2244000000000004E-05, 4.2244000000000004E-05, , 
DataValue, 0.75, 4.1694000000000004E-05, 4.1694000000000004E-05, , 
DataValue, 0.74, 4.114E-05, 4.114E-05, , 
DataValue, 0.73, 4.0584E-05, 4.0584E-05, , 
DataValue, 0.72000000000000008, 4.0026E-05, 4.0026E-05, , 
DataValue, 0.71000000000000008, 3.9462E-05, 3.9462E-05, , 
DataValue, 0.70000000000000007, 3.8926E-05, 3.8926E-05, , 
DataValue, 0.69000000000000006, 3.837E-05, 3.837E-05, , 
DataValue, 0.68, 3.7784E-05, 3.7784E-05, , 
DataValue, 0.67, 3.7222000000000004E-05, 3.7222000000000004E-05, , 
DataValue, 0.66, 3.6700000000000004E-05, 3.6700000000000004E-05, , 
DataValue, 0.65, 3.6148E-05, 3.6148E-05, , 
DataValue, 0.64, 3.557E-05, 3.557E-05, , 
DataValue, 0.63, 3.5032E-05, 3.5032E-05, , 
DataValue, 0.62, 3.4494E-05, 3.4494E-05, , 
DataValue, 0.61, 3.3926E-05, 3.3926E-05, , 
DataValue, 0.6, 3.336E-05, 3.336E-05, , 
DataValue, 0.59000000000000008, 3.2794E-05, 3.2794E-05, , 
DataValue, 0.58000000000000007, 3.226E-05, 3.226E-05, , 
DataValue, 0.57000000000000006, 3.1678000000000004E-05, 3.1678000000000004E-05, , 
