
SetupTitle, ExtFET - POS SET - VG-1.62V - TE-1.5V
PrimitiveTest, I/V Sweep
TestParameter, Context.MainFrame, B1500A
TestParameter, Channel.UnitType, SMU, SMU, SMU
TestParameter, Channel.Unit, SMU2:HR, SMU4:HR, SMU3:HR
TestParameter, Channel.IName, I_TE, I_BE, I_G
TestParameter, Channel.VName, V_TE, V_BE, V_G
TestParameter, Channel.Mode, V, COMMON, V
TestParameter, Channel.Func, VAR1, CONST, CONST
TestParameter, Channel.Index, 
TestParameter, Channel.Time, 
TestParameter, Measurement.Port.Unit, SMU2:HR, SMU4:HR, SMU3:HR
TestParameter, Measurement.Port.SeriesResistor, NONE, NONE, NONE
TestParameter, Measurement.Port.Filter, ON, ON, ON
TestParameter, Measurement.Port.OutputVoltageComparison, 0, 0, 0
TestParameter, Measurement.Primary.Locus, Double
TestParameter, Measurement.Primary.Scale, LINEAR
TestParameter, Measurement.Primary.Start, 0
TestParameter, Measurement.Primary.Stop, 1.5
TestParameter, Measurement.Primary.Step, 0.01
TestParameter, Measurement.Primary.Compliance, 0.01
TestParameter, Measurement.Primary.PowerCompliance, 0
TestParameter, Measurement.Aborting.Condition, CONTINUE AT ANY
TestParameter, Measurement.PostOutput.Value, START
TestParameter, Measurement.PostOutput.Retention, OFF
TestParameter, Measurement.Bias.Source, 0, 0, 1.62
TestParameter, Measurement.Bias.Compliance, 0.01, 0.1, 0.0001
TestParameter, Measurement.Monitor.Unit, SMU2:HR, SMU4:HR, SMU3:HR
TestParameter, Measurement.Monitor.Adc, HR ADC, HR ADC, HR ADC
TestParameter, Measurement.Monitor.Measurement, Compliance Side, Compliance Side, Compliance Side
TestParameter, Measurement.Monitor.RangingMode, LIMITED, LIMITED, LIMITED
TestParameter, Measurement.Monitor.RangeBoundary, 1nA, 1nA, 1nA
TestParameter, Measurement.Monitor.RangeRating, BY FULL RANGE, BY FULL RANGE, BY FULL RANGE
TestParameter, Measurement.Monitor.RangeRatingCoeff, 50, 50, 50
TestParameter, Measurement.Timing.Hold, 0
TestParameter, Measurement.Timing.Delay, 0
TestParameter, Measurement.Adc.HighSpeed.Mode, AUTO
TestParameter, Measurement.Adc.HighSpeed.Coeff, 1
TestParameter, Measurement.Adc.HighResolution.AutoZero, OFF
TestParameter, Measurement.Adc.HighResolution.Mode, AUTO
TestParameter, Measurement.Adc.HighResolution.Coeff, 6
TestParameter, Measurement.WaitTime.Source.Coeff, 1
TestParameter, Measurement.WaitTime.Source.Offset, 0
TestParameter, Measurement.WaitTime.Monitor.Coeff, 1
TestParameter, Measurement.WaitTime.Monitor.Offset, 0
TestParameter, Function.User.Name, absITE
TestParameter, Function.User.Unit, A
TestParameter, Function.User.Definition, abs(I_TE)
TestParameter, Output.Graph.Enabled, true
TestParameter, Output.Graph.AutoScaling, false
TestParameter, Output.Graph.XAxis.Data, V_TE
TestParameter, Output.Graph.XAxis.Scale, Linear
TestParameter, Output.Graph.XAxis.Left, 0
TestParameter, Output.Graph.XAxis.Right, 10
TestParameter, Output.Graph.XAxis.RunTimeAutoScale, true
TestParameter, Output.Graph.YAxis.Data, absITE
TestParameter, Output.Graph.YAxis.Scale, Log
TestParameter, Output.Graph.YAxis.Bottom, 0
TestParameter, Output.Graph.YAxis.Top, 1
TestParameter, Output.Graph.YAxis.Group, 
TestParameter, Output.Graph.YAxis.RunTimeAutoScale, true
TestParameter, Output.List.Data, V1, I2abs
TestParameter, AutoAnalysis.Interpolation, false
TestParameter, AutoAnalysis.Var2StepCount, 1
TestParameter, AutoAnalysis.Var2StepScript, 
TestParameter, AutoAnalysis.Line1.Enabled, false
TestParameter, AutoAnalysis.Line1.Type, 1
TestParameter, AutoAnalysis.Line1.Fix, True
TestParameter, AutoAnalysis.Line1.YAxis, 0
TestParameter, AutoAnalysis.Line1.Point1.Type, 0
TestParameter, AutoAnalysis.Line1.Point1.XY.X, 
TestParameter, AutoAnalysis.Line1.Point1.XY.Y, 
TestParameter, AutoAnalysis.Line1.Point1.Data.Var, 
TestParameter, AutoAnalysis.Line1.Point1.Data.Condition, 
TestParameter, AutoAnalysis.Line1.Point1.Data.Start, false
TestParameter, AutoAnalysis.Line1.Point1.Data.StartVar, 
TestParameter, AutoAnalysis.Line1.Point1.Data.StartCondition, 
TestParameter, AutoAnalysis.Line1.Point2.Type, 0
TestParameter, AutoAnalysis.Line1.Point2.XY.X, 
TestParameter, AutoAnalysis.Line1.Point2.XY.Y, 
TestParameter, AutoAnalysis.Line1.Point2.Data.Var, 
TestParameter, AutoAnalysis.Line1.Point2.Data.Condition, 
TestParameter, AutoAnalysis.Line1.Point2.Data.Start, false
TestParameter, AutoAnalysis.Line1.Point2.Data.StartVar, 
TestParameter, AutoAnalysis.Line1.Point2.Data.StartCondition, 
TestParameter, AutoAnalysis.Line1.GradientExpr, 0
TestParameter, AutoAnalysis.Line2.Enabled, false
TestParameter, AutoAnalysis.Line2.Type, 1
TestParameter, AutoAnalysis.Line2.Fix, True
TestParameter, AutoAnalysis.Line2.YAxis, 0
TestParameter, AutoAnalysis.Line2.Point1.Type, 0
TestParameter, AutoAnalysis.Line2.Point1.XY.X, 
TestParameter, AutoAnalysis.Line2.Point1.XY.Y, 
TestParameter, AutoAnalysis.Line2.Point1.Data.Var, 
TestParameter, AutoAnalysis.Line2.Point1.Data.Condition, 
TestParameter, AutoAnalysis.Line2.Point1.Data.Start, false
TestParameter, AutoAnalysis.Line2.Point1.Data.StartVar, 
TestParameter, AutoAnalysis.Line2.Point1.Data.StartCondition, 
TestParameter, AutoAnalysis.Line2.Point2.Type, 0
TestParameter, AutoAnalysis.Line2.Point2.XY.X, 
TestParameter, AutoAnalysis.Line2.Point2.XY.Y, 
TestParameter, AutoAnalysis.Line2.Point2.Data.Var, 
TestParameter, AutoAnalysis.Line2.Point2.Data.Condition, 
TestParameter, AutoAnalysis.Line2.Point2.Data.Start, false
TestParameter, AutoAnalysis.Line2.Point2.Data.StartVar, 
TestParameter, AutoAnalysis.Line2.Point2.Data.StartCondition, 
TestParameter, AutoAnalysis.Line2.GradientExpr, 0
TestParameter, AutoAnalysis.Marker.Enabled, false
TestParameter, AutoAnalysis.Marker.Data.Var, 
TestParameter, AutoAnalysis.Marker.Data.Condition, 
TestParameter, AutoAnalysis.Marker.Data.Start, false
TestParameter, AutoAnalysis.Marker.Data.StartVar, 
TestParameter, AutoAnalysis.Marker.Data.StartCondition, 
MetaData, TestRecord.EntryPoint, true
MetaData, TestRecord.RecordTime, 04/15/2020 14:51:46
MetaData, TestRecord.TestTarget, S48_ExtFET_3D-C06_[10k-RES]_[TiN-BE]
MetaData, TestRecord.IterationIndex, 108
MetaData, TestRecord.Preservation, true
MetaData, TestRecord.Flag, 
MetaData, TestRecord.Remarks, 
MetaData, TestRecord.LinkKey, 4f526724-be26-4895-b92c-756d38bef141
MetaData, TestRecord.Parameters, 
Dimension1, 302, 302, 302, 302, 302
Dimension2, 1, 1, 1, 1, 1
DataName, V_TE, I_TE, absITE, V1, I2abs
DataValue, 0, 4.1240000000000004E-11, 4.1240000000000004E-11, , 
DataValue, 0.01, 1.0683799999999999E-08, 1.0683799999999999E-08, , 
DataValue, 0.02, 2.22324E-08, 2.22324E-08, , 
DataValue, 0.030000000000000002, 3.33312E-08, 3.33312E-08, , 
DataValue, 0.04, 4.2731999999999995E-08, 4.2731999999999995E-08, , 
DataValue, 0.05, 5.2869999999999996E-08, 5.2869999999999996E-08, , 
DataValue, 0.060000000000000005, 6.4668399999999989E-08, 6.4668399999999989E-08, , 
DataValue, 0.07, 7.583E-08, 7.583E-08, , 
DataValue, 0.08, 8.79592E-08, 8.79592E-08, , 
DataValue, 0.090000000000000011, 1.06E-07, 1.06E-07, , 
DataValue, 0.1, 1.691E-07, 1.691E-07, , 
DataValue, 0.11, 1.731E-07, 1.731E-07, , 
DataValue, 0.12000000000000001, 2.0687999999999998E-07, 2.0687999999999998E-07, , 
DataValue, 0.13, 2.289E-07, 2.289E-07, , 
DataValue, 0.14, 2.8989999999999997E-07, 2.8989999999999997E-07, , 
DataValue, 0.15, 3.249E-07, 3.249E-07, , 
DataValue, 0.16, 3.4176E-07, 3.4176E-07, , 
DataValue, 0.17, 3.6692E-07, 3.6692E-07, , 
DataValue, 0.18000000000000002, 3.9652E-07, 3.9652E-07, , 
DataValue, 0.19, 4.2792E-07, 4.2792E-07, , 
DataValue, 0.2, 4.5294E-07, 4.5294E-07, , 
DataValue, 0.21000000000000002, 3.9125999999999997E-07, 3.9125999999999997E-07, , 
DataValue, 0.22, 4.0259999999999997E-07, 4.0259999999999997E-07, , 
DataValue, 0.23, 5.9008E-07, 5.9008E-07, , 
DataValue, 0.24000000000000002, 3.9072E-07, 3.9072E-07, , 
DataValue, 0.25, 2.6476E-07, 2.6476E-07, , 
DataValue, 0.26, 2.9886E-07, 2.9886E-07, , 
DataValue, 0.27, 3.141E-07, 3.141E-07, , 
DataValue, 0.28, 1.303E-05, 1.303E-05, , 
DataValue, 0.29000000000000004, 1.3618E-05, 1.3618E-05, , 
DataValue, 0.3, 1.4186000000000001E-05, 1.4186000000000001E-05, , 
DataValue, 0.31, 1.463E-05, 1.463E-05, , 
DataValue, 0.32, 1.5626E-05, 1.5626E-05, , 
DataValue, 0.33, 1.613E-05, 1.613E-05, , 
DataValue, 0.34, 1.6632E-05, 1.6632E-05, , 
DataValue, 0.35000000000000003, 1.7144E-05, 1.7144E-05, , 
DataValue, 0.36000000000000004, 1.7632E-05, 1.7632E-05, , 
DataValue, 0.37, 1.8136E-05, 1.8136E-05, , 
DataValue, 0.38, 1.8638E-05, 1.8638E-05, , 
DataValue, 0.39, 2.0114E-05, 2.0114E-05, , 
DataValue, 0.4, 2.079E-05, 2.079E-05, , 
DataValue, 0.41000000000000003, 2.1322E-05, 2.1322E-05, , 
DataValue, 0.42000000000000004, 2.1808000000000002E-05, 2.1808000000000002E-05, , 
DataValue, 0.43, 2.2346E-05, 2.2346E-05, , 
DataValue, 0.44, 2.2864E-05, 2.2864E-05, , 
DataValue, 0.45, 2.3404E-05, 2.3404E-05, , 
DataValue, 0.46, 2.3936E-05, 2.3936E-05, , 
DataValue, 0.47000000000000003, 2.443E-05, 2.443E-05, , 
DataValue, 0.48000000000000004, 2.4944E-05, 2.4944E-05, , 
DataValue, 0.49000000000000005, 2.5486E-05, 2.5486E-05, , 
DataValue, 0.5, 2.6008000000000002E-05, 2.6008000000000002E-05, , 
DataValue, 0.51, 2.6976E-05, 2.6976E-05, , 
DataValue, 0.52, 2.7508E-05, 2.7508E-05, , 
DataValue, 0.53, 2.8062E-05, 2.8062E-05, , 
DataValue, 0.54, 2.8590000000000002E-05, 2.8590000000000002E-05, , 
DataValue, 0.55, 2.9114E-05, 2.9114E-05, , 
DataValue, 0.56, 2.9644E-05, 2.9644E-05, , 
DataValue, 0.57000000000000006, 3.0178E-05, 3.0178E-05, , 
DataValue, 0.58000000000000007, 3.0862000000000004E-05, 3.0862000000000004E-05, , 
DataValue, 0.59000000000000008, 3.1386E-05, 3.1386E-05, , 
DataValue, 0.6, 3.1928E-05, 3.1928E-05, , 
DataValue, 0.61, 3.2370000000000003E-05, 3.2370000000000003E-05, , 
DataValue, 0.62, 3.3344E-05, 3.3344E-05, , 
DataValue, 0.63, 3.3826000000000004E-05, 3.3826000000000004E-05, , 
DataValue, 0.64, 3.447E-05, 3.447E-05, , 
DataValue, 0.65, 3.5544000000000004E-05, 3.5544000000000004E-05, , 
DataValue, 0.66, 3.6038E-05, 3.6038E-05, , 
DataValue, 0.67, 3.6738E-05, 3.6738E-05, , 
DataValue, 0.68, 3.7298E-05, 3.7298E-05, , 
DataValue, 0.69000000000000006, 3.779E-05, 3.779E-05, , 
DataValue, 0.70000000000000007, 3.8356000000000003E-05, 3.8356000000000003E-05, , 
DataValue, 0.71000000000000008, 3.896E-05, 3.896E-05, , 
DataValue, 0.72000000000000008, 3.9514E-05, 3.9514E-05, , 
DataValue, 0.73, 4.0050000000000004E-05, 4.0050000000000004E-05, , 
DataValue, 0.74, 4.0594000000000005E-05, 4.0594000000000005E-05, , 
DataValue, 0.75, 4.1382000000000005E-05, 4.1382000000000005E-05, , 
DataValue, 0.76, 4.1960000000000005E-05, 4.1960000000000005E-05, , 
DataValue, 0.77, 4.2508E-05, 4.2508E-05, , 
DataValue, 0.78, 4.3018E-05, 4.3018E-05, , 
DataValue, 0.79, 4.3548000000000004E-05, 4.3548000000000004E-05, , 
DataValue, 0.8, 4.4106E-05, 4.4106E-05, , 
DataValue, 0.81, 4.4652E-05, 4.4652E-05, , 
DataValue, 0.82000000000000006, 4.5178E-05, 4.5178E-05, , 
DataValue, 0.83000000000000007, 4.5746E-05, 4.5746E-05, , 
DataValue, 0.84000000000000008, 4.6278E-05, 4.6278E-05, , 
DataValue, 0.85000000000000009, 4.6874E-05, 4.6874E-05, , 
DataValue, 0.86, 4.7424E-05, 4.7424E-05, , 
DataValue, 0.87, 4.7958000000000004E-05, 4.7958000000000004E-05, , 
DataValue, 0.88, 4.8496000000000005E-05, 4.8496000000000005E-05, , 
DataValue, 0.89, 4.9038E-05, 4.9038E-05, , 
DataValue, 0.9, 4.9558E-05, 4.9558E-05, , 
DataValue, 0.91, 5.0050000000000004E-05, 5.0050000000000004E-05, , 
DataValue, 0.92, 5.0612E-05, 5.0612E-05, , 
DataValue, 0.93, 5.1156E-05, 5.1156E-05, , 
DataValue, 0.94000000000000006, 5.169E-05, 5.169E-05, , 
DataValue, 0.95000000000000007, 5.2208E-05, 5.2208E-05, , 
DataValue, 0.96000000000000008, 5.2744E-05, 5.2744E-05, , 
DataValue, 0.97000000000000008, 5.327E-05, 5.327E-05, , 
DataValue, 0.98000000000000009, 5.3846E-05, 5.3846E-05, , 
DataValue, 0.9900000000000001, 5.4602000000000003E-05, 5.4602000000000003E-05, , 
DataValue, 1, 5.5128000000000005E-05, 5.5128000000000005E-05, , 
DataValue, 1.01, 5.5634E-05, 5.5634E-05, , 
DataValue, 1.02, 5.6168E-05, 5.6168E-05, , 
DataValue, 1.03, 5.6812000000000004E-05, 5.6812000000000004E-05, , 
DataValue, 1.04, 5.7304E-05, 5.7304E-05, , 
DataValue, 1.05, 5.788E-05, 5.788E-05, , 
DataValue, 1.06, 5.8404000000000005E-05, 5.8404000000000005E-05, , 
DataValue, 1.07, 5.8926000000000005E-05, 5.8926000000000005E-05, , 
DataValue, 1.08, 5.944E-05, 5.944E-05, , 
DataValue, 1.09, 5.9988E-05, 5.9988E-05, , 
DataValue, 1.1, 6.0494E-05, 6.0494E-05, , 
DataValue, 1.11, 6.1004E-05, 6.1004E-05, , 
DataValue, 1.12, 6.1536E-05, 6.1536E-05, , 
DataValue, 1.1300000000000001, 6.2026E-05, 6.2026E-05, , 
DataValue, 1.1400000000000001, 6.2494E-05, 6.2494E-05, , 
DataValue, 1.1500000000000001, 6.3028000000000007E-05, 6.3028000000000007E-05, , 
DataValue, 1.1600000000000001, 6.3474E-05, 6.3474E-05, , 
DataValue, 1.1700000000000002, 6.396E-05, 6.396E-05, , 
DataValue, 1.1800000000000002, 6.444E-05, 6.444E-05, , 
DataValue, 1.19, 6.4932000000000008E-05, 6.4932000000000008E-05, , 
DataValue, 1.2, 6.5484E-05, 6.5484E-05, , 
DataValue, 1.21, 6.59E-05, 6.59E-05, , 
DataValue, 1.22, 6.6356E-05, 6.6356E-05, , 
DataValue, 1.23, 6.6906E-05, 6.6906E-05, , 
DataValue, 1.24, 6.7368E-05, 6.7368E-05, , 
DataValue, 1.25, 6.7738000000000008E-05, 6.7738000000000008E-05, , 
DataValue, 1.26, 6.8196000000000009E-05, 6.8196000000000009E-05, , 
DataValue, 1.27, 6.8758000000000008E-05, 6.8758000000000008E-05, , 
DataValue, 1.28, 6.9244E-05, 6.9244E-05, , 
DataValue, 1.29, 6.9684E-05, 6.9684E-05, , 
DataValue, 1.3, 7.0114E-05, 7.0114E-05, , 
DataValue, 1.31, 7.0604E-05, 7.0604E-05, , 
DataValue, 1.32, 7.1028E-05, 7.1028E-05, , 
DataValue, 1.33, 7.1352E-05, 7.1352E-05, , 
DataValue, 1.34, 7.1784E-05, 7.1784E-05, , 
DataValue, 1.35, 7.2278E-05, 7.2278E-05, , 
DataValue, 1.36, 7.2692E-05, 7.2692E-05, , 
DataValue, 1.37, 7.309E-05, 7.309E-05, , 
DataValue, 1.3800000000000001, 7.3610000000000008E-05, 7.3610000000000008E-05, , 
DataValue, 1.3900000000000001, 7.4086000000000009E-05, 7.4086000000000009E-05, , 
DataValue, 1.4000000000000001, 7.4538E-05, 7.4538E-05, , 
DataValue, 1.4100000000000001, 7.487E-05, 7.487E-05, , 
DataValue, 1.4200000000000002, 7.5308E-05, 7.5308E-05, , 
DataValue, 1.4300000000000002, 7.5664E-05, 7.5664E-05, , 
DataValue, 1.4400000000000002, 7.6094000000000007E-05, 7.6094000000000007E-05, , 
DataValue, 1.4500000000000002, 7.6432E-05, 7.6432E-05, , 
DataValue, 1.46, 7.6864E-05, 7.6864E-05, , 
DataValue, 1.47, 7.721E-05, 7.721E-05, , 
DataValue, 1.48, 7.7566000000000009E-05, 7.7566000000000009E-05, , 
DataValue, 1.49, 7.7922E-05, 7.7922E-05, , 
DataValue, 1.5, 7.831E-05, 7.831E-05, , 
DataValue, 1.5, 7.828E-05, 7.828E-05, , 
DataValue, 1.49, 7.7904E-05, 7.7904E-05, , 
DataValue, 1.48, 7.7548E-05, 7.7548E-05, , 
DataValue, 1.47, 7.7172E-05, 7.7172E-05, , 
DataValue, 1.46, 7.679E-05, 7.679E-05, , 
DataValue, 1.4500000000000002, 7.6348000000000008E-05, 7.6348000000000008E-05, , 
DataValue, 1.4400000000000002, 7.6012E-05, 7.6012E-05, , 
DataValue, 1.4300000000000002, 7.5632E-05, 7.5632E-05, , 
DataValue, 1.4200000000000002, 7.5242000000000009E-05, 7.5242000000000009E-05, , 
DataValue, 1.4100000000000001, 7.4840000000000009E-05, 7.4840000000000009E-05, , 
DataValue, 1.4000000000000001, 7.4458E-05, 7.4458E-05, , 
DataValue, 1.3900000000000001, 7.4038E-05, 7.4038E-05, , 
DataValue, 1.3800000000000001, 7.3674E-05, 7.3674E-05, , 
DataValue, 1.37, 7.324E-05, 7.324E-05, , 
DataValue, 1.36, 7.2772E-05, 7.2772E-05, , 
DataValue, 1.35, 7.2366E-05, 7.2366E-05, , 
DataValue, 1.34, 7.1992E-05, 7.1992E-05, , 
DataValue, 1.33, 7.1552000000000009E-05, 7.1552000000000009E-05, , 
DataValue, 1.32, 7.1070000000000009E-05, 7.1070000000000009E-05, , 
DataValue, 1.31, 7.061E-05, 7.061E-05, , 
DataValue, 1.3, 7.0192000000000008E-05, 7.0192000000000008E-05, , 
DataValue, 1.29, 6.9726E-05, 6.9726E-05, , 
DataValue, 1.28, 6.926E-05, 6.926E-05, , 
DataValue, 1.27, 6.8834E-05, 6.8834E-05, , 
DataValue, 1.26, 6.8326E-05, 6.8326E-05, , 
DataValue, 1.25, 6.7874000000000008E-05, 6.7874000000000008E-05, , 
DataValue, 1.24, 6.7424E-05, 6.7424E-05, , 
DataValue, 1.23, 6.6944E-05, 6.6944E-05, , 
DataValue, 1.22, 6.6506E-05, 6.6506E-05, , 
DataValue, 1.21, 6.5994E-05, 6.5994E-05, , 
DataValue, 1.2, 6.5542E-05, 6.5542E-05, , 
DataValue, 1.19, 6.5042E-05, 6.5042E-05, , 
DataValue, 1.1800000000000002, 6.4532E-05, 6.4532E-05, , 
DataValue, 1.1700000000000002, 6.4066E-05, 6.4066E-05, , 
DataValue, 1.1600000000000001, 6.3548000000000009E-05, 6.3548000000000009E-05, , 
DataValue, 1.1500000000000001, 6.3074E-05, 6.3074E-05, , 
DataValue, 1.1400000000000001, 6.2584E-05, 6.2584E-05, , 
DataValue, 1.1300000000000001, 6.208E-05, 6.208E-05, , 
DataValue, 1.12, 6.158E-05, 6.158E-05, , 
DataValue, 1.11, 6.1056E-05, 6.1056E-05, , 
DataValue, 1.1, 6.054E-05, 6.054E-05, , 
DataValue, 1.09, 6.0034E-05, 6.0034E-05, , 
DataValue, 1.08, 5.9510000000000005E-05, 5.9510000000000005E-05, , 
DataValue, 1.07, 5.8988000000000005E-05, 5.8988000000000005E-05, , 
DataValue, 1.06, 5.85E-05, 5.85E-05, , 
DataValue, 1.05, 5.7964E-05, 5.7964E-05, , 
DataValue, 1.04, 5.7424000000000004E-05, 5.7424000000000004E-05, , 
DataValue, 1.03, 5.6916E-05, 5.6916E-05, , 
DataValue, 1.02, 5.6372E-05, 5.6372E-05, , 
DataValue, 1.01, 5.5862E-05, 5.5862E-05, , 
DataValue, 1, 5.5352E-05, 5.5352E-05, , 
DataValue, 0.9900000000000001, 5.4824E-05, 5.4824E-05, , 
DataValue, 0.98000000000000009, 5.4292E-05, 5.4292E-05, , 
DataValue, 0.97000000000000008, 5.3766E-05, 5.3766E-05, , 
DataValue, 0.96000000000000008, 5.3224000000000004E-05, 5.3224000000000004E-05, , 
DataValue, 0.95000000000000007, 5.2706E-05, 5.2706E-05, , 
DataValue, 0.94000000000000006, 5.2154E-05, 5.2154E-05, , 
DataValue, 0.93, 5.1636000000000005E-05, 5.1636000000000005E-05, , 
DataValue, 0.92, 5.108E-05, 5.108E-05, , 
DataValue, 0.91, 5.0564E-05, 5.0564E-05, , 
DataValue, 0.9, 4.9994E-05, 4.9994E-05, , 
DataValue, 0.89, 4.944E-05, 4.944E-05, , 
DataValue, 0.88, 4.8912E-05, 4.8912E-05, , 
DataValue, 0.87, 4.8364E-05, 4.8364E-05, , 
DataValue, 0.86, 4.7810000000000005E-05, 4.7810000000000005E-05, , 
DataValue, 0.85000000000000009, 4.7264E-05, 4.7264E-05, , 
DataValue, 0.84000000000000008, 4.6718E-05, 4.6718E-05, , 
DataValue, 0.83000000000000007, 4.6148E-05, 4.6148E-05, , 
DataValue, 0.82000000000000006, 4.5616E-05, 4.5616E-05, , 
DataValue, 0.81, 4.507E-05, 4.507E-05, , 
DataValue, 0.8, 4.4554E-05, 4.4554E-05, , 
DataValue, 0.79, 4.3996000000000004E-05, 4.3996000000000004E-05, , 
DataValue, 0.78, 4.3462E-05, 4.3462E-05, , 
DataValue, 0.77, 4.2904E-05, 4.2904E-05, , 
DataValue, 0.76, 4.2322E-05, 4.2322E-05, , 
DataValue, 0.75, 4.1764E-05, 4.1764E-05, , 
DataValue, 0.74, 4.1248E-05, 4.1248E-05, , 
DataValue, 0.73, 4.07E-05, 4.07E-05, , 
DataValue, 0.72000000000000008, 4.0138E-05, 4.0138E-05, , 
DataValue, 0.71000000000000008, 3.9574000000000004E-05, 3.9574000000000004E-05, , 
DataValue, 0.70000000000000007, 3.9022E-05, 3.9022E-05, , 
DataValue, 0.69000000000000006, 3.8482E-05, 3.8482E-05, , 
DataValue, 0.68, 3.7906E-05, 3.7906E-05, , 
DataValue, 0.67, 3.7324000000000004E-05, 3.7324000000000004E-05, , 
DataValue, 0.66, 3.679E-05, 3.679E-05, , 
DataValue, 0.65, 3.6208E-05, 3.6208E-05, , 
DataValue, 0.64, 3.5672E-05, 3.5672E-05, , 
DataValue, 0.63, 3.5144E-05, 3.5144E-05, , 
DataValue, 0.62, 3.4578E-05, 3.4578E-05, , 
DataValue, 0.61, 3.4012E-05, 3.4012E-05, , 
DataValue, 0.6, 3.3444E-05, 3.3444E-05, , 
DataValue, 0.59000000000000008, 3.2888E-05, 3.2888E-05, , 
DataValue, 0.58000000000000007, 3.2330000000000004E-05, 3.2330000000000004E-05, , 
DataValue, 0.57000000000000006, 3.1772E-05, 3.1772E-05, , 
DataValue, 0.56, 3.12E-05, 3.12E-05, , 
