
SetupTitle, ExtFET - POS SET - VG-1.62V - TE-1.5V
PrimitiveTest, I/V Sweep
TestParameter, Context.MainFrame, B1500A
TestParameter, Channel.UnitType, SMU, SMU, SMU
TestParameter, Channel.Unit, SMU2:HR, SMU4:HR, SMU3:HR
TestParameter, Channel.IName, I_TE, I_BE, I_G
TestParameter, Channel.VName, V_TE, V_BE, V_G
TestParameter, Channel.Mode, V, COMMON, V
TestParameter, Channel.Func, VAR1, CONST, CONST
TestParameter, Channel.Index, 
TestParameter, Channel.Time, 
TestParameter, Measurement.Port.Unit, SMU2:HR, SMU4:HR, SMU3:HR
TestParameter, Measurement.Port.SeriesResistor, NONE, NONE, NONE
TestParameter, Measurement.Port.Filter, ON, ON, ON
TestParameter, Measurement.Port.OutputVoltageComparison, 0, 0, 0
TestParameter, Measurement.Primary.Locus, Double
TestParameter, Measurement.Primary.Scale, LINEAR
TestParameter, Measurement.Primary.Start, 0
TestParameter, Measurement.Primary.Stop, 1.5
TestParameter, Measurement.Primary.Step, 0.01
TestParameter, Measurement.Primary.Compliance, 0.01
TestParameter, Measurement.Primary.PowerCompliance, 0
TestParameter, Measurement.Aborting.Condition, CONTINUE AT ANY
TestParameter, Measurement.PostOutput.Value, START
TestParameter, Measurement.PostOutput.Retention, OFF
TestParameter, Measurement.Bias.Source, 0, 0, 1.62
TestParameter, Measurement.Bias.Compliance, 0.01, 0.1, 0.0001
TestParameter, Measurement.Monitor.Unit, SMU2:HR, SMU4:HR, SMU3:HR
TestParameter, Measurement.Monitor.Adc, HR ADC, HR ADC, HR ADC
TestParameter, Measurement.Monitor.Measurement, Compliance Side, Compliance Side, Compliance Side
TestParameter, Measurement.Monitor.RangingMode, LIMITED, LIMITED, LIMITED
TestParameter, Measurement.Monitor.RangeBoundary, 1nA, 1nA, 1nA
TestParameter, Measurement.Monitor.RangeRating, BY FULL RANGE, BY FULL RANGE, BY FULL RANGE
TestParameter, Measurement.Monitor.RangeRatingCoeff, 50, 50, 50
TestParameter, Measurement.Timing.Hold, 0
TestParameter, Measurement.Timing.Delay, 0
TestParameter, Measurement.Adc.HighSpeed.Mode, AUTO
TestParameter, Measurement.Adc.HighSpeed.Coeff, 1
TestParameter, Measurement.Adc.HighResolution.AutoZero, OFF
TestParameter, Measurement.Adc.HighResolution.Mode, AUTO
TestParameter, Measurement.Adc.HighResolution.Coeff, 6
TestParameter, Measurement.WaitTime.Source.Coeff, 1
TestParameter, Measurement.WaitTime.Source.Offset, 0
TestParameter, Measurement.WaitTime.Monitor.Coeff, 1
TestParameter, Measurement.WaitTime.Monitor.Offset, 0
TestParameter, Function.User.Name, absITE
TestParameter, Function.User.Unit, A
TestParameter, Function.User.Definition, abs(I_TE)
TestParameter, Output.Graph.Enabled, true
TestParameter, Output.Graph.AutoScaling, false
TestParameter, Output.Graph.XAxis.Data, V_TE
TestParameter, Output.Graph.XAxis.Scale, Linear
TestParameter, Output.Graph.XAxis.Left, 0
TestParameter, Output.Graph.XAxis.Right, 10
TestParameter, Output.Graph.XAxis.RunTimeAutoScale, true
TestParameter, Output.Graph.YAxis.Data, absITE
TestParameter, Output.Graph.YAxis.Scale, Log
TestParameter, Output.Graph.YAxis.Bottom, 0
TestParameter, Output.Graph.YAxis.Top, 1
TestParameter, Output.Graph.YAxis.Group, 
TestParameter, Output.Graph.YAxis.RunTimeAutoScale, true
TestParameter, Output.List.Data, V1, I2abs
TestParameter, AutoAnalysis.Interpolation, false
TestParameter, AutoAnalysis.Var2StepCount, 1
TestParameter, AutoAnalysis.Var2StepScript, 
TestParameter, AutoAnalysis.Line1.Enabled, false
TestParameter, AutoAnalysis.Line1.Type, 1
TestParameter, AutoAnalysis.Line1.Fix, True
TestParameter, AutoAnalysis.Line1.YAxis, 0
TestParameter, AutoAnalysis.Line1.Point1.Type, 0
TestParameter, AutoAnalysis.Line1.Point1.XY.X, 
TestParameter, AutoAnalysis.Line1.Point1.XY.Y, 
TestParameter, AutoAnalysis.Line1.Point1.Data.Var, 
TestParameter, AutoAnalysis.Line1.Point1.Data.Condition, 
TestParameter, AutoAnalysis.Line1.Point1.Data.Start, false
TestParameter, AutoAnalysis.Line1.Point1.Data.StartVar, 
TestParameter, AutoAnalysis.Line1.Point1.Data.StartCondition, 
TestParameter, AutoAnalysis.Line1.Point2.Type, 0
TestParameter, AutoAnalysis.Line1.Point2.XY.X, 
TestParameter, AutoAnalysis.Line1.Point2.XY.Y, 
TestParameter, AutoAnalysis.Line1.Point2.Data.Var, 
TestParameter, AutoAnalysis.Line1.Point2.Data.Condition, 
TestParameter, AutoAnalysis.Line1.Point2.Data.Start, false
TestParameter, AutoAnalysis.Line1.Point2.Data.StartVar, 
TestParameter, AutoAnalysis.Line1.Point2.Data.StartCondition, 
TestParameter, AutoAnalysis.Line1.GradientExpr, 0
TestParameter, AutoAnalysis.Line2.Enabled, false
TestParameter, AutoAnalysis.Line2.Type, 1
TestParameter, AutoAnalysis.Line2.Fix, True
TestParameter, AutoAnalysis.Line2.YAxis, 0
TestParameter, AutoAnalysis.Line2.Point1.Type, 0
TestParameter, AutoAnalysis.Line2.Point1.XY.X, 
TestParameter, AutoAnalysis.Line2.Point1.XY.Y, 
TestParameter, AutoAnalysis.Line2.Point1.Data.Var, 
TestParameter, AutoAnalysis.Line2.Point1.Data.Condition, 
TestParameter, AutoAnalysis.Line2.Point1.Data.Start, false
TestParameter, AutoAnalysis.Line2.Point1.Data.StartVar, 
TestParameter, AutoAnalysis.Line2.Point1.Data.StartCondition, 
TestParameter, AutoAnalysis.Line2.Point2.Type, 0
TestParameter, AutoAnalysis.Line2.Point2.XY.X, 
TestParameter, AutoAnalysis.Line2.Point2.XY.Y, 
TestParameter, AutoAnalysis.Line2.Point2.Data.Var, 
TestParameter, AutoAnalysis.Line2.Point2.Data.Condition, 
TestParameter, AutoAnalysis.Line2.Point2.Data.Start, false
TestParameter, AutoAnalysis.Line2.Point2.Data.StartVar, 
TestParameter, AutoAnalysis.Line2.Point2.Data.StartCondition, 
TestParameter, AutoAnalysis.Line2.GradientExpr, 0
TestParameter, AutoAnalysis.Marker.Enabled, false
TestParameter, AutoAnalysis.Marker.Data.Var, 
TestParameter, AutoAnalysis.Marker.Data.Condition, 
TestParameter, AutoAnalysis.Marker.Data.Start, false
TestParameter, AutoAnalysis.Marker.Data.StartVar, 
TestParameter, AutoAnalysis.Marker.Data.StartCondition, 
MetaData, TestRecord.EntryPoint, true
MetaData, TestRecord.RecordTime, 04/15/2020 14:51:54
MetaData, TestRecord.TestTarget, S48_ExtFET_3D-C06_[10k-RES]_[TiN-BE]
MetaData, TestRecord.IterationIndex, 109
MetaData, TestRecord.Preservation, true
MetaData, TestRecord.Flag, 
MetaData, TestRecord.Remarks, 
MetaData, TestRecord.LinkKey, 9c0c7940-e2dc-4a23-b3ab-8873377d88fb
MetaData, TestRecord.Parameters, 
Dimension1, 302, 302, 302, 302, 302
Dimension2, 1, 1, 1, 1, 1
DataName, V_TE, I_TE, absITE, V1, I2abs
DataValue, 0, 6.107E-11, 6.107E-11, , 
DataValue, 0.01, 1.3938599999999998E-08, 1.3938599999999998E-08, , 
DataValue, 0.02, 2.8738799999999996E-08, 2.8738799999999996E-08, , 
DataValue, 0.030000000000000002, 4.1452999999999994E-08, 4.1452999999999994E-08, , 
DataValue, 0.04, 5.6585399999999995E-08, 5.6585399999999995E-08, , 
DataValue, 0.05, 6.80646E-08, 6.80646E-08, , 
DataValue, 0.060000000000000005, 8.7473999999999993E-08, 8.7473999999999993E-08, , 
DataValue, 0.07, 1.0450679999999999E-07, 1.0450679999999999E-07, , 
DataValue, 0.08, 1.1672E-07, 1.1672E-07, , 
DataValue, 0.090000000000000011, 1.3572E-07, 1.3572E-07, , 
DataValue, 0.1, 1.551E-07, 1.551E-07, , 
DataValue, 0.11, 1.5802E-07, 1.5802E-07, , 
DataValue, 0.12000000000000001, 1.7918E-07, 1.7918E-07, , 
DataValue, 0.13, 1.9328E-07, 1.9328E-07, , 
DataValue, 0.14, 2.2416E-07, 2.2416E-07, , 
DataValue, 0.15, 2.4324E-07, 2.4324E-07, , 
DataValue, 0.16, 3.1598E-07, 3.1598E-07, , 
DataValue, 0.17, 3.3288E-07, 3.3288E-07, , 
DataValue, 0.18000000000000002, 3.7712E-07, 3.7712E-07, , 
DataValue, 0.19, 4.0372E-07, 4.0372E-07, , 
DataValue, 0.2, 3.3177999999999997E-07, 3.3177999999999997E-07, , 
DataValue, 0.21000000000000002, 3.5062E-07, 3.5062E-07, , 
DataValue, 0.22, 3.9816E-07, 3.9816E-07, , 
DataValue, 0.23, 3.1669999999999997E-07, 3.1669999999999997E-07, , 
DataValue, 0.24000000000000002, 3.4148E-07, 3.4148E-07, , 
DataValue, 0.25, 6.409E-07, 6.409E-07, , 
DataValue, 0.26, 4.8078E-07, 4.8078E-07, , 
DataValue, 0.27, 5.9342E-07, 5.9342E-07, , 
DataValue, 0.28, 7.2433999999999993E-07, 7.2433999999999993E-07, , 
DataValue, 0.29000000000000004, 1.0045999999999999E-06, 1.0045999999999999E-06, , 
DataValue, 0.3, 1.3528E-05, 1.3528E-05, , 
DataValue, 0.31, 1.4022E-05, 1.4022E-05, , 
DataValue, 0.32, 1.6366000000000002E-05, 1.6366000000000002E-05, , 
DataValue, 0.33, 1.6788E-05, 1.6788E-05, , 
DataValue, 0.34, 1.7874000000000002E-05, 1.7874000000000002E-05, , 
DataValue, 0.35000000000000003, 1.8542E-05, 1.8542E-05, , 
DataValue, 0.36000000000000004, 1.9136E-05, 1.9136E-05, , 
DataValue, 0.37, 1.968E-05, 1.968E-05, , 
DataValue, 0.38, 2.0176E-05, 2.0176E-05, , 
DataValue, 0.39, 2.0736E-05, 2.0736E-05, , 
DataValue, 0.4, 2.1230000000000002E-05, 2.1230000000000002E-05, , 
DataValue, 0.41000000000000003, 2.1856000000000002E-05, 2.1856000000000002E-05, , 
DataValue, 0.42000000000000004, 2.2338000000000002E-05, 2.2338000000000002E-05, , 
DataValue, 0.43, 2.2888000000000002E-05, 2.2888000000000002E-05, , 
DataValue, 0.44, 2.361E-05, 2.361E-05, , 
DataValue, 0.45, 2.4206E-05, 2.4206E-05, , 
DataValue, 0.46, 2.4770000000000002E-05, 2.4770000000000002E-05, , 
DataValue, 0.47000000000000003, 2.5302E-05, 2.5302E-05, , 
DataValue, 0.48000000000000004, 2.5834E-05, 2.5834E-05, , 
DataValue, 0.49000000000000005, 2.6364E-05, 2.6364E-05, , 
DataValue, 0.5, 2.6912000000000003E-05, 2.6912000000000003E-05, , 
DataValue, 0.51, 2.746E-05, 2.746E-05, , 
DataValue, 0.52, 2.8012000000000002E-05, 2.8012000000000002E-05, , 
DataValue, 0.53, 2.8562000000000002E-05, 2.8562000000000002E-05, , 
DataValue, 0.54, 2.919E-05, 2.919E-05, , 
DataValue, 0.55, 2.9694E-05, 2.9694E-05, , 
DataValue, 0.56, 3.0244E-05, 3.0244E-05, , 
DataValue, 0.57000000000000006, 3.0784E-05, 3.0784E-05, , 
DataValue, 0.58000000000000007, 3.1344000000000003E-05, 3.1344000000000003E-05, , 
DataValue, 0.59000000000000008, 3.1904E-05, 3.1904E-05, , 
DataValue, 0.6, 3.2436E-05, 3.2436E-05, , 
DataValue, 0.61, 3.2898E-05, 3.2898E-05, , 
DataValue, 0.62, 3.3612E-05, 3.3612E-05, , 
DataValue, 0.63, 3.4176E-05, 3.4176E-05, , 
DataValue, 0.64, 3.4648000000000004E-05, 3.4648000000000004E-05, , 
DataValue, 0.65, 3.5268E-05, 3.5268E-05, , 
DataValue, 0.66, 3.5810000000000004E-05, 3.5810000000000004E-05, , 
DataValue, 0.67, 3.6364E-05, 3.6364E-05, , 
DataValue, 0.68, 3.6896E-05, 3.6896E-05, , 
DataValue, 0.69000000000000006, 3.7726000000000004E-05, 3.7726000000000004E-05, , 
DataValue, 0.70000000000000007, 3.8272E-05, 3.8272E-05, , 
DataValue, 0.71000000000000008, 3.8762E-05, 3.8762E-05, , 
DataValue, 0.72000000000000008, 3.9536E-05, 3.9536E-05, , 
DataValue, 0.73, 4.0054E-05, 4.0054E-05, , 
DataValue, 0.74, 4.0792E-05, 4.0792E-05, , 
DataValue, 0.75, 4.1468000000000003E-05, 4.1468000000000003E-05, , 
DataValue, 0.76, 4.1992E-05, 4.1992E-05, , 
DataValue, 0.77, 4.2566E-05, 4.2566E-05, , 
DataValue, 0.78, 4.3100000000000004E-05, 4.3100000000000004E-05, , 
DataValue, 0.79, 4.3574E-05, 4.3574E-05, , 
DataValue, 0.8, 4.4202E-05, 4.4202E-05, , 
DataValue, 0.81, 4.4684E-05, 4.4684E-05, , 
DataValue, 0.82000000000000006, 4.523E-05, 4.523E-05, , 
DataValue, 0.83000000000000007, 4.5774E-05, 4.5774E-05, , 
DataValue, 0.84000000000000008, 4.634E-05, 4.634E-05, , 
DataValue, 0.85000000000000009, 4.6842E-05, 4.6842E-05, , 
DataValue, 0.86, 4.74E-05, 4.74E-05, , 
DataValue, 0.87, 4.7890000000000004E-05, 4.7890000000000004E-05, , 
DataValue, 0.88, 4.8504E-05, 4.8504E-05, , 
DataValue, 0.89, 4.9278000000000005E-05, 4.9278000000000005E-05, , 
DataValue, 0.9, 4.9794000000000005E-05, 4.9794000000000005E-05, , 
DataValue, 0.91, 5.0372000000000005E-05, 5.0372000000000005E-05, , 
DataValue, 0.92, 5.0882000000000005E-05, 5.0882000000000005E-05, , 
DataValue, 0.93, 5.1404000000000005E-05, 5.1404000000000005E-05, , 
DataValue, 0.94000000000000006, 5.2012E-05, 5.2012E-05, , 
DataValue, 0.95000000000000007, 5.2488E-05, 5.2488E-05, , 
DataValue, 0.96000000000000008, 5.3032E-05, 5.3032E-05, , 
DataValue, 0.97000000000000008, 5.3614E-05, 5.3614E-05, , 
DataValue, 0.98000000000000009, 5.4064E-05, 5.4064E-05, , 
DataValue, 0.9900000000000001, 5.465E-05, 5.465E-05, , 
DataValue, 1, 5.5284E-05, 5.5284E-05, , 
DataValue, 1.01, 5.5612E-05, 5.5612E-05, , 
DataValue, 1.02, 5.6284000000000005E-05, 5.6284000000000005E-05, , 
DataValue, 1.03, 5.6718E-05, 5.6718E-05, , 
DataValue, 1.04, 5.7372E-05, 5.7372E-05, , 
DataValue, 1.05, 5.7864E-05, 5.7864E-05, , 
DataValue, 1.06, 5.8252000000000004E-05, 5.8252000000000004E-05, , 
DataValue, 1.07, 5.8838E-05, 5.8838E-05, , 
DataValue, 1.08, 5.9328000000000005E-05, 5.9328000000000005E-05, , 
DataValue, 1.09, 5.9850000000000005E-05, 5.9850000000000005E-05, , 
DataValue, 1.1, 6.0374E-05, 6.0374E-05, , 
DataValue, 1.11, 6.0942E-05, 6.0942E-05, , 
DataValue, 1.12, 6.1412E-05, 6.1412E-05, , 
DataValue, 1.1300000000000001, 6.1908E-05, 6.1908E-05, , 
DataValue, 1.1400000000000001, 6.2424E-05, 6.2424E-05, , 
DataValue, 1.1500000000000001, 6.2928E-05, 6.2928E-05, , 
DataValue, 1.1600000000000001, 6.3446E-05, 6.3446E-05, , 
DataValue, 1.1700000000000002, 6.3922E-05, 6.3922E-05, , 
DataValue, 1.1800000000000002, 6.4466E-05, 6.4466E-05, , 
DataValue, 1.19, 6.4928E-05, 6.4928E-05, , 
DataValue, 1.2, 6.5416E-05, 6.5416E-05, , 
DataValue, 1.21, 6.5816000000000008E-05, 6.5816000000000008E-05, , 
DataValue, 1.22, 6.6264E-05, 6.6264E-05, , 
DataValue, 1.23, 6.6686E-05, 6.6686E-05, , 
DataValue, 1.24, 6.7164E-05, 6.7164E-05, , 
DataValue, 1.25, 6.7612E-05, 6.7612E-05, , 
DataValue, 1.26, 6.817E-05, 6.817E-05, , 
DataValue, 1.27, 6.8652E-05, 6.8652E-05, , 
DataValue, 1.28, 6.9054E-05, 6.9054E-05, , 
DataValue, 1.29, 6.9514E-05, 6.9514E-05, , 
DataValue, 1.3, 6.9986E-05, 6.9986E-05, , 
DataValue, 1.31, 7.0416E-05, 7.0416E-05, , 
DataValue, 1.32, 7.0842E-05, 7.0842E-05, , 
DataValue, 1.33, 7.1308E-05, 7.1308E-05, , 
DataValue, 1.34, 7.169E-05, 7.169E-05, , 
DataValue, 1.35, 7.215E-05, 7.215E-05, , 
DataValue, 1.36, 7.2574E-05, 7.2574E-05, , 
DataValue, 1.37, 7.2982E-05, 7.2982E-05, , 
DataValue, 1.3800000000000001, 7.3404E-05, 7.3404E-05, , 
DataValue, 1.3900000000000001, 7.3818E-05, 7.3818E-05, , 
DataValue, 1.4000000000000001, 7.4208E-05, 7.4208E-05, , 
DataValue, 1.4100000000000001, 7.4754E-05, 7.4754E-05, , 
DataValue, 1.4200000000000002, 7.5298E-05, 7.5298E-05, , 
DataValue, 1.4300000000000002, 7.5704E-05, 7.5704E-05, , 
DataValue, 1.4400000000000002, 7.6088000000000007E-05, 7.6088000000000007E-05, , 
DataValue, 1.4500000000000002, 7.6546000000000009E-05, 7.6546000000000009E-05, , 
DataValue, 1.46, 7.6854E-05, 7.6854E-05, , 
DataValue, 1.47, 7.7278E-05, 7.7278E-05, , 
DataValue, 1.48, 7.7676E-05, 7.7676E-05, , 
DataValue, 1.49, 7.7992000000000008E-05, 7.7992000000000008E-05, , 
DataValue, 1.5, 7.816E-05, 7.816E-05, , 
DataValue, 1.5, 7.8302E-05, 7.8302E-05, , 
DataValue, 1.49, 7.7966E-05, 7.7966E-05, , 
DataValue, 1.48, 7.7572000000000009E-05, 7.7572000000000009E-05, , 
DataValue, 1.47, 7.7138E-05, 7.7138E-05, , 
DataValue, 1.46, 7.6714E-05, 7.6714E-05, , 
DataValue, 1.4500000000000002, 7.63E-05, 7.63E-05, , 
DataValue, 1.4400000000000002, 7.5932E-05, 7.5932E-05, , 
DataValue, 1.4300000000000002, 7.548E-05, 7.548E-05, , 
DataValue, 1.4200000000000002, 7.5118000000000008E-05, 7.5118000000000008E-05, , 
DataValue, 1.4100000000000001, 7.4708E-05, 7.4708E-05, , 
DataValue, 1.4000000000000001, 7.4304E-05, 7.4304E-05, , 
DataValue, 1.3900000000000001, 7.3906000000000007E-05, 7.3906000000000007E-05, , 
DataValue, 1.3800000000000001, 7.3424000000000007E-05, 7.3424000000000007E-05, , 
DataValue, 1.37, 7.3114E-05, 7.3114E-05, , 
DataValue, 1.36, 7.2654E-05, 7.2654E-05, , 
DataValue, 1.35, 7.226E-05, 7.226E-05, , 
DataValue, 1.34, 7.1822E-05, 7.1822E-05, , 
DataValue, 1.33, 7.1284E-05, 7.1284E-05, , 
DataValue, 1.32, 7.0906E-05, 7.0906E-05, , 
DataValue, 1.31, 7.0512E-05, 7.0512E-05, , 
DataValue, 1.3, 6.9946E-05, 6.9946E-05, , 
DataValue, 1.29, 6.9506000000000008E-05, 6.9506000000000008E-05, , 
DataValue, 1.28, 6.9024000000000009E-05, 6.9024000000000009E-05, , 
DataValue, 1.27, 6.8564E-05, 6.8564E-05, , 
DataValue, 1.26, 6.8132E-05, 6.8132E-05, , 
DataValue, 1.25, 6.7686E-05, 6.7686E-05, , 
DataValue, 1.24, 6.7294E-05, 6.7294E-05, , 
DataValue, 1.23, 6.6774000000000008E-05, 6.6774000000000008E-05, , 
DataValue, 1.22, 6.6248E-05, 6.6248E-05, , 
DataValue, 1.21, 6.5922E-05, 6.5922E-05, , 
DataValue, 1.2, 6.5308E-05, 6.5308E-05, , 
DataValue, 1.19, 6.4832E-05, 6.4832E-05, , 
DataValue, 1.1800000000000002, 6.4384E-05, 6.4384E-05, , 
DataValue, 1.1700000000000002, 6.3872E-05, 6.3872E-05, , 
DataValue, 1.1600000000000001, 6.338E-05, 6.338E-05, , 
DataValue, 1.1500000000000001, 6.2894E-05, 6.2894E-05, , 
DataValue, 1.1400000000000001, 6.2414E-05, 6.2414E-05, , 
DataValue, 1.1300000000000001, 6.1852E-05, 6.1852E-05, , 
DataValue, 1.12, 6.1372000000000008E-05, 6.1372000000000008E-05, , 
DataValue, 1.11, 6.088E-05, 6.088E-05, , 
DataValue, 1.1, 6.0366000000000004E-05, 6.0366000000000004E-05, , 
DataValue, 1.09, 5.9808E-05, 5.9808E-05, , 
DataValue, 1.08, 5.9386000000000004E-05, 5.9386000000000004E-05, , 
DataValue, 1.07, 5.8844E-05, 5.8844E-05, , 
DataValue, 1.06, 5.8288E-05, 5.8288E-05, , 
DataValue, 1.05, 5.7786000000000005E-05, 5.7786000000000005E-05, , 
DataValue, 1.04, 5.728E-05, 5.728E-05, , 
DataValue, 1.03, 5.673E-05, 5.673E-05, , 
DataValue, 1.02, 5.6204E-05, 5.6204E-05, , 
DataValue, 1.01, 5.5682E-05, 5.5682E-05, , 
DataValue, 1, 5.5174000000000004E-05, 5.5174000000000004E-05, , 
DataValue, 0.9900000000000001, 5.461E-05, 5.461E-05, , 
DataValue, 0.98000000000000009, 5.4108000000000004E-05, 5.4108000000000004E-05, , 
DataValue, 0.97000000000000008, 5.3566E-05, 5.3566E-05, , 
DataValue, 0.96000000000000008, 5.3044E-05, 5.3044E-05, , 
DataValue, 0.95000000000000007, 5.2522E-05, 5.2522E-05, , 
DataValue, 0.94000000000000006, 5.1986E-05, 5.1986E-05, , 
DataValue, 0.93, 5.14E-05, 5.14E-05, , 
DataValue, 0.92, 5.0924E-05, 5.0924E-05, , 
DataValue, 0.91, 5.0368E-05, 5.0368E-05, , 
DataValue, 0.9, 4.983E-05, 4.983E-05, , 
DataValue, 0.89, 4.9284000000000005E-05, 4.9284000000000005E-05, , 
DataValue, 0.88, 4.8738E-05, 4.8738E-05, , 
DataValue, 0.87, 4.8202000000000004E-05, 4.8202000000000004E-05, , 
DataValue, 0.86, 4.7674000000000005E-05, 4.7674000000000005E-05, , 
DataValue, 0.85000000000000009, 4.7106E-05, 4.7106E-05, , 
DataValue, 0.84000000000000008, 4.6554E-05, 4.6554E-05, , 
DataValue, 0.83000000000000007, 4.6024E-05, 4.6024E-05, , 
DataValue, 0.82000000000000006, 4.5506E-05, 4.5506E-05, , 
DataValue, 0.81, 4.5006E-05, 4.5006E-05, , 
DataValue, 0.8, 4.4426000000000005E-05, 4.4426000000000005E-05, , 
DataValue, 0.79, 4.3916000000000004E-05, 4.3916000000000004E-05, , 
DataValue, 0.78, 4.3364E-05, 4.3364E-05, , 
DataValue, 0.77, 4.2758E-05, 4.2758E-05, , 
DataValue, 0.76, 4.2224E-05, 4.2224E-05, , 
DataValue, 0.75, 4.1658E-05, 4.1658E-05, , 
DataValue, 0.74, 4.1118E-05, 4.1118E-05, , 
DataValue, 0.73, 4.0556E-05, 4.0556E-05, , 
DataValue, 0.72000000000000008, 3.9984E-05, 3.9984E-05, , 
DataValue, 0.71000000000000008, 3.9432000000000005E-05, 3.9432000000000005E-05, , 
DataValue, 0.70000000000000007, 3.887E-05, 3.887E-05, , 
DataValue, 0.69000000000000006, 3.8350000000000004E-05, 3.8350000000000004E-05, , 
DataValue, 0.68, 3.7778E-05, 3.7778E-05, , 
DataValue, 0.67, 3.7208E-05, 3.7208E-05, , 
DataValue, 0.66, 3.665E-05, 3.665E-05, , 
DataValue, 0.65, 3.6084E-05, 3.6084E-05, , 
DataValue, 0.64, 3.5544000000000004E-05, 3.5544000000000004E-05, , 
DataValue, 0.63, 3.4972E-05, 3.4972E-05, , 
DataValue, 0.62, 3.4406E-05, 3.4406E-05, , 
DataValue, 0.61, 3.3862E-05, 3.3862E-05, , 
DataValue, 0.6, 3.3316000000000004E-05, 3.3316000000000004E-05, , 
DataValue, 0.59000000000000008, 3.275E-05, 3.275E-05, , 
DataValue, 0.58000000000000007, 3.219E-05, 3.219E-05, , 
