
SetupTitle, ExtFET - POS SET - VG-1.62V - TE-1.5V
PrimitiveTest, I/V Sweep
TestParameter, Context.MainFrame, B1500A
TestParameter, Channel.UnitType, SMU, SMU, SMU
TestParameter, Channel.Unit, SMU2:HR, SMU4:HR, SMU3:HR
TestParameter, Channel.IName, I_TE, I_BE, I_G
TestParameter, Channel.VName, V_TE, V_BE, V_G
TestParameter, Channel.Mode, V, COMMON, V
TestParameter, Channel.Func, VAR1, CONST, CONST
TestParameter, Channel.Index, 
TestParameter, Channel.Time, 
TestParameter, Measurement.Port.Unit, SMU2:HR, SMU4:HR, SMU3:HR
TestParameter, Measurement.Port.SeriesResistor, NONE, NONE, NONE
TestParameter, Measurement.Port.Filter, ON, ON, ON
TestParameter, Measurement.Port.OutputVoltageComparison, 0, 0, 0
TestParameter, Measurement.Primary.Locus, Double
TestParameter, Measurement.Primary.Scale, LINEAR
TestParameter, Measurement.Primary.Start, 0
TestParameter, Measurement.Primary.Stop, 1.5
TestParameter, Measurement.Primary.Step, 0.01
TestParameter, Measurement.Primary.Compliance, 0.01
TestParameter, Measurement.Primary.PowerCompliance, 0
TestParameter, Measurement.Aborting.Condition, CONTINUE AT ANY
TestParameter, Measurement.PostOutput.Value, START
TestParameter, Measurement.PostOutput.Retention, OFF
TestParameter, Measurement.Bias.Source, 0, 0, 1.62
TestParameter, Measurement.Bias.Compliance, 0.01, 0.1, 0.0001
TestParameter, Measurement.Monitor.Unit, SMU2:HR, SMU4:HR, SMU3:HR
TestParameter, Measurement.Monitor.Adc, HR ADC, HR ADC, HR ADC
TestParameter, Measurement.Monitor.Measurement, Compliance Side, Compliance Side, Compliance Side
TestParameter, Measurement.Monitor.RangingMode, LIMITED, LIMITED, LIMITED
TestParameter, Measurement.Monitor.RangeBoundary, 1nA, 1nA, 1nA
TestParameter, Measurement.Monitor.RangeRating, BY FULL RANGE, BY FULL RANGE, BY FULL RANGE
TestParameter, Measurement.Monitor.RangeRatingCoeff, 50, 50, 50
TestParameter, Measurement.Timing.Hold, 0
TestParameter, Measurement.Timing.Delay, 0
TestParameter, Measurement.Adc.HighSpeed.Mode, AUTO
TestParameter, Measurement.Adc.HighSpeed.Coeff, 1
TestParameter, Measurement.Adc.HighResolution.AutoZero, OFF
TestParameter, Measurement.Adc.HighResolution.Mode, AUTO
TestParameter, Measurement.Adc.HighResolution.Coeff, 6
TestParameter, Measurement.WaitTime.Source.Coeff, 1
TestParameter, Measurement.WaitTime.Source.Offset, 0
TestParameter, Measurement.WaitTime.Monitor.Coeff, 1
TestParameter, Measurement.WaitTime.Monitor.Offset, 0
TestParameter, Function.User.Name, absITE
TestParameter, Function.User.Unit, A
TestParameter, Function.User.Definition, abs(I_TE)
TestParameter, Output.Graph.Enabled, true
TestParameter, Output.Graph.AutoScaling, false
TestParameter, Output.Graph.XAxis.Data, V_TE
TestParameter, Output.Graph.XAxis.Scale, Linear
TestParameter, Output.Graph.XAxis.Left, 0
TestParameter, Output.Graph.XAxis.Right, 10
TestParameter, Output.Graph.XAxis.RunTimeAutoScale, true
TestParameter, Output.Graph.YAxis.Data, absITE
TestParameter, Output.Graph.YAxis.Scale, Log
TestParameter, Output.Graph.YAxis.Bottom, 0
TestParameter, Output.Graph.YAxis.Top, 1
TestParameter, Output.Graph.YAxis.Group, 
TestParameter, Output.Graph.YAxis.RunTimeAutoScale, true
TestParameter, Output.List.Data, V1, I2abs
TestParameter, AutoAnalysis.Interpolation, false
TestParameter, AutoAnalysis.Var2StepCount, 1
TestParameter, AutoAnalysis.Var2StepScript, 
TestParameter, AutoAnalysis.Line1.Enabled, false
TestParameter, AutoAnalysis.Line1.Type, 1
TestParameter, AutoAnalysis.Line1.Fix, True
TestParameter, AutoAnalysis.Line1.YAxis, 0
TestParameter, AutoAnalysis.Line1.Point1.Type, 0
TestParameter, AutoAnalysis.Line1.Point1.XY.X, 
TestParameter, AutoAnalysis.Line1.Point1.XY.Y, 
TestParameter, AutoAnalysis.Line1.Point1.Data.Var, 
TestParameter, AutoAnalysis.Line1.Point1.Data.Condition, 
TestParameter, AutoAnalysis.Line1.Point1.Data.Start, false
TestParameter, AutoAnalysis.Line1.Point1.Data.StartVar, 
TestParameter, AutoAnalysis.Line1.Point1.Data.StartCondition, 
TestParameter, AutoAnalysis.Line1.Point2.Type, 0
TestParameter, AutoAnalysis.Line1.Point2.XY.X, 
TestParameter, AutoAnalysis.Line1.Point2.XY.Y, 
TestParameter, AutoAnalysis.Line1.Point2.Data.Var, 
TestParameter, AutoAnalysis.Line1.Point2.Data.Condition, 
TestParameter, AutoAnalysis.Line1.Point2.Data.Start, false
TestParameter, AutoAnalysis.Line1.Point2.Data.StartVar, 
TestParameter, AutoAnalysis.Line1.Point2.Data.StartCondition, 
TestParameter, AutoAnalysis.Line1.GradientExpr, 0
TestParameter, AutoAnalysis.Line2.Enabled, false
TestParameter, AutoAnalysis.Line2.Type, 1
TestParameter, AutoAnalysis.Line2.Fix, True
TestParameter, AutoAnalysis.Line2.YAxis, 0
TestParameter, AutoAnalysis.Line2.Point1.Type, 0
TestParameter, AutoAnalysis.Line2.Point1.XY.X, 
TestParameter, AutoAnalysis.Line2.Point1.XY.Y, 
TestParameter, AutoAnalysis.Line2.Point1.Data.Var, 
TestParameter, AutoAnalysis.Line2.Point1.Data.Condition, 
TestParameter, AutoAnalysis.Line2.Point1.Data.Start, false
TestParameter, AutoAnalysis.Line2.Point1.Data.StartVar, 
TestParameter, AutoAnalysis.Line2.Point1.Data.StartCondition, 
TestParameter, AutoAnalysis.Line2.Point2.Type, 0
TestParameter, AutoAnalysis.Line2.Point2.XY.X, 
TestParameter, AutoAnalysis.Line2.Point2.XY.Y, 
TestParameter, AutoAnalysis.Line2.Point2.Data.Var, 
TestParameter, AutoAnalysis.Line2.Point2.Data.Condition, 
TestParameter, AutoAnalysis.Line2.Point2.Data.Start, false
TestParameter, AutoAnalysis.Line2.Point2.Data.StartVar, 
TestParameter, AutoAnalysis.Line2.Point2.Data.StartCondition, 
TestParameter, AutoAnalysis.Line2.GradientExpr, 0
TestParameter, AutoAnalysis.Marker.Enabled, false
TestParameter, AutoAnalysis.Marker.Data.Var, 
TestParameter, AutoAnalysis.Marker.Data.Condition, 
TestParameter, AutoAnalysis.Marker.Data.Start, false
TestParameter, AutoAnalysis.Marker.Data.StartVar, 
TestParameter, AutoAnalysis.Marker.Data.StartCondition, 
MetaData, TestRecord.EntryPoint, true
MetaData, TestRecord.RecordTime, 04/15/2020 14:51:24
MetaData, TestRecord.TestTarget, S48_ExtFET_3D-C06_[10k-RES]_[TiN-BE]
MetaData, TestRecord.IterationIndex, 105
MetaData, TestRecord.Preservation, true
MetaData, TestRecord.Flag, 
MetaData, TestRecord.Remarks, 
MetaData, TestRecord.LinkKey, 321cc6eb-d0d3-44c9-aeba-78d86784d202
MetaData, TestRecord.Parameters, 
Dimension1, 302, 302, 302, 302, 302
Dimension2, 1, 1, 1, 1, 1
DataName, V_TE, I_TE, absITE, V1, I2abs
DataValue, 0, 6.5610000000000007E-11, 6.5610000000000007E-11, , 
DataValue, 0.01, 1.6674799999999998E-08, 1.6674799999999998E-08, , 
DataValue, 0.02, 3.20456E-08, 3.20456E-08, , 
DataValue, 0.030000000000000002, 4.72084E-08, 4.72084E-08, , 
DataValue, 0.04, 6.14492E-08, 6.14492E-08, , 
DataValue, 0.05, 7.7112599999999989E-08, 7.7112599999999989E-08, , 
DataValue, 0.060000000000000005, 9.7439399999999985E-08, 9.7439399999999985E-08, , 
DataValue, 0.07, 1.2573999999999999E-07, 1.2573999999999999E-07, , 
DataValue, 0.08, 1.4238E-07, 1.4238E-07, , 
DataValue, 0.090000000000000011, 1.3718E-07, 1.3718E-07, , 
DataValue, 0.1, 1.7209999999999999E-07, 1.7209999999999999E-07, , 
DataValue, 0.11, 1.7422E-07, 1.7422E-07, , 
DataValue, 0.12000000000000001, 4.1758E-07, 4.1758E-07, , 
DataValue, 0.13, 2.2837999999999998E-07, 2.2837999999999998E-07, , 
DataValue, 0.14, 2.3112E-07, 2.3112E-07, , 
DataValue, 0.15, 2.104E-07, 2.104E-07, , 
DataValue, 0.16, 2.8709999999999997E-07, 2.8709999999999997E-07, , 
DataValue, 0.17, 3.0287999999999997E-07, 3.0287999999999997E-07, , 
DataValue, 0.18000000000000002, 2.9504E-07, 2.9504E-07, , 
DataValue, 0.19, 2.8718E-07, 2.8718E-07, , 
DataValue, 0.2, 4.0238E-07, 4.0238E-07, , 
DataValue, 0.21000000000000002, 3.1394E-07, 3.1394E-07, , 
DataValue, 0.22, 3.3424E-07, 3.3424E-07, , 
DataValue, 0.23, 3.5976E-07, 3.5976E-07, , 
DataValue, 0.24000000000000002, 2.1213000000000003E-06, 2.1213000000000003E-06, , 
DataValue, 0.25, 2.3142000000000002E-06, 2.3142000000000002E-06, , 
DataValue, 0.26, 2.1813E-06, 2.1813E-06, , 
DataValue, 0.27, 2.4846000000000003E-06, 2.4846000000000003E-06, , 
DataValue, 0.28, 3.9534E-06, 3.9534E-06, , 
DataValue, 0.29000000000000004, 1.4402E-05, 1.4402E-05, , 
DataValue, 0.3, 1.5266E-05, 1.5266E-05, , 
DataValue, 0.31, 1.6108E-05, 1.6108E-05, , 
DataValue, 0.32, 1.6832E-05, 1.6832E-05, , 
DataValue, 0.33, 1.7372E-05, 1.7372E-05, , 
DataValue, 0.34, 1.7924E-05, 1.7924E-05, , 
DataValue, 0.35000000000000003, 1.8546E-05, 1.8546E-05, , 
DataValue, 0.36000000000000004, 1.9068E-05, 1.9068E-05, , 
DataValue, 0.37, 1.9802E-05, 1.9802E-05, , 
DataValue, 0.38, 2.0316E-05, 2.0316E-05, , 
DataValue, 0.39, 2.0878000000000002E-05, 2.0878000000000002E-05, , 
DataValue, 0.4, 2.1394000000000002E-05, 2.1394000000000002E-05, , 
DataValue, 0.41000000000000003, 2.1834E-05, 2.1834E-05, , 
DataValue, 0.42000000000000004, 2.2522000000000002E-05, 2.2522000000000002E-05, , 
DataValue, 0.43, 2.2970000000000002E-05, 2.2970000000000002E-05, , 
DataValue, 0.44, 2.3542E-05, 2.3542E-05, , 
DataValue, 0.45, 2.4E-05, 2.4E-05, , 
DataValue, 0.46, 2.4690000000000002E-05, 2.4690000000000002E-05, , 
DataValue, 0.47000000000000003, 2.5326E-05, 2.5326E-05, , 
DataValue, 0.48000000000000004, 2.5722000000000002E-05, 2.5722000000000002E-05, , 
DataValue, 0.49000000000000005, 2.639E-05, 2.639E-05, , 
DataValue, 0.5, 2.6974E-05, 2.6974E-05, , 
DataValue, 0.51, 2.7456E-05, 2.7456E-05, , 
DataValue, 0.52, 2.809E-05, 2.809E-05, , 
DataValue, 0.53, 2.8528000000000002E-05, 2.8528000000000002E-05, , 
DataValue, 0.54, 2.9138E-05, 2.9138E-05, , 
DataValue, 0.55, 2.9636000000000002E-05, 2.9636000000000002E-05, , 
DataValue, 0.56, 3.0254000000000002E-05, 3.0254000000000002E-05, , 
DataValue, 0.57000000000000006, 3.0804E-05, 3.0804E-05, , 
DataValue, 0.58000000000000007, 3.13E-05, 3.13E-05, , 
DataValue, 0.59000000000000008, 3.1844E-05, 3.1844E-05, , 
DataValue, 0.6, 3.2376E-05, 3.2376E-05, , 
DataValue, 0.61, 3.29E-05, 3.29E-05, , 
DataValue, 0.62, 3.3478E-05, 3.3478E-05, , 
DataValue, 0.63, 3.4092E-05, 3.4092E-05, , 
DataValue, 0.64, 3.4552000000000004E-05, 3.4552000000000004E-05, , 
DataValue, 0.65, 3.508E-05, 3.508E-05, , 
DataValue, 0.66, 3.5856000000000004E-05, 3.5856000000000004E-05, , 
DataValue, 0.67, 3.6398E-05, 3.6398E-05, , 
DataValue, 0.68, 3.701E-05, 3.701E-05, , 
DataValue, 0.69000000000000006, 3.7562000000000004E-05, 3.7562000000000004E-05, , 
DataValue, 0.70000000000000007, 3.8062E-05, 3.8062E-05, , 
DataValue, 0.71000000000000008, 3.8656000000000004E-05, 3.8656000000000004E-05, , 
DataValue, 0.72000000000000008, 3.9146E-05, 3.9146E-05, , 
DataValue, 0.73, 3.9714E-05, 3.9714E-05, , 
DataValue, 0.74, 4.028E-05, 4.028E-05, , 
DataValue, 0.75, 4.0814E-05, 4.0814E-05, , 
DataValue, 0.76, 4.1372E-05, 4.1372E-05, , 
DataValue, 0.77, 4.1962E-05, 4.1962E-05, , 
DataValue, 0.78, 4.2836E-05, 4.2836E-05, , 
DataValue, 0.79, 4.3352E-05, 4.3352E-05, , 
DataValue, 0.8, 4.4198E-05, 4.4198E-05, , 
DataValue, 0.81, 4.4754E-05, 4.4754E-05, , 
DataValue, 0.82000000000000006, 4.5266E-05, 4.5266E-05, , 
DataValue, 0.83000000000000007, 4.579E-05, 4.579E-05, , 
DataValue, 0.84000000000000008, 4.6306E-05, 4.6306E-05, , 
DataValue, 0.85000000000000009, 4.6862E-05, 4.6862E-05, , 
DataValue, 0.86, 4.741E-05, 4.741E-05, , 
DataValue, 0.87, 4.8006E-05, 4.8006E-05, , 
DataValue, 0.88, 4.8514000000000003E-05, 4.8514000000000003E-05, , 
DataValue, 0.89, 4.9076E-05, 4.9076E-05, , 
DataValue, 0.9, 4.9572E-05, 4.9572E-05, , 
DataValue, 0.91, 4.9986E-05, 4.9986E-05, , 
DataValue, 0.92, 5.0532000000000003E-05, 5.0532000000000003E-05, , 
DataValue, 0.93, 5.1192E-05, 5.1192E-05, , 
DataValue, 0.94000000000000006, 5.177E-05, 5.177E-05, , 
DataValue, 0.95000000000000007, 5.229E-05, 5.229E-05, , 
DataValue, 0.96000000000000008, 5.2916E-05, 5.2916E-05, , 
DataValue, 0.97000000000000008, 5.3474E-05, 5.3474E-05, , 
DataValue, 0.98000000000000009, 5.405E-05, 5.405E-05, , 
DataValue, 0.9900000000000001, 5.4546E-05, 5.4546E-05, , 
DataValue, 1, 5.5144E-05, 5.5144E-05, , 
DataValue, 1.01, 5.5668E-05, 5.5668E-05, , 
DataValue, 1.02, 5.6188000000000005E-05, 5.6188000000000005E-05, , 
DataValue, 1.03, 5.6716000000000004E-05, 5.6716000000000004E-05, , 
DataValue, 1.04, 5.7176E-05, 5.7176E-05, , 
DataValue, 1.05, 5.7716E-05, 5.7716E-05, , 
DataValue, 1.06, 5.8242E-05, 5.8242E-05, , 
DataValue, 1.07, 5.8752E-05, 5.8752E-05, , 
DataValue, 1.08, 5.9276E-05, 5.9276E-05, , 
DataValue, 1.09, 5.9784E-05, 5.9784E-05, , 
DataValue, 1.1, 6.0306E-05, 6.0306E-05, , 
DataValue, 1.11, 6.085E-05, 6.085E-05, , 
DataValue, 1.12, 6.1298000000000008E-05, 6.1298000000000008E-05, , 
DataValue, 1.1300000000000001, 6.1816E-05, 6.1816E-05, , 
DataValue, 1.1400000000000001, 6.2358E-05, 6.2358E-05, , 
DataValue, 1.1500000000000001, 6.2896E-05, 6.2896E-05, , 
DataValue, 1.1600000000000001, 6.336E-05, 6.336E-05, , 
DataValue, 1.1700000000000002, 6.3832000000000008E-05, 6.3832000000000008E-05, , 
DataValue, 1.1800000000000002, 6.4342E-05, 6.4342E-05, , 
DataValue, 1.19, 6.4814E-05, 6.4814E-05, , 
DataValue, 1.2, 6.5260000000000009E-05, 6.5260000000000009E-05, , 
DataValue, 1.21, 6.5764E-05, 6.5764E-05, , 
DataValue, 1.22, 6.6238E-05, 6.6238E-05, , 
DataValue, 1.23, 6.6746E-05, 6.6746E-05, , 
DataValue, 1.24, 6.719E-05, 6.719E-05, , 
DataValue, 1.25, 6.7812000000000007E-05, 6.7812000000000007E-05, , 
DataValue, 1.26, 6.8326E-05, 6.8326E-05, , 
DataValue, 1.27, 6.8684000000000008E-05, 6.8684000000000008E-05, , 
DataValue, 1.28, 6.9186E-05, 6.9186E-05, , 
DataValue, 1.29, 6.9612E-05, 6.9612E-05, , 
DataValue, 1.3, 7.0076E-05, 7.0076E-05, , 
DataValue, 1.31, 7.0538000000000008E-05, 7.0538000000000008E-05, , 
DataValue, 1.32, 7.101E-05, 7.101E-05, , 
DataValue, 1.33, 7.1464E-05, 7.1464E-05, , 
DataValue, 1.34, 7.1910000000000008E-05, 7.1910000000000008E-05, , 
DataValue, 1.35, 7.2132E-05, 7.2132E-05, , 
DataValue, 1.36, 7.2634E-05, 7.2634E-05, , 
DataValue, 1.37, 7.2984E-05, 7.2984E-05, , 
DataValue, 1.3800000000000001, 7.345E-05, 7.345E-05, , 
DataValue, 1.3900000000000001, 7.3802000000000009E-05, 7.3802000000000009E-05, , 
DataValue, 1.4000000000000001, 7.4224E-05, 7.4224E-05, , 
DataValue, 1.4100000000000001, 7.4652E-05, 7.4652E-05, , 
DataValue, 1.4200000000000002, 7.5022E-05, 7.5022E-05, , 
DataValue, 1.4300000000000002, 7.5558E-05, 7.5558E-05, , 
DataValue, 1.4400000000000002, 7.5902E-05, 7.5902E-05, , 
DataValue, 1.4500000000000002, 7.6318E-05, 7.6318E-05, , 
DataValue, 1.46, 7.6734E-05, 7.6734E-05, , 
DataValue, 1.47, 7.7292E-05, 7.7292E-05, , 
DataValue, 1.48, 7.7652000000000008E-05, 7.7652000000000008E-05, , 
DataValue, 1.49, 7.7796E-05, 7.7796E-05, , 
DataValue, 1.5, 7.83E-05, 7.83E-05, , 
DataValue, 1.5, 7.8326000000000009E-05, 7.8326000000000009E-05, , 
DataValue, 1.49, 7.7908E-05, 7.7908E-05, , 
DataValue, 1.48, 7.752E-05, 7.752E-05, , 
DataValue, 1.47, 7.7082E-05, 7.7082E-05, , 
DataValue, 1.46, 7.6780000000000007E-05, 7.6780000000000007E-05, , 
DataValue, 1.4500000000000002, 7.6388E-05, 7.6388E-05, , 
DataValue, 1.4400000000000002, 7.6022E-05, 7.6022E-05, , 
DataValue, 1.4300000000000002, 7.5532000000000008E-05, 7.5532000000000008E-05, , 
DataValue, 1.4200000000000002, 7.5096E-05, 7.5096E-05, , 
DataValue, 1.4100000000000001, 7.4734E-05, 7.4734E-05, , 
DataValue, 1.4000000000000001, 7.4302000000000008E-05, 7.4302000000000008E-05, , 
DataValue, 1.3900000000000001, 7.391E-05, 7.391E-05, , 
DataValue, 1.3800000000000001, 7.3456E-05, 7.3456E-05, , 
DataValue, 1.37, 7.3038E-05, 7.3038E-05, , 
DataValue, 1.36, 7.2578000000000009E-05, 7.2578000000000009E-05, , 
DataValue, 1.35, 7.2118E-05, 7.2118E-05, , 
DataValue, 1.34, 7.1750000000000009E-05, 7.1750000000000009E-05, , 
DataValue, 1.33, 7.135E-05, 7.135E-05, , 
DataValue, 1.32, 7.098E-05, 7.098E-05, , 
DataValue, 1.31, 7.0536E-05, 7.0536E-05, , 
DataValue, 1.3, 7.0038E-05, 7.0038E-05, , 
DataValue, 1.29, 6.961E-05, 6.961E-05, , 
DataValue, 1.28, 6.914E-05, 6.914E-05, , 
DataValue, 1.27, 6.8674E-05, 6.8674E-05, , 
DataValue, 1.26, 6.8162E-05, 6.8162E-05, , 
DataValue, 1.25, 6.7736E-05, 6.7736E-05, , 
DataValue, 1.24, 6.7292E-05, 6.7292E-05, , 
DataValue, 1.23, 6.68E-05, 6.68E-05, , 
DataValue, 1.22, 6.6432E-05, 6.6432E-05, , 
DataValue, 1.21, 6.58E-05, 6.58E-05, , 
DataValue, 1.2, 6.5352000000000007E-05, 6.5352000000000007E-05, , 
DataValue, 1.19, 6.4898E-05, 6.4898E-05, , 
DataValue, 1.1800000000000002, 6.4398E-05, 6.4398E-05, , 
DataValue, 1.1700000000000002, 6.3926E-05, 6.3926E-05, , 
DataValue, 1.1600000000000001, 6.3442000000000007E-05, 6.3442000000000007E-05, , 
DataValue, 1.1500000000000001, 6.3002E-05, 6.3002E-05, , 
DataValue, 1.1400000000000001, 6.2488E-05, 6.2488E-05, , 
DataValue, 1.1300000000000001, 6.1974E-05, 6.1974E-05, , 
DataValue, 1.12, 6.1468E-05, 6.1468E-05, , 
DataValue, 1.11, 6.0942E-05, 6.0942E-05, , 
DataValue, 1.1, 6.043E-05, 6.043E-05, , 
DataValue, 1.09, 5.9934E-05, 5.9934E-05, , 
DataValue, 1.08, 5.9372E-05, 5.9372E-05, , 
DataValue, 1.07, 5.8870000000000004E-05, 5.8870000000000004E-05, , 
DataValue, 1.06, 5.8354000000000004E-05, 5.8354000000000004E-05, , 
DataValue, 1.05, 5.7846E-05, 5.7846E-05, , 
DataValue, 1.04, 5.7306E-05, 5.7306E-05, , 
DataValue, 1.03, 5.6782E-05, 5.6782E-05, , 
DataValue, 1.02, 5.6248E-05, 5.6248E-05, , 
DataValue, 1.01, 5.5686E-05, 5.5686E-05, , 
DataValue, 1, 5.516E-05, 5.516E-05, , 
DataValue, 0.9900000000000001, 5.4628E-05, 5.4628E-05, , 
DataValue, 0.98000000000000009, 5.4106E-05, 5.4106E-05, , 
DataValue, 0.97000000000000008, 5.3574E-05, 5.3574E-05, , 
DataValue, 0.96000000000000008, 5.3058E-05, 5.3058E-05, , 
DataValue, 0.95000000000000007, 5.2478E-05, 5.2478E-05, , 
DataValue, 0.94000000000000006, 5.1958E-05, 5.1958E-05, , 
DataValue, 0.93, 5.1432000000000005E-05, 5.1432000000000005E-05, , 
DataValue, 0.92, 5.088E-05, 5.088E-05, , 
DataValue, 0.91, 5.0338000000000005E-05, 5.0338000000000005E-05, , 
DataValue, 0.9, 4.9822000000000005E-05, 4.9822000000000005E-05, , 
DataValue, 0.89, 4.9242E-05, 4.9242E-05, , 
DataValue, 0.88, 4.8722E-05, 4.8722E-05, , 
DataValue, 0.87, 4.8156000000000004E-05, 4.8156000000000004E-05, , 
DataValue, 0.86, 4.7636E-05, 4.7636E-05, , 
DataValue, 0.85000000000000009, 4.712E-05, 4.712E-05, , 
DataValue, 0.84000000000000008, 4.6558000000000004E-05, 4.6558000000000004E-05, , 
DataValue, 0.83000000000000007, 4.599E-05, 4.599E-05, , 
DataValue, 0.82000000000000006, 4.546E-05, 4.546E-05, , 
DataValue, 0.81, 4.4908000000000004E-05, 4.4908000000000004E-05, , 
DataValue, 0.8, 4.4368E-05, 4.4368E-05, , 
DataValue, 0.79, 4.3822E-05, 4.3822E-05, , 
DataValue, 0.78, 4.3298000000000005E-05, 4.3298000000000005E-05, , 
DataValue, 0.77, 4.2732000000000004E-05, 4.2732000000000004E-05, , 
DataValue, 0.76, 4.2206E-05, 4.2206E-05, , 
DataValue, 0.75, 4.1632000000000004E-05, 4.1632000000000004E-05, , 
DataValue, 0.74, 4.1096E-05, 4.1096E-05, , 
DataValue, 0.73, 4.0552E-05, 4.0552E-05, , 
DataValue, 0.72000000000000008, 3.9966E-05, 3.9966E-05, , 
DataValue, 0.71000000000000008, 3.9426E-05, 3.9426E-05, , 
DataValue, 0.70000000000000007, 3.8848E-05, 3.8848E-05, , 
DataValue, 0.69000000000000006, 3.8314E-05, 3.8314E-05, , 
DataValue, 0.68, 3.7774E-05, 3.7774E-05, , 
DataValue, 0.67, 3.7226E-05, 3.7226E-05, , 
DataValue, 0.66, 3.6674E-05, 3.6674E-05, , 
DataValue, 0.65, 3.6106E-05, 3.6106E-05, , 
DataValue, 0.64, 3.5562E-05, 3.5562E-05, , 
DataValue, 0.63, 3.5008E-05, 3.5008E-05, , 
DataValue, 0.62, 3.4454E-05, 3.4454E-05, , 
DataValue, 0.61, 3.3894000000000004E-05, 3.3894000000000004E-05, , 
DataValue, 0.6, 3.333E-05, 3.333E-05, , 
DataValue, 0.59000000000000008, 3.2782E-05, 3.2782E-05, , 
DataValue, 0.58000000000000007, 3.2198E-05, 3.2198E-05, , 
DataValue, 0.57000000000000006, 3.1644000000000004E-05, 3.1644000000000004E-05, , 
DataValue, 0.56, 3.1076E-05, 3.1076E-05, , 
