
SetupTitle, ExtFET - POS SET - VG-1.62V - TE-1.5V
PrimitiveTest, I/V Sweep
TestParameter, Context.MainFrame, B1500A
TestParameter, Channel.UnitType, SMU, SMU, SMU
TestParameter, Channel.Unit, SMU2:HR, SMU4:HR, SMU3:HR
TestParameter, Channel.IName, I_TE, I_BE, I_G
TestParameter, Channel.VName, V_TE, V_BE, V_G
TestParameter, Channel.Mode, V, COMMON, V
TestParameter, Channel.Func, VAR1, CONST, CONST
TestParameter, Channel.Index, 
TestParameter, Channel.Time, 
TestParameter, Measurement.Port.Unit, SMU2:HR, SMU4:HR, SMU3:HR
TestParameter, Measurement.Port.SeriesResistor, NONE, NONE, NONE
TestParameter, Measurement.Port.Filter, ON, ON, ON
TestParameter, Measurement.Port.OutputVoltageComparison, 0, 0, 0
TestParameter, Measurement.Primary.Locus, Double
TestParameter, Measurement.Primary.Scale, LINEAR
TestParameter, Measurement.Primary.Start, 0
TestParameter, Measurement.Primary.Stop, 1.5
TestParameter, Measurement.Primary.Step, 0.01
TestParameter, Measurement.Primary.Compliance, 0.01
TestParameter, Measurement.Primary.PowerCompliance, 0
TestParameter, Measurement.Aborting.Condition, CONTINUE AT ANY
TestParameter, Measurement.PostOutput.Value, START
TestParameter, Measurement.PostOutput.Retention, OFF
TestParameter, Measurement.Bias.Source, 0, 0, 1.62
TestParameter, Measurement.Bias.Compliance, 0.01, 0.1, 0.0001
TestParameter, Measurement.Monitor.Unit, SMU2:HR, SMU4:HR, SMU3:HR
TestParameter, Measurement.Monitor.Adc, HR ADC, HR ADC, HR ADC
TestParameter, Measurement.Monitor.Measurement, Compliance Side, Compliance Side, Compliance Side
TestParameter, Measurement.Monitor.RangingMode, LIMITED, LIMITED, LIMITED
TestParameter, Measurement.Monitor.RangeBoundary, 1nA, 1nA, 1nA
TestParameter, Measurement.Monitor.RangeRating, BY FULL RANGE, BY FULL RANGE, BY FULL RANGE
TestParameter, Measurement.Monitor.RangeRatingCoeff, 50, 50, 50
TestParameter, Measurement.Timing.Hold, 0
TestParameter, Measurement.Timing.Delay, 0
TestParameter, Measurement.Adc.HighSpeed.Mode, AUTO
TestParameter, Measurement.Adc.HighSpeed.Coeff, 1
TestParameter, Measurement.Adc.HighResolution.AutoZero, OFF
TestParameter, Measurement.Adc.HighResolution.Mode, AUTO
TestParameter, Measurement.Adc.HighResolution.Coeff, 6
TestParameter, Measurement.WaitTime.Source.Coeff, 1
TestParameter, Measurement.WaitTime.Source.Offset, 0
TestParameter, Measurement.WaitTime.Monitor.Coeff, 1
TestParameter, Measurement.WaitTime.Monitor.Offset, 0
TestParameter, Function.User.Name, absITE
TestParameter, Function.User.Unit, A
TestParameter, Function.User.Definition, abs(I_TE)
TestParameter, Output.Graph.Enabled, true
TestParameter, Output.Graph.AutoScaling, false
TestParameter, Output.Graph.XAxis.Data, V_TE
TestParameter, Output.Graph.XAxis.Scale, Linear
TestParameter, Output.Graph.XAxis.Left, 0
TestParameter, Output.Graph.XAxis.Right, 10
TestParameter, Output.Graph.XAxis.RunTimeAutoScale, true
TestParameter, Output.Graph.YAxis.Data, absITE
TestParameter, Output.Graph.YAxis.Scale, Log
TestParameter, Output.Graph.YAxis.Bottom, 0
TestParameter, Output.Graph.YAxis.Top, 1
TestParameter, Output.Graph.YAxis.Group, 
TestParameter, Output.Graph.YAxis.RunTimeAutoScale, true
TestParameter, Output.List.Data, V1, I2abs
TestParameter, AutoAnalysis.Interpolation, false
TestParameter, AutoAnalysis.Var2StepCount, 1
TestParameter, AutoAnalysis.Var2StepScript, 
TestParameter, AutoAnalysis.Line1.Enabled, false
TestParameter, AutoAnalysis.Line1.Type, 1
TestParameter, AutoAnalysis.Line1.Fix, True
TestParameter, AutoAnalysis.Line1.YAxis, 0
TestParameter, AutoAnalysis.Line1.Point1.Type, 0
TestParameter, AutoAnalysis.Line1.Point1.XY.X, 
TestParameter, AutoAnalysis.Line1.Point1.XY.Y, 
TestParameter, AutoAnalysis.Line1.Point1.Data.Var, 
TestParameter, AutoAnalysis.Line1.Point1.Data.Condition, 
TestParameter, AutoAnalysis.Line1.Point1.Data.Start, false
TestParameter, AutoAnalysis.Line1.Point1.Data.StartVar, 
TestParameter, AutoAnalysis.Line1.Point1.Data.StartCondition, 
TestParameter, AutoAnalysis.Line1.Point2.Type, 0
TestParameter, AutoAnalysis.Line1.Point2.XY.X, 
TestParameter, AutoAnalysis.Line1.Point2.XY.Y, 
TestParameter, AutoAnalysis.Line1.Point2.Data.Var, 
TestParameter, AutoAnalysis.Line1.Point2.Data.Condition, 
TestParameter, AutoAnalysis.Line1.Point2.Data.Start, false
TestParameter, AutoAnalysis.Line1.Point2.Data.StartVar, 
TestParameter, AutoAnalysis.Line1.Point2.Data.StartCondition, 
TestParameter, AutoAnalysis.Line1.GradientExpr, 0
TestParameter, AutoAnalysis.Line2.Enabled, false
TestParameter, AutoAnalysis.Line2.Type, 1
TestParameter, AutoAnalysis.Line2.Fix, True
TestParameter, AutoAnalysis.Line2.YAxis, 0
TestParameter, AutoAnalysis.Line2.Point1.Type, 0
TestParameter, AutoAnalysis.Line2.Point1.XY.X, 
TestParameter, AutoAnalysis.Line2.Point1.XY.Y, 
TestParameter, AutoAnalysis.Line2.Point1.Data.Var, 
TestParameter, AutoAnalysis.Line2.Point1.Data.Condition, 
TestParameter, AutoAnalysis.Line2.Point1.Data.Start, false
TestParameter, AutoAnalysis.Line2.Point1.Data.StartVar, 
TestParameter, AutoAnalysis.Line2.Point1.Data.StartCondition, 
TestParameter, AutoAnalysis.Line2.Point2.Type, 0
TestParameter, AutoAnalysis.Line2.Point2.XY.X, 
TestParameter, AutoAnalysis.Line2.Point2.XY.Y, 
TestParameter, AutoAnalysis.Line2.Point2.Data.Var, 
TestParameter, AutoAnalysis.Line2.Point2.Data.Condition, 
TestParameter, AutoAnalysis.Line2.Point2.Data.Start, false
TestParameter, AutoAnalysis.Line2.Point2.Data.StartVar, 
TestParameter, AutoAnalysis.Line2.Point2.Data.StartCondition, 
TestParameter, AutoAnalysis.Line2.GradientExpr, 0
TestParameter, AutoAnalysis.Marker.Enabled, false
TestParameter, AutoAnalysis.Marker.Data.Var, 
TestParameter, AutoAnalysis.Marker.Data.Condition, 
TestParameter, AutoAnalysis.Marker.Data.Start, false
TestParameter, AutoAnalysis.Marker.Data.StartVar, 
TestParameter, AutoAnalysis.Marker.Data.StartCondition, 
MetaData, TestRecord.EntryPoint, true
MetaData, TestRecord.RecordTime, 04/15/2020 14:51:31
MetaData, TestRecord.TestTarget, S48_ExtFET_3D-C06_[10k-RES]_[TiN-BE]
MetaData, TestRecord.IterationIndex, 106
MetaData, TestRecord.Preservation, true
MetaData, TestRecord.Flag, 
MetaData, TestRecord.Remarks, 
MetaData, TestRecord.LinkKey, d019803c-a274-4457-92da-521d4c0061dc
MetaData, TestRecord.Parameters, 
Dimension1, 302, 302, 302, 302, 302
Dimension2, 1, 1, 1, 1, 1
DataName, V_TE, I_TE, absITE, V1, I2abs
DataValue, 0, 7.7320000000000011E-11, 7.7320000000000011E-11, , 
DataValue, 0.01, 2.98658E-08, 2.98658E-08, , 
DataValue, 0.02, 5.7955799999999995E-08, 5.7955799999999995E-08, , 
DataValue, 0.030000000000000002, 8.5074E-08, 8.5074E-08, , 
DataValue, 0.04, 1.142E-07, 1.142E-07, , 
DataValue, 0.05, 1.3904E-07, 1.3904E-07, , 
DataValue, 0.060000000000000005, 1.6954E-07, 1.6954E-07, , 
DataValue, 0.07, 1.9494E-07, 1.9494E-07, , 
DataValue, 0.08, 2.2956E-07, 2.2956E-07, , 
DataValue, 0.090000000000000011, 2.5632E-07, 2.5632E-07, , 
DataValue, 0.1, 2.7074E-07, 2.7074E-07, , 
DataValue, 0.11, 3.0508E-07, 3.0508E-07, , 
DataValue, 0.12000000000000001, 3.3919999999999997E-07, 3.3919999999999997E-07, , 
DataValue, 0.13, 3.812E-07, 3.812E-07, , 
DataValue, 0.14, 4.0339999999999997E-07, 4.0339999999999997E-07, , 
DataValue, 0.15, 4.4426E-07, 4.4426E-07, , 
DataValue, 0.16, 4.6515999999999996E-07, 4.6515999999999996E-07, , 
DataValue, 0.17, 4.93E-07, 4.93E-07, , 
DataValue, 0.18000000000000002, 5.4304E-07, 5.4304E-07, , 
DataValue, 0.19, 5.7198E-07, 5.7198E-07, , 
DataValue, 0.2, 6.037E-07, 6.037E-07, , 
DataValue, 0.21000000000000002, 6.8444E-07, 6.8444E-07, , 
DataValue, 0.22, 7.0658E-07, 7.0658E-07, , 
DataValue, 0.23, 7.2598E-07, 7.2598E-07, , 
DataValue, 0.24000000000000002, 8.3496E-07, 8.3496E-07, , 
DataValue, 0.25, 8.6686E-07, 8.6686E-07, , 
DataValue, 0.26, 8.9633999999999994E-07, 8.9633999999999994E-07, , 
DataValue, 0.27, 9.6928E-07, 9.6928E-07, , 
DataValue, 0.28, 1.00864E-06, 1.00864E-06, , 
DataValue, 0.29000000000000004, 1.04378E-06, 1.04378E-06, , 
DataValue, 0.3, 1.0828E-06, 1.0828E-06, , 
DataValue, 0.31, 8.6570000000000014E-07, 8.6570000000000014E-07, , 
DataValue, 0.32, 1.4916E-05, 1.4916E-05, , 
DataValue, 0.33, 1.537E-05, 1.537E-05, , 
DataValue, 0.34, 1.5528E-05, 1.5528E-05, , 
DataValue, 0.35000000000000003, 1.5936E-05, 1.5936E-05, , 
DataValue, 0.36000000000000004, 1.6578E-05, 1.6578E-05, , 
DataValue, 0.37, 1.717E-05, 1.717E-05, , 
DataValue, 0.38, 1.7558E-05, 1.7558E-05, , 
DataValue, 0.39, 1.8568E-05, 1.8568E-05, , 
DataValue, 0.4, 2.0754E-05, 2.0754E-05, , 
DataValue, 0.41000000000000003, 2.144E-05, 2.144E-05, , 
DataValue, 0.42000000000000004, 2.1996E-05, 2.1996E-05, , 
DataValue, 0.43, 2.2666E-05, 2.2666E-05, , 
DataValue, 0.44, 2.3274E-05, 2.3274E-05, , 
DataValue, 0.45, 2.4116E-05, 2.4116E-05, , 
DataValue, 0.46, 2.4566E-05, 2.4566E-05, , 
DataValue, 0.47000000000000003, 2.5234E-05, 2.5234E-05, , 
DataValue, 0.48000000000000004, 2.5766E-05, 2.5766E-05, , 
DataValue, 0.49000000000000005, 2.6306000000000002E-05, 2.6306000000000002E-05, , 
DataValue, 0.5, 2.6926E-05, 2.6926E-05, , 
DataValue, 0.51, 2.7572E-05, 2.7572E-05, , 
DataValue, 0.52, 2.8100000000000002E-05, 2.8100000000000002E-05, , 
DataValue, 0.53, 2.8672000000000003E-05, 2.8672000000000003E-05, , 
DataValue, 0.54, 2.9208000000000002E-05, 2.9208000000000002E-05, , 
DataValue, 0.55, 2.9846000000000002E-05, 2.9846000000000002E-05, , 
DataValue, 0.56, 3.0526E-05, 3.0526E-05, , 
DataValue, 0.57000000000000006, 3.113E-05, 3.113E-05, , 
DataValue, 0.58000000000000007, 3.1684000000000004E-05, 3.1684000000000004E-05, , 
DataValue, 0.59000000000000008, 3.2246E-05, 3.2246E-05, , 
DataValue, 0.6, 3.2788E-05, 3.2788E-05, , 
DataValue, 0.61, 3.3352E-05, 3.3352E-05, , 
DataValue, 0.62, 3.3902E-05, 3.3902E-05, , 
DataValue, 0.63, 3.44E-05, 3.44E-05, , 
DataValue, 0.64, 3.5054E-05, 3.5054E-05, , 
DataValue, 0.65, 3.5506E-05, 3.5506E-05, , 
DataValue, 0.66, 3.6284E-05, 3.6284E-05, , 
DataValue, 0.67, 3.6872E-05, 3.6872E-05, , 
DataValue, 0.68, 3.7420000000000004E-05, 3.7420000000000004E-05, , 
DataValue, 0.69000000000000006, 3.7856E-05, 3.7856E-05, , 
DataValue, 0.70000000000000007, 3.8452000000000004E-05, 3.8452000000000004E-05, , 
DataValue, 0.71000000000000008, 3.9002000000000004E-05, 3.9002000000000004E-05, , 
DataValue, 0.72000000000000008, 3.9546000000000004E-05, 3.9546000000000004E-05, , 
DataValue, 0.73, 4.0092E-05, 4.0092E-05, , 
DataValue, 0.74, 4.0640000000000004E-05, 4.0640000000000004E-05, , 
DataValue, 0.75, 4.1164E-05, 4.1164E-05, , 
DataValue, 0.76, 4.173E-05, 4.173E-05, , 
DataValue, 0.77, 4.2248E-05, 4.2248E-05, , 
DataValue, 0.78, 4.2788000000000004E-05, 4.2788000000000004E-05, , 
DataValue, 0.79, 4.337E-05, 4.337E-05, , 
DataValue, 0.8, 4.3916000000000004E-05, 4.3916000000000004E-05, , 
DataValue, 0.81, 4.4436E-05, 4.4436E-05, , 
DataValue, 0.82000000000000006, 4.4978E-05, 4.4978E-05, , 
DataValue, 0.83000000000000007, 4.5532000000000004E-05, 4.5532000000000004E-05, , 
DataValue, 0.84000000000000008, 4.6054E-05, 4.6054E-05, , 
DataValue, 0.85000000000000009, 4.6732E-05, 4.6732E-05, , 
DataValue, 0.86, 4.7154E-05, 4.7154E-05, , 
DataValue, 0.87, 4.7694E-05, 4.7694E-05, , 
DataValue, 0.88, 4.8246E-05, 4.8246E-05, , 
DataValue, 0.89, 4.88E-05, 4.88E-05, , 
DataValue, 0.9, 4.9516000000000005E-05, 4.9516000000000005E-05, , 
DataValue, 0.91, 5.0072000000000004E-05, 5.0072000000000004E-05, , 
DataValue, 0.92, 5.0636E-05, 5.0636E-05, , 
DataValue, 0.93, 5.1198E-05, 5.1198E-05, , 
DataValue, 0.94000000000000006, 5.176E-05, 5.176E-05, , 
DataValue, 0.95000000000000007, 5.2302E-05, 5.2302E-05, , 
DataValue, 0.96000000000000008, 5.2804000000000005E-05, 5.2804000000000005E-05, , 
DataValue, 0.97000000000000008, 5.3292000000000004E-05, 5.3292000000000004E-05, , 
DataValue, 0.98000000000000009, 5.3794E-05, 5.3794E-05, , 
DataValue, 0.9900000000000001, 5.4358000000000004E-05, 5.4358000000000004E-05, , 
DataValue, 1, 5.4878E-05, 5.4878E-05, , 
DataValue, 1.01, 5.5414E-05, 5.5414E-05, , 
DataValue, 1.02, 5.5946E-05, 5.5946E-05, , 
DataValue, 1.03, 5.644E-05, 5.644E-05, , 
DataValue, 1.04, 5.7078000000000005E-05, 5.7078000000000005E-05, , 
DataValue, 1.05, 5.7588000000000005E-05, 5.7588000000000005E-05, , 
DataValue, 1.06, 5.7966E-05, 5.7966E-05, , 
DataValue, 1.07, 5.8538E-05, 5.8538E-05, , 
DataValue, 1.08, 5.9018E-05, 5.9018E-05, , 
DataValue, 1.09, 5.954E-05, 5.954E-05, , 
DataValue, 1.1, 6.0124E-05, 6.0124E-05, , 
DataValue, 1.11, 6.0572E-05, 6.0572E-05, , 
DataValue, 1.12, 6.1104E-05, 6.1104E-05, , 
DataValue, 1.1300000000000001, 6.162E-05, 6.162E-05, , 
DataValue, 1.1400000000000001, 6.211E-05, 6.211E-05, , 
DataValue, 1.1500000000000001, 6.2584E-05, 6.2584E-05, , 
DataValue, 1.1600000000000001, 6.3088E-05, 6.3088E-05, , 
DataValue, 1.1700000000000002, 6.3594E-05, 6.3594E-05, , 
DataValue, 1.1800000000000002, 6.4018E-05, 6.4018E-05, , 
DataValue, 1.19, 6.4514E-05, 6.4514E-05, , 
DataValue, 1.2, 6.4988000000000009E-05, 6.4988000000000009E-05, , 
DataValue, 1.21, 6.5552E-05, 6.5552E-05, , 
DataValue, 1.22, 6.6018E-05, 6.6018E-05, , 
DataValue, 1.23, 6.6394E-05, 6.6394E-05, , 
DataValue, 1.24, 6.7002E-05, 6.7002E-05, , 
DataValue, 1.25, 6.7442000000000009E-05, 6.7442000000000009E-05, , 
DataValue, 1.26, 6.7908E-05, 6.7908E-05, , 
DataValue, 1.27, 6.8448E-05, 6.8448E-05, , 
DataValue, 1.28, 6.8958E-05, 6.8958E-05, , 
DataValue, 1.29, 6.9344E-05, 6.9344E-05, , 
DataValue, 1.3, 6.9774E-05, 6.9774E-05, , 
DataValue, 1.31, 7.0208E-05, 7.0208E-05, , 
DataValue, 1.32, 7.0680000000000008E-05, 7.0680000000000008E-05, , 
DataValue, 1.33, 7.1106E-05, 7.1106E-05, , 
DataValue, 1.34, 7.176E-05, 7.176E-05, , 
DataValue, 1.35, 7.2212E-05, 7.2212E-05, , 
DataValue, 1.36, 7.2558E-05, 7.2558E-05, , 
DataValue, 1.37, 7.3016000000000007E-05, 7.3016000000000007E-05, , 
DataValue, 1.3800000000000001, 7.3530000000000009E-05, 7.3530000000000009E-05, , 
DataValue, 1.3900000000000001, 7.3952E-05, 7.3952E-05, , 
DataValue, 1.4000000000000001, 7.4392E-05, 7.4392E-05, , 
DataValue, 1.4100000000000001, 7.4804E-05, 7.4804E-05, , 
DataValue, 1.4200000000000002, 7.5194E-05, 7.5194E-05, , 
DataValue, 1.4300000000000002, 7.558E-05, 7.558E-05, , 
DataValue, 1.4400000000000002, 7.6124E-05, 7.6124E-05, , 
DataValue, 1.4500000000000002, 7.6426E-05, 7.6426E-05, , 
DataValue, 1.46, 7.682E-05, 7.682E-05, , 
DataValue, 1.47, 7.7082E-05, 7.7082E-05, , 
DataValue, 1.48, 7.7478E-05, 7.7478E-05, , 
DataValue, 1.49, 7.7874000000000007E-05, 7.7874000000000007E-05, , 
DataValue, 1.5, 7.8252000000000009E-05, 7.8252000000000009E-05, , 
DataValue, 1.5, 7.8282000000000007E-05, 7.8282000000000007E-05, , 
DataValue, 1.49, 7.7902E-05, 7.7902E-05, , 
DataValue, 1.48, 7.7482E-05, 7.7482E-05, , 
DataValue, 1.47, 7.7118E-05, 7.7118E-05, , 
DataValue, 1.46, 7.6732E-05, 7.6732E-05, , 
DataValue, 1.4500000000000002, 7.643E-05, 7.643E-05, , 
DataValue, 1.4400000000000002, 7.6124E-05, 7.6124E-05, , 
DataValue, 1.4300000000000002, 7.5694E-05, 7.5694E-05, , 
DataValue, 1.4200000000000002, 7.5258E-05, 7.5258E-05, , 
DataValue, 1.4100000000000001, 7.493E-05, 7.493E-05, , 
DataValue, 1.4000000000000001, 7.4536E-05, 7.4536E-05, , 
DataValue, 1.3900000000000001, 7.4114E-05, 7.4114E-05, , 
DataValue, 1.3800000000000001, 7.3674E-05, 7.3674E-05, , 
DataValue, 1.37, 7.3116000000000009E-05, 7.3116000000000009E-05, , 
DataValue, 1.36, 7.276E-05, 7.276E-05, , 
DataValue, 1.35, 7.2172E-05, 7.2172E-05, , 
DataValue, 1.34, 7.1828E-05, 7.1828E-05, , 
DataValue, 1.33, 7.1546000000000009E-05, 7.1546000000000009E-05, , 
DataValue, 1.32, 7.1046E-05, 7.1046E-05, , 
DataValue, 1.31, 7.065E-05, 7.065E-05, , 
DataValue, 1.3, 7.022E-05, 7.022E-05, , 
DataValue, 1.29, 6.9692E-05, 6.9692E-05, , 
DataValue, 1.28, 6.9228000000000009E-05, 6.9228000000000009E-05, , 
DataValue, 1.27, 6.8828E-05, 6.8828E-05, , 
DataValue, 1.26, 6.8374E-05, 6.8374E-05, , 
DataValue, 1.25, 6.7894E-05, 6.7894E-05, , 
DataValue, 1.24, 6.7408E-05, 6.7408E-05, , 
DataValue, 1.23, 6.6864E-05, 6.6864E-05, , 
DataValue, 1.22, 6.6484E-05, 6.6484E-05, , 
DataValue, 1.21, 6.6002E-05, 6.6002E-05, , 
DataValue, 1.2, 6.5536E-05, 6.5536E-05, , 
DataValue, 1.19, 6.5024E-05, 6.5024E-05, , 
DataValue, 1.1800000000000002, 6.456E-05, 6.456E-05, , 
DataValue, 1.1700000000000002, 6.406E-05, 6.406E-05, , 
DataValue, 1.1600000000000001, 6.3578000000000007E-05, 6.3578000000000007E-05, , 
DataValue, 1.1500000000000001, 6.304E-05, 6.304E-05, , 
DataValue, 1.1400000000000001, 6.2516E-05, 6.2516E-05, , 
DataValue, 1.1300000000000001, 6.2028E-05, 6.2028E-05, , 
DataValue, 1.12, 6.1554E-05, 6.1554E-05, , 
DataValue, 1.11, 6.0998E-05, 6.0998E-05, , 
DataValue, 1.1, 6.051E-05, 6.051E-05, , 
DataValue, 1.09, 5.9970000000000004E-05, 5.9970000000000004E-05, , 
DataValue, 1.08, 5.948E-05, 5.948E-05, , 
DataValue, 1.07, 5.8958E-05, 5.8958E-05, , 
DataValue, 1.06, 5.8462000000000004E-05, 5.8462000000000004E-05, , 
DataValue, 1.05, 5.7908E-05, 5.7908E-05, , 
DataValue, 1.04, 5.7390000000000004E-05, 5.7390000000000004E-05, , 
DataValue, 1.03, 5.6912E-05, 5.6912E-05, , 
DataValue, 1.02, 5.6366E-05, 5.6366E-05, , 
DataValue, 1.01, 5.5848000000000005E-05, 5.5848000000000005E-05, , 
DataValue, 1, 5.5306E-05, 5.5306E-05, , 
DataValue, 0.9900000000000001, 5.477E-05, 5.477E-05, , 
DataValue, 0.98000000000000009, 5.4242E-05, 5.4242E-05, , 
DataValue, 0.97000000000000008, 5.3696E-05, 5.3696E-05, , 
DataValue, 0.96000000000000008, 5.321E-05, 5.321E-05, , 
DataValue, 0.95000000000000007, 5.2678E-05, 5.2678E-05, , 
DataValue, 0.94000000000000006, 5.2144E-05, 5.2144E-05, , 
DataValue, 0.93, 5.161E-05, 5.161E-05, , 
DataValue, 0.92, 5.1028E-05, 5.1028E-05, , 
DataValue, 0.91, 5.0458000000000004E-05, 5.0458000000000004E-05, , 
DataValue, 0.9, 4.9922E-05, 4.9922E-05, , 
DataValue, 0.89, 4.9354E-05, 4.9354E-05, , 
DataValue, 0.88, 4.8904000000000005E-05, 4.8904000000000005E-05, , 
DataValue, 0.87, 4.8308E-05, 4.8308E-05, , 
DataValue, 0.86, 4.7762E-05, 4.7762E-05, , 
DataValue, 0.85000000000000009, 4.7202E-05, 4.7202E-05, , 
DataValue, 0.84000000000000008, 4.6658E-05, 4.6658E-05, , 
DataValue, 0.83000000000000007, 4.6146E-05, 4.6146E-05, , 
DataValue, 0.82000000000000006, 4.557E-05, 4.557E-05, , 
DataValue, 0.81, 4.5016000000000004E-05, 4.5016000000000004E-05, , 
DataValue, 0.8, 4.4498E-05, 4.4498E-05, , 
DataValue, 0.79, 4.3934E-05, 4.3934E-05, , 
DataValue, 0.78, 4.3376E-05, 4.3376E-05, , 
DataValue, 0.77, 4.2848E-05, 4.2848E-05, , 
DataValue, 0.76, 4.2278000000000004E-05, 4.2278000000000004E-05, , 
DataValue, 0.75, 4.1716E-05, 4.1716E-05, , 
DataValue, 0.74, 4.1156000000000004E-05, 4.1156000000000004E-05, , 
DataValue, 0.73, 4.0572000000000004E-05, 4.0572000000000004E-05, , 
DataValue, 0.72000000000000008, 4.0044E-05, 4.0044E-05, , 
DataValue, 0.71000000000000008, 3.9494E-05, 3.9494E-05, , 
DataValue, 0.70000000000000007, 3.8964E-05, 3.8964E-05, , 
DataValue, 0.69000000000000006, 3.838E-05, 3.838E-05, , 
DataValue, 0.68, 3.7852E-05, 3.7852E-05, , 
DataValue, 0.67, 3.7316E-05, 3.7316E-05, , 
DataValue, 0.66, 3.6746000000000004E-05, 3.6746000000000004E-05, , 
DataValue, 0.65, 3.6174E-05, 3.6174E-05, , 
DataValue, 0.64, 3.5604E-05, 3.5604E-05, , 
DataValue, 0.63, 3.5058E-05, 3.5058E-05, , 
DataValue, 0.62, 3.4514E-05, 3.4514E-05, , 
DataValue, 0.61, 3.396E-05, 3.396E-05, , 
DataValue, 0.6, 3.3366E-05, 3.3366E-05, , 
DataValue, 0.59000000000000008, 3.2806000000000004E-05, 3.2806000000000004E-05, , 
DataValue, 0.58000000000000007, 3.2252E-05, 3.2252E-05, , 
DataValue, 0.57000000000000006, 3.1702E-05, 3.1702E-05, , 
DataValue, 0.56, 3.1152E-05, 3.1152E-05, , 
DataValue, 0.55, 3.0598E-05, 3.0598E-05, , 
DataValue, 0.54, 3.0030000000000002E-05, 3.0030000000000002E-05, , 
DataValue, 0.53, 2.9476E-05, 2.9476E-05, , 
