
SetupTitle, FE PUND 3.5V
ApplicationTest, WGFMU Pattern Editor, Public
TestParameter, Name, ExecutionMode, Enable1, Channel1, OperationMode1, VForceRange1, InitMeasRange1, Enable2, Channel2, OperationMode2, VForceRange2, InitMeasRange2, RepeatCount, WaveformCh1, WaveformCh2, MeasurementEvent, Output_to_File_for_PatternValidation, Output_Enable, Output_Filename, DataDisplay_for_RunVector, DataDisplay_PatternValidation, DataDisplay_Mode, LogToFile, LogFile, WarningLevel, IForceRange1, IForceRange2, Result_Update_Interval_s
TestParameter, Value, Run Vector, Enable, WGFMU1:RS	RSWGFMU, Fast IV Imeas, Auto, 10uA (Imeas), Enable, WGFMU2:RS	RSWGFMU, PG Vmeas, Auto, 5V (Vmeas), 1, , Disable, C:\WGFMUPatternEditor_Pattern.csv, , Disable, x(time)_y(meas), Disable, C:\WGFMUPatternEditor_Log.log, 2, 10mA, 10mA, 10
MetaData, TestRecord.EntryPoint, true
MetaData, TestRecord.RecordTime, 01/13/2020 13:38:59
MetaData, TestRecord.TestTarget, Zhihua_V2_3_dev1_80s_PD
MetaData, TestRecord.IterationIndex, 1
MetaData, TestRecord.Preservation, true
MetaData, TestRecord.Flag, 
MetaData, TestRecord.Remarks, 
MetaData, TestRecord.LinkKey, 2ba00118-03f7-4983-89e4-b254236a8c47
MetaData, TestRecord.Parameters, 
Dimension1, 5000, 5000, 5000, 5000, 5000
Dimension2, 1, 1, 1, 1, 1
DataName, Time, MeasResult1_value, MeasResult2_value, MeasResult1_time, MeasResult2_time
DataValue, 5.0000000000000008E-07, 1.1831408000000001E-08, -0.0018648741533980001, 5.0000000000000008E-07, 5.0000000000000008E-07
DataValue, 1.5E-06, -9.0194620000000013E-09, -0.001741767511703, 1.5E-06, 1.5E-06
DataValue, 2.5E-06, 5.399587E-09, -0.00197039404884, 2.5E-06, 2.5E-06
DataValue, 3.5000000000000004E-06, -9.874236E-09, -0.0018226661486550001, 3.5000000000000004E-06, 3.5000000000000004E-06
DataValue, 4.5E-06, 6.0161450000000006E-09, -0.0017241808818650002, 4.5E-06, 4.5E-06
DataValue, 5.5000000000000007E-06, -1.0841110000000001E-08, -0.001692524878308, 5.5000000000000007E-06, 5.5000000000000007E-06
DataValue, 6.5000000000000004E-06, 7.851806E-09, -0.0018367355223750002, 6.5000000000000004E-06, 6.5000000000000004E-06
DataValue, 7.5E-06, 2.6951400000000003E-09, -0.001900047413073, 7.5E-06, 7.5E-06
DataValue, 8.5E-06, -2.433502E-09, -0.002012602053583, 8.5E-06, 8.5E-06
DataValue, 9.5E-06, 5.014238E-09, -0.001798044890165, 9.5E-06, 9.5E-06
DataValue, 1.0500000000000001E-05, -3.3933700000000002E-09, -0.0020337060559540003, 1.0500000000000001E-05, 1.0500000000000001E-05
DataValue, 1.15E-05, 1.6091570000000001E-09, -0.0018894954118880002, 1.15E-05, 1.15E-05
DataValue, 1.25E-05, 1.1537450000000001E-09, -0.001783975516446, 1.25E-05, 1.25E-05
DataValue, 1.3500000000000001E-05, -3.2952820000000004E-09, -0.0016749382484700002, 1.3500000000000001E-05, 1.3500000000000001E-05
DataValue, 1.45E-05, 3.241634E-09, -0.001692524878308, 1.45E-05, 1.45E-05
DataValue, 1.55E-05, -1.3202247E-08, -0.0019035647856070002, 1.55E-05, 1.55E-05
DataValue, 1.65E-05, -1.1513410000000002E-09, -0.00197039404884, 1.65E-05, 1.65E-05
DataValue, 1.7500000000000002E-05, 6.48557E-09, -0.0019739114213730004, 1.7500000000000002E-05, 1.7500000000000002E-05
DataValue, 1.8500000000000002E-05, -2.6857300000000004E-09, -0.0019105994142590002, 1.8500000000000002E-05, 1.8500000000000002E-05
DataValue, 1.95E-05, -1.1632827E-08, -0.001826183521189, 1.95E-05, 1.95E-05
DataValue, 2.05E-05, 4.614877E-09, -0.0018683914095160002, 2.05E-05, 2.05E-05
DataValue, 2.15E-05, 3.921249E-09, -0.0018367355223750002, 2.15E-05, 2.15E-05
DataValue, 2.25E-05, -4.171074E-09, -0.0018156315200030001, 2.25E-05, 2.25E-05
DataValue, 2.3500000000000002E-05, -5.1346000000000007E-11, -0.0018613567808640002, 2.3500000000000002E-05, 2.3500000000000002E-05
DataValue, 2.4500000000000003E-05, -8.571056E-09, -0.00197039404884, 2.4500000000000003E-05, 2.4500000000000003E-05
DataValue, 2.5500000000000003E-05, 1.5579801E-08, -0.0016890076221900002, 2.5500000000000003E-05, 2.5500000000000003E-05
DataValue, 2.65E-05, -2.1567818000000003E-08, -0.001776940887794, 2.65E-05, 2.65E-05
DataValue, 2.75E-05, 1.4956235E-08, -0.001776940887794, 2.75E-05, 2.75E-05
DataValue, 2.85E-05, 1.504062E-09, -0.001622178242542, 2.85E-05, 2.85E-05
DataValue, 2.9500000000000002E-05, 6.48557E-09, -0.0018121141474690002, 2.9500000000000002E-05, 2.9500000000000002E-05
DataValue, 3.0500000000000003E-05, -1.1184421000000001E-08, -0.0018508047796790001, 3.0500000000000003E-05, 3.0500000000000003E-05
DataValue, 3.15E-05, 3.732078E-09, -0.0019176341593270003, 3.15E-05, 3.15E-05
DataValue, 3.2500000000000004E-05, -6.53891E-10, -0.001769906142727, 3.2500000000000004E-05, 3.2500000000000004E-05
DataValue, 3.35E-05, -6.497179E-09, -0.0021181220654400003, 3.35E-05, 3.35E-05
DataValue, 3.4500000000000005E-05, 5.72218E-10, -0.0019035647856070002, 3.4500000000000005E-05, 3.4500000000000005E-05
DataValue, 3.55E-05, -1.291468E-09, -0.002149777952582, 3.55E-05, 3.55E-05
DataValue, 3.65E-05, -3.1481480000000003E-09, -0.0020020499359820003, 3.65E-05, 3.65E-05
DataValue, 3.7500000000000003E-05, -2.0761780000000004E-09, -0.0020301886834200003, 3.7500000000000003E-05, 3.7500000000000003E-05
DataValue, 3.85E-05, 1.0626620000000002E-09, -0.0015236929757520001, 3.85E-05, 3.85E-05
DataValue, 3.9500000000000005E-05, 8.3212310000000014E-09, -0.0018402527784930002, 3.9500000000000005E-05, 3.9500000000000005E-05
DataValue, 4.05E-05, -5.1659740000000005E-09, -0.0019176341593270003, 4.05E-05, 4.05E-05
DataValue, 4.1500000000000006E-05, -3.582542E-09, -0.002026671310887, 4.1500000000000006E-05, 4.1500000000000006E-05
DataValue, 4.25E-05, -6.2169260000000007E-09, -0.002135708695278, 4.25E-05, 4.25E-05
DataValue, 4.35E-05, 2.33081E-09, -0.002146260580048, 4.35E-05, 4.35E-05
DataValue, 4.4500000000000004E-05, 2.5410000000000002E-09, -0.001998532796279, 4.4500000000000004E-05, 4.4500000000000004E-05
DataValue, 4.55E-05, -4.2481440000000006E-09, -0.001998532796279, 4.55E-05, 4.55E-05
DataValue, 4.6500000000000005E-05, -1.291468E-09, -0.0018754261545840003, 4.6500000000000005E-05, 4.6500000000000005E-05
DataValue, 4.75E-05, -5.0188410000000007E-09, -0.002082948572934, 4.75E-05, 4.75E-05
DataValue, 4.85E-05, 2.8212540000000004E-09, -0.001741767511703, 4.85E-05, 4.85E-05
DataValue, 4.9500000000000004E-05, 5.378568E-09, -0.0018508047796790001, 4.9500000000000004E-05, 4.9500000000000004E-05
DataValue, 5.05E-05, 7.2772860000000006E-09, -0.001885978155769, 5.05E-05, 5.05E-05
DataValue, 5.1500000000000005E-05, -1.4267211E-08, -0.002023153938353, 5.1500000000000005E-05, 5.1500000000000005E-05
DataValue, 5.25E-05, 4.9514900000000009E-10, -0.0018015621462840002, 5.25E-05, 5.25E-05
DataValue, 5.3500000000000006E-05, -4.6475050000000007E-09, -0.001826183521189, 5.3500000000000006E-05, 5.3500000000000006E-05
DataValue, 5.45E-05, 3.8091480000000004E-09, -0.001678455621004, 5.45E-05, 5.45E-05
DataValue, 5.55E-05, -8.052587E-09, -0.001885978155769, 5.55E-05, 5.55E-05
DataValue, 5.6500000000000005E-05, -6.5812550000000006E-09, -0.001720663509332, 5.6500000000000005E-05, 5.6500000000000005E-05
DataValue, 5.75E-05, 8.2441610000000009E-09, -0.0019105994142590002, 5.75E-05, 5.75E-05
DataValue, 5.8500000000000006E-05, 9.911671E-09, -0.0015623836079610002, 5.8500000000000006E-05, 5.8500000000000006E-05
DataValue, 5.95E-05, -1.1401617E-08, -0.0016819728771220001, 5.95E-05, 5.95E-05
DataValue, 6.0500000000000007E-05, -6.462148E-09, -0.00174880225677, 6.0500000000000007E-05, 6.0500000000000007E-05
DataValue, 6.15E-05, 6.33143E-09, -0.001428725081496, 6.15E-05, 6.15E-05
DataValue, 6.25E-05, -9.3767860000000015E-09, -0.0017663888866080002, 6.25E-05, 6.25E-05
DataValue, 6.35E-05, 6.303405E-09, -0.0016819728771220001, 6.35E-05, 6.35E-05
DataValue, 6.4500000000000009E-05, -1.1135376000000001E-08, -0.0019492900464680002, 6.4500000000000009E-05, 6.4500000000000009E-05
DataValue, 6.55E-05, -4.2061060000000004E-09, -0.0019457727903500002, 6.55E-05, 6.55E-05
DataValue, 6.65E-05, 8.5664530000000009E-09, -0.002065361943096, 6.65E-05, 6.65E-05
DataValue, 6.75E-05, 3.844179E-09, -0.0018648741533980001, 6.75E-05, 6.75E-05
DataValue, 6.85E-05, -1.5927714E-08, -0.0020723966881630003, 6.85E-05, 6.85E-05
DataValue, 6.9500000000000009E-05, 2.947368E-09, -0.0019317034166310002, 6.9500000000000009E-05, 6.9500000000000009E-05
DataValue, 7.05E-05, 4.909143E-09, -0.0019492900464680002, 7.05E-05, 7.05E-05
DataValue, 7.15E-05, -8.50069E-10, -0.0016045916127040002, 7.15E-05, 7.15E-05
DataValue, 7.25E-05, 1.3008780000000002E-09, -0.0020196367986500003, 7.25E-05, 7.25E-05
DataValue, 7.3500000000000011E-05, -4.7946380000000005E-09, -0.0018402527784930002, 7.3500000000000011E-05, 7.3500000000000011E-05
DataValue, 7.4500000000000008E-05, 5.9951260000000005E-09, -0.001541279722005, 7.4500000000000008E-05, 7.4500000000000008E-05
DataValue, 7.55E-05, -5.2920890000000006E-09, -0.0017382502555850002, 7.55E-05, 7.55E-05
DataValue, 7.65E-05, 1.2097950000000002E-09, -0.0017030768794940002, 7.65E-05, 7.65E-05
DataValue, 7.75E-05, 3.346729E-09, -0.0019914980512110003, 7.75E-05, 7.75E-05
DataValue, 7.8500000000000011E-05, -6.3990910000000008E-09, -0.0018437701510270002, 7.8500000000000011E-05, 7.8500000000000011E-05
DataValue, 7.9500000000000008E-05, 6.7658230000000007E-09, -0.001727698254399, 7.9500000000000008E-05, 7.9500000000000008E-05
DataValue, 8.05E-05, -1.2704490000000002E-09, -0.0019528074190020002, 8.05E-05, 8.05E-05
DataValue, 8.15E-05, -1.1814992000000001E-08, -0.0018508047796790001, 8.15E-05, 8.15E-05
DataValue, 8.25E-05, 1.0738418000000001E-08, -0.001914116786793, 8.25E-05, 8.25E-05
DataValue, 8.350000000000001E-05, -3.778719E-09, -0.001798044890165, 8.350000000000001E-05, 8.350000000000001E-05
DataValue, 8.4500000000000008E-05, -9.215639E-09, -0.0019035647856070002, 8.4500000000000008E-05, 8.4500000000000008E-05
DataValue, 8.55E-05, 5.953088E-09, -0.0018332181498410002, 8.55E-05, 8.55E-05
DataValue, 8.65E-05, 5.70086E-09, -0.001769906142727, 8.65E-05, 8.65E-05
DataValue, 8.75E-05, -1.2802886E-08, -0.0014463117113340002, 8.75E-05, 8.75E-05
DataValue, 8.850000000000001E-05, 1.3863247E-08, -0.001776940887794, 8.850000000000001E-05, 8.850000000000001E-05
DataValue, 8.9500000000000007E-05, -2.1350621000000002E-08, -0.0015659009804950001, 8.9500000000000007E-05, 8.9500000000000007E-05
DataValue, 9.05E-05, 2.9053300000000003E-09, -0.0017452848842370002, 9.05E-05, 9.05E-05
DataValue, 9.15E-05, 3.1925900000000004E-09, -0.0018402527784930002, 9.15E-05, 9.15E-05
DataValue, 9.2500000000000012E-05, 4.6743000000000005E-11, -0.001998532796279, 9.2500000000000012E-05, 9.2500000000000012E-05
DataValue, 9.3500000000000009E-05, -7.8984470000000009E-09, -0.0019492900464680002, 9.3500000000000009E-05, 9.3500000000000009E-05
DataValue, 9.45E-05, 8.3145300000000009E-10, -0.001783975516446, 9.45E-05, 9.45E-05
DataValue, 9.55E-05, -2.8749010000000004E-09, -0.0017171462532130002, 9.55E-05, 9.55E-05
DataValue, 9.65E-05, -5.964697E-09, -0.0015905223554, 9.65E-05, 9.65E-05
DataValue, 9.7500000000000012E-05, 1.1586185000000001E-08, -0.0015659009804950001, 9.7500000000000012E-05, 9.7500000000000012E-05
DataValue, 9.8500000000000009E-05, 1.349922E-09, -0.0015799703542140001, 9.8500000000000009E-05, 9.8500000000000009E-05
DataValue, 9.95E-05, -4.009928E-09, -0.0016573516186330001, 9.95E-05, 9.95E-05
DataValue, 0.0001005, 3.68412088E-07, -0.0065851323306560005, 0.0001005, 0.0001005
DataValue, 0.0001015, 5.6405014E-07, -0.015367908403277002, 0.0001015, 0.0001015
DataValue, 0.00010250000000000001, 5.64078164E-07, -0.024242134764791003, 0.00010250000000000001, 0.00010250000000000001
DataValue, 0.00010350000000000001, 5.76724631E-07, -0.032736487686634, 0.00010350000000000001, 0.00010350000000000001
DataValue, 0.0001045, 5.7081825800000006E-07, -0.04149816185236, 0.0001045, 0.0001045
DataValue, 0.0001055, 5.72023339E-07, -0.050439216196537004, 0.0001055, 0.0001055
DataValue, 0.0001065, 5.90379955E-07, -0.059221990406513006, 0.0001065, 0.0001065
DataValue, 0.00010750000000000001, 5.9555765100000008E-07, -0.068061046302319, 0.00010750000000000001, 0.00010750000000000001
DataValue, 0.00010850000000000001, 5.87794659E-07, -0.076773472130299, 0.00010850000000000001, 0.00010850000000000001
DataValue, 0.0001095, 5.80423944E-07, -0.085246726870537012, 0.0001095, 0.0001095
DataValue, 0.0001105, 5.8814492800000006E-07, -0.093874737620354, 0.0001105, 0.0001105
DataValue, 0.00011150000000000001, 5.85279338E-07, -0.102435924112797, 0.00011150000000000001, 0.00011150000000000001
DataValue, 0.00011250000000000001, 6.0926908E-07, -0.11113428324461001, 0.00011250000000000001, 0.00011250000000000001
DataValue, 0.00011350000000000001, 5.88116905E-07, -0.120008505880833, 0.00011350000000000001, 0.00011350000000000001
DataValue, 0.0001145, 5.88446198E-07, -0.12879128754138902, 0.0001145, 0.0001145
DataValue, 0.0001155, 6.0242388100000007E-07, -0.137556478381157, 0.0001155, 0.0001155
DataValue, 0.00011650000000000001, 6.03369756E-07, -0.14622317254543302, 0.00011650000000000001, 0.00011650000000000001
DataValue, 0.00011750000000000001, 5.7814691E-07, -0.15494967997074102, 0.00011750000000000001, 0.00011750000000000001
DataValue, 0.00011850000000000001, 6.04406694E-07, -0.16364803910255402, 0.00011850000000000001, 0.00011850000000000001
DataValue, 0.0001195, 6.0246588900000009E-07, -0.172406196594238, 0.0001195, 0.0001195
DataValue, 0.0001205, 5.9243984700000006E-07, -0.181192487478256, 0.0001205, 0.0001205
DataValue, 0.00012150000000000001, 5.9973342600000008E-07, -0.19008429348468803, 0.00012150000000000001, 0.00012150000000000001
DataValue, 0.0001225, 5.8715005500000005E-07, -0.19863140583038302, 0.0001225, 0.0001225
DataValue, 0.00012350000000000002, 5.9960029800000007E-07, -0.20732273161411302, 0.00012350000000000002, 0.00012350000000000002
DataValue, 0.00012450000000000002, 6.08302173E-07, -0.21575026214122803, 0.00012450000000000002, 0.00012450000000000002
DataValue, 0.00012550000000000002, 6.03264652E-07, -0.22434662282466902, 0.00012550000000000002, 0.00012550000000000002
DataValue, 0.0001265, 6.125690670000001E-07, -0.23328064382076302, 0.0001265, 0.0001265
DataValue, 0.0001275, 5.8551057700000009E-07, -0.24206341803073903, 0.0001275, 0.0001275
DataValue, 0.0001285, 6.05562718E-07, -0.25078287720680204, 0.0001285, 0.0001285
DataValue, 0.0001295, 6.1328370300000009E-07, -0.259354621171951, 0.0001295, 0.0001295
DataValue, 0.0001305, 5.94632809E-07, -0.267975598573685, 0.0001305, 0.0001305
DataValue, 0.0001315, 6.15462682E-07, -0.27678650617599504, 0.0001315, 0.0001315
DataValue, 0.0001325, 5.91704179E-07, -0.28542858362197904, 0.0001325, 0.0001325
DataValue, 0.00013350000000000002, 6.17375406E-07, -0.29397922754287703, 0.00013350000000000002, 0.00013350000000000002
DataValue, 0.00013450000000000002, 6.0245190500000008E-07, -0.302923798561096, 0.00013450000000000002, 0.00013450000000000002
DataValue, 0.00013550000000000001, 6.0648056900000007E-07, -0.31174173951149003, 0.00013550000000000001, 0.00013550000000000001
DataValue, 0.0001365, 6.1750853300000005E-07, -0.32041546702384904, 0.0001365, 0.0001365
DataValue, 0.0001375, 6.1017289E-07, -0.32922288775444003, 0.0001375, 0.0001375
DataValue, 0.0001385, 6.0637546500000007E-07, -0.337998628616333, 0.0001385, 0.0001385
DataValue, 0.0001395, 6.62727473E-07, -0.347192913293838, 0.0001395, 0.0001395
DataValue, 0.0001405, 6.3231993900000008E-07, -0.356070667505264, 0.0001405, 0.0001405
DataValue, 0.0001415, 6.03769081E-07, -0.364769011735916, 0.0001415, 0.0001415
DataValue, 0.00014250000000000002, 6.2832629100000006E-07, -0.373411118984222, 0.00014250000000000002, 0.00014250000000000002
DataValue, 0.00014350000000000002, 6.10677318E-07, -0.38212352991104104, 0.00014350000000000002, 0.00014350000000000002
DataValue, 0.00014450000000000002, 6.10901566E-07, -0.390853554010391, 0.00014450000000000002, 0.00014450000000000002
DataValue, 0.0001455, 6.2134097300000007E-07, -0.399527281522751, 0.0001455, 0.0001455
DataValue, 0.0001465, 6.2789195000000008E-07, -0.407958328723907, 0.0001465, 0.0001465
DataValue, 0.0001475, 6.16016166E-07, -0.416994363069534, 0.0001475, 0.0001475
DataValue, 0.0001485, 6.1558876000000008E-07, -0.42590376734733604, 0.0001485, 0.0001485
DataValue, 0.0001495, 6.17396438E-07, -0.434514194726944, 0.0001495, 0.0001495
DataValue, 0.0001505, 6.23919334E-07, -0.44315978884697005, 0.0001505, 0.0001505
DataValue, 0.0001515, 6.2542568500000008E-07, -0.45182296633720404, 0.0001515, 0.0001515
DataValue, 0.00015250000000000002, 6.23884318E-07, -0.46027511358261103, 0.00015250000000000002, 0.00015250000000000002
DataValue, 0.00015350000000000002, 6.05121329E-07, -0.46950459480285606, 0.00015350000000000002, 0.00015350000000000002
DataValue, 0.00015450000000000002, 6.31465184E-07, -0.47853359580040006, 0.00015450000000000002, 0.00015450000000000002
DataValue, 0.0001555, 6.2957343500000006E-07, -0.48717215657234203, 0.0001555, 0.0001555
DataValue, 0.0001565, 6.1800597E-07, -0.49560672044754006, 0.0001565, 0.0001565
DataValue, 0.0001575, 6.27065162E-07, -0.504621624946594, 0.0001575, 0.0001575
DataValue, 0.0001585, 6.20941648E-07, -0.51328128576278709, 0.0001585, 0.0001585
DataValue, 0.0001595, 6.34036496E-07, -0.522137939929962, 0.0001595, 0.0001595
DataValue, 0.0001605, 6.1001873100000006E-07, -0.530734300613403, 0.0001605, 0.0001605
DataValue, 0.00016150000000000002, 6.2126395100000008E-07, -0.539204001426697, 0.00016150000000000002, 0.00016150000000000002
DataValue, 0.00016250000000000002, 6.28893815E-07, -0.54793053865432706, 0.00016250000000000002, 0.00016250000000000002
DataValue, 0.00016350000000000002, 6.1713717500000005E-07, -0.556758999824524, 0.00016350000000000002, 0.00016350000000000002
DataValue, 0.00016450000000000001, 6.275136E-07, -0.565126776695251, 0.00016450000000000001, 0.00016450000000000001
DataValue, 0.0001655, 6.36782943E-07, -0.57382863759994507, 0.0001655, 0.0001655
DataValue, 0.0001665, 6.2897788700000008E-07, -0.58273100852966309, 0.0001665, 0.0001665
DataValue, 0.0001675, 6.3021804E-07, -0.591436386108398, 0.0001675, 0.0001675
DataValue, 0.0001685, 6.34618004E-07, -0.599916696548462, 0.0001685, 0.0001685
DataValue, 0.0001695, 6.27660711E-07, -0.608463764190674, 0.0001695, 0.0001695
DataValue, 0.0001705, 6.2162826E-07, -0.617267668247223, 0.0001705, 0.0001705
DataValue, 0.00017150000000000002, 6.48210289E-07, -0.626011729240417, 0.00017150000000000002, 0.00017150000000000002
DataValue, 0.00017250000000000002, 6.24823144E-07, -0.634639799594879, 0.00017250000000000002, 0.00017250000000000002
DataValue, 0.00017350000000000002, 6.3540972000000009E-07, -0.643320560455322, 0.00017350000000000002, 0.00017350000000000002
DataValue, 0.0001745, 6.32046692E-07, -0.6520611047744751, 0.0001745, 0.0001745
DataValue, 0.0001755, 6.3234796200000009E-07, -0.66075944900512706, 0.0001755, 0.0001755
DataValue, 0.0001765, 6.426893150000001E-07, -0.66938042640686, 0.0001765, 0.0001765
DataValue, 0.0001775, 6.2272124500000008E-07, -0.67805421352386508, 0.0001775, 0.0001775
DataValue, 0.0001785, 7.062158150000001E-07, -0.68792736530303911, 0.0001785, 0.0001785
DataValue, 0.0001795, 6.3718232500000006E-07, -0.696685492992401, 0.0001795, 0.0001795
DataValue, 0.00018050000000000002, 6.3583013300000006E-07, -0.705506980419159, 0.00018050000000000002, 0.00018050000000000002
DataValue, 0.00018150000000000002, 6.3657279300000006E-07, -0.71394854784011808, 0.00018150000000000002, 0.00018150000000000002
DataValue, 0.00018250000000000002, 6.50473339E-07, -0.722896635532379, 0.00018250000000000002, 0.00018250000000000002
DataValue, 0.00018350000000000002, 6.28585553E-07, -0.731774389743805, 0.00018350000000000002, 0.00018350000000000002
DataValue, 0.0001845, 6.3459697200000006E-07, -0.74041295051574707, 0.0001845, 0.0001845
DataValue, 0.0001855, 6.4618547000000008E-07, -0.748851001262665, 0.0001855, 0.0001855
DataValue, 0.0001865, 6.41869576E-07, -0.757704138755798, 0.0001865, 0.0001865
