
SetupTitle, ExtFET - NEG RESET BE-2.0V
PrimitiveTest, I/V Sweep
TestParameter, Context.MainFrame, B1500A
TestParameter, Channel.UnitType, SMU, SMU, SMU
TestParameter, Channel.Unit, SMU2:HR, SMU4:HR, SMU3:HR
TestParameter, Channel.IName, I_TE, I_BE, I_G
TestParameter, Channel.VName, V_TE, V_BE, V_G
TestParameter, Channel.Mode, V, COMMON, V
TestParameter, Channel.Func, VAR1, CONST, CONST
TestParameter, Channel.Index, 
TestParameter, Channel.Time, 
TestParameter, Measurement.Port.Unit, SMU2:HR, SMU4:HR, SMU3:HR
TestParameter, Measurement.Port.SeriesResistor, NONE, NONE, NONE
TestParameter, Measurement.Port.Filter, ON, ON, ON
TestParameter, Measurement.Port.OutputVoltageComparison, 0, 0, 0
TestParameter, Measurement.Primary.Locus, Double
TestParameter, Measurement.Primary.Scale, LINEAR
TestParameter, Measurement.Primary.Start, 0
TestParameter, Measurement.Primary.Stop, -2
TestParameter, Measurement.Primary.Step, -0.01
TestParameter, Measurement.Primary.Compliance, 0.01
TestParameter, Measurement.Primary.PowerCompliance, 0
TestParameter, Measurement.Aborting.Condition, CONTINUE AT ANY
TestParameter, Measurement.PostOutput.Value, START
TestParameter, Measurement.PostOutput.Retention, OFF
TestParameter, Measurement.Bias.Source, 0, 0, 2
TestParameter, Measurement.Bias.Compliance, 0.01, 0.1, 0.0001
TestParameter, Measurement.Monitor.Unit, SMU2:HR, SMU4:HR, SMU3:HR
TestParameter, Measurement.Monitor.Adc, HR ADC, HR ADC, HR ADC
TestParameter, Measurement.Monitor.Measurement, Compliance Side, Compliance Side, Compliance Side
TestParameter, Measurement.Monitor.RangingMode, LIMITED, LIMITED, LIMITED
TestParameter, Measurement.Monitor.RangeBoundary, 1nA, 1nA, 1nA
TestParameter, Measurement.Monitor.RangeRating, BY FULL RANGE, BY FULL RANGE, BY FULL RANGE
TestParameter, Measurement.Monitor.RangeRatingCoeff, 50, 50, 50
TestParameter, Measurement.Timing.Hold, 0
TestParameter, Measurement.Timing.Delay, 0
TestParameter, Measurement.Adc.HighSpeed.Mode, AUTO
TestParameter, Measurement.Adc.HighSpeed.Coeff, 1
TestParameter, Measurement.Adc.HighResolution.AutoZero, OFF
TestParameter, Measurement.Adc.HighResolution.Mode, AUTO
TestParameter, Measurement.Adc.HighResolution.Coeff, 6
TestParameter, Measurement.WaitTime.Source.Coeff, 1
TestParameter, Measurement.WaitTime.Source.Offset, 0
TestParameter, Measurement.WaitTime.Monitor.Coeff, 1
TestParameter, Measurement.WaitTime.Monitor.Offset, 0
TestParameter, Function.User.Name, absITE
TestParameter, Function.User.Unit, A
TestParameter, Function.User.Definition, abs(I_TE)
TestParameter, Output.Graph.Enabled, true
TestParameter, Output.Graph.AutoScaling, false
TestParameter, Output.Graph.XAxis.Data, V_TE
TestParameter, Output.Graph.XAxis.Scale, Linear
TestParameter, Output.Graph.XAxis.Left, 0
TestParameter, Output.Graph.XAxis.Right, 10
TestParameter, Output.Graph.XAxis.RunTimeAutoScale, true
TestParameter, Output.Graph.YAxis.Data, absITE
TestParameter, Output.Graph.YAxis.Scale, Log
TestParameter, Output.Graph.YAxis.Bottom, 0
TestParameter, Output.Graph.YAxis.Top, 1
TestParameter, Output.Graph.YAxis.Group, 
TestParameter, Output.Graph.YAxis.RunTimeAutoScale, true
TestParameter, Output.List.Data, V1, I2abs
TestParameter, AutoAnalysis.Interpolation, false
TestParameter, AutoAnalysis.Var2StepCount, 1
TestParameter, AutoAnalysis.Var2StepScript, 
TestParameter, AutoAnalysis.Line1.Enabled, false
TestParameter, AutoAnalysis.Line1.Type, 1
TestParameter, AutoAnalysis.Line1.Fix, True
TestParameter, AutoAnalysis.Line1.YAxis, 0
TestParameter, AutoAnalysis.Line1.Point1.Type, 0
TestParameter, AutoAnalysis.Line1.Point1.XY.X, 
TestParameter, AutoAnalysis.Line1.Point1.XY.Y, 
TestParameter, AutoAnalysis.Line1.Point1.Data.Var, 
TestParameter, AutoAnalysis.Line1.Point1.Data.Condition, 
TestParameter, AutoAnalysis.Line1.Point1.Data.Start, false
TestParameter, AutoAnalysis.Line1.Point1.Data.StartVar, 
TestParameter, AutoAnalysis.Line1.Point1.Data.StartCondition, 
TestParameter, AutoAnalysis.Line1.Point2.Type, 0
TestParameter, AutoAnalysis.Line1.Point2.XY.X, 
TestParameter, AutoAnalysis.Line1.Point2.XY.Y, 
TestParameter, AutoAnalysis.Line1.Point2.Data.Var, 
TestParameter, AutoAnalysis.Line1.Point2.Data.Condition, 
TestParameter, AutoAnalysis.Line1.Point2.Data.Start, false
TestParameter, AutoAnalysis.Line1.Point2.Data.StartVar, 
TestParameter, AutoAnalysis.Line1.Point2.Data.StartCondition, 
TestParameter, AutoAnalysis.Line1.GradientExpr, 0
TestParameter, AutoAnalysis.Line2.Enabled, false
TestParameter, AutoAnalysis.Line2.Type, 1
TestParameter, AutoAnalysis.Line2.Fix, True
TestParameter, AutoAnalysis.Line2.YAxis, 0
TestParameter, AutoAnalysis.Line2.Point1.Type, 0
TestParameter, AutoAnalysis.Line2.Point1.XY.X, 
TestParameter, AutoAnalysis.Line2.Point1.XY.Y, 
TestParameter, AutoAnalysis.Line2.Point1.Data.Var, 
TestParameter, AutoAnalysis.Line2.Point1.Data.Condition, 
TestParameter, AutoAnalysis.Line2.Point1.Data.Start, false
TestParameter, AutoAnalysis.Line2.Point1.Data.StartVar, 
TestParameter, AutoAnalysis.Line2.Point1.Data.StartCondition, 
TestParameter, AutoAnalysis.Line2.Point2.Type, 0
TestParameter, AutoAnalysis.Line2.Point2.XY.X, 
TestParameter, AutoAnalysis.Line2.Point2.XY.Y, 
TestParameter, AutoAnalysis.Line2.Point2.Data.Var, 
TestParameter, AutoAnalysis.Line2.Point2.Data.Condition, 
TestParameter, AutoAnalysis.Line2.Point2.Data.Start, false
TestParameter, AutoAnalysis.Line2.Point2.Data.StartVar, 
TestParameter, AutoAnalysis.Line2.Point2.Data.StartCondition, 
TestParameter, AutoAnalysis.Line2.GradientExpr, 0
TestParameter, AutoAnalysis.Marker.Enabled, false
TestParameter, AutoAnalysis.Marker.Data.Var, 
TestParameter, AutoAnalysis.Marker.Data.Condition, 
TestParameter, AutoAnalysis.Marker.Data.Start, false
TestParameter, AutoAnalysis.Marker.Data.StartVar, 
TestParameter, AutoAnalysis.Marker.Data.StartCondition, 
MetaData, TestRecord.EntryPoint, true
MetaData, TestRecord.RecordTime, 04/14/2020 20:29:45
MetaData, TestRecord.TestTarget, InGaAs_1_W_BE_FijiHfO2_NW-G05
MetaData, TestRecord.IterationIndex, 81
MetaData, TestRecord.Preservation, true
MetaData, TestRecord.Flag, 
MetaData, TestRecord.Remarks, 
MetaData, TestRecord.LinkKey, 028759b1-ff68-43f6-951d-15f735050c84
MetaData, TestRecord.Parameters, 
Dimension1, 402, 402, 402, 402, 402
Dimension2, 1, 1, 1, 1, 1
DataName, V_TE, I_TE, absITE, V1, I2abs
DataValue, 0, 7.915E-11, 7.915E-11, , 
DataValue, -0.01, -2.09864E-08, 2.09864E-08, , 
DataValue, -0.02, -4.2706799999999996E-08, 4.2706799999999996E-08, , 
DataValue, -0.030000000000000002, -6.4611599999999988E-08, 6.4611599999999988E-08, , 
DataValue, -0.04, -8.5639199999999988E-08, 8.5639199999999988E-08, , 
DataValue, -0.05, -1.0769519999999998E-07, 1.0769519999999998E-07, , 
DataValue, -0.060000000000000005, -1.312E-07, 1.312E-07, , 
DataValue, -0.07, -1.5255999999999998E-07, 1.5255999999999998E-07, , 
DataValue, -0.08, -1.767E-07, 1.767E-07, , 
DataValue, -0.090000000000000011, -2.0129999999999998E-07, 2.0129999999999998E-07, , 
DataValue, -0.1, -2.2248E-07, 2.2248E-07, , 
DataValue, -0.11, -2.504E-07, 2.504E-07, , 
DataValue, -0.12000000000000001, -2.7528E-07, 2.7528E-07, , 
DataValue, -0.13, -2.9238E-07, 2.9238E-07, , 
DataValue, -0.14, -3.2478E-07, 3.2478E-07, , 
DataValue, -0.15, -3.5224E-07, 3.5224E-07, , 
DataValue, -0.16, -3.8676E-07, 3.8676E-07, , 
DataValue, -0.17, -4.1506E-07, 4.1506E-07, , 
DataValue, -0.18000000000000002, -4.451E-07, 4.451E-07, , 
DataValue, -0.19, -4.8072E-07, 4.8072E-07, , 
DataValue, -0.2, -5.0672E-07, 5.0672E-07, , 
DataValue, -0.21000000000000002, -5.5128E-07, 5.5128E-07, , 
DataValue, -0.22, -5.8726E-07, 5.8726E-07, , 
DataValue, -0.23, -6.1562E-07, 6.1562E-07, , 
DataValue, -0.24000000000000002, -6.5384E-07, 6.5384E-07, , 
DataValue, -0.25, -6.9595999999999994E-07, 6.9595999999999994E-07, , 
DataValue, -0.26, -7.528E-07, 7.528E-07, , 
DataValue, -0.27, -7.7556E-07, 7.7556E-07, , 
DataValue, -0.28, -8.3114E-07, 8.3114E-07, , 
DataValue, -0.29000000000000004, -9.1952E-07, 9.1952E-07, , 
DataValue, -0.3, -9.4324E-07, 9.4324E-07, , 
DataValue, -0.31, -9.9074E-07, 9.9074E-07, , 
DataValue, -0.32, -1.05962E-06, 1.05962E-06, , 
DataValue, -0.33, -1.0895000000000001E-06, 1.0895000000000001E-06, , 
DataValue, -0.34, -1.1580000000000002E-06, 1.1580000000000002E-06, , 
DataValue, -0.35000000000000003, -1.2212E-06, 1.2212E-06, , 
DataValue, -0.36000000000000004, -1.3414000000000002E-06, 1.3414000000000002E-06, , 
DataValue, -0.37, -1.3679E-06, 1.3679E-06, , 
DataValue, -0.38, -1.3999000000000001E-06, 1.3999000000000001E-06, , 
DataValue, -0.39, -1.4639E-06, 1.4639E-06, , 
DataValue, -0.4, -1.5359000000000002E-06, 1.5359000000000002E-06, , 
DataValue, -0.41000000000000003, -1.6032000000000002E-06, 1.6032000000000002E-06, , 
DataValue, -0.42000000000000004, -1.6563000000000001E-06, 1.6563000000000001E-06, , 
DataValue, -0.43, -1.7799E-06, 1.7799E-06, , 
DataValue, -0.44, -1.8054000000000001E-06, 1.8054000000000001E-06, , 
DataValue, -0.45, -1.7611000000000002E-06, 1.7611000000000002E-06, , 
DataValue, -0.46, -2.0081000000000003E-06, 2.0081000000000003E-06, , 
DataValue, -0.47000000000000003, -2.0851E-06, 2.0851E-06, , 
DataValue, -0.48000000000000004, -2.2393000000000003E-06, 2.2393000000000003E-06, , 
DataValue, -0.49000000000000005, -2.3950000000000004E-06, 2.3950000000000004E-06, , 
DataValue, -0.5, -2.4939000000000004E-06, 2.4939000000000004E-06, , 
DataValue, -0.51, -2.5582000000000003E-06, 2.5582000000000003E-06, , 
DataValue, -0.52, -2.5563000000000004E-06, 2.5563000000000004E-06, , 
DataValue, -0.53, -3.0281000000000003E-06, 3.0281000000000003E-06, , 
DataValue, -0.54, -2.7287000000000002E-06, 2.7287000000000002E-06, , 
DataValue, -0.55, -2.81E-06, 2.81E-06, , 
DataValue, -0.56, -2.9672E-06, 2.9672E-06, , 
DataValue, -0.57000000000000006, -3.1983000000000004E-06, 3.1983000000000004E-06, , 
DataValue, -0.58000000000000007, -3.3332000000000005E-06, 3.3332000000000005E-06, , 
DataValue, -0.59000000000000008, -3.0300000000000002E-06, 3.0300000000000002E-06, , 
DataValue, -0.6, -2.9836E-06, 2.9836E-06, , 
DataValue, -0.61, -2.9962000000000002E-06, 2.9962000000000002E-06, , 
DataValue, -0.62, -3.4765000000000005E-06, 3.4765000000000005E-06, , 
DataValue, -0.63, -3.7119000000000004E-06, 3.7119000000000004E-06, , 
DataValue, -0.64, -4.5417E-06, 4.5417E-06, , 
DataValue, -0.65, -4.3681000000000006E-06, 4.3681000000000006E-06, , 
DataValue, -0.66, -4.5200000000000008E-06, 4.5200000000000008E-06, , 
DataValue, -0.67, -4.6078E-06, 4.6078E-06, , 
DataValue, -0.68, -5.0700000000000006E-06, 5.0700000000000006E-06, , 
DataValue, -0.69000000000000006, -5.7964000000000009E-06, 5.7964000000000009E-06, , 
DataValue, -0.70000000000000007, -6.0442000000000005E-06, 6.0442000000000005E-06, , 
DataValue, -0.71000000000000008, -5.5811000000000007E-06, 5.5811000000000007E-06, , 
DataValue, -0.72000000000000008, -6.2777000000000009E-06, 6.2777000000000009E-06, , 
DataValue, -0.73, -6.1421000000000009E-06, 6.1421000000000009E-06, , 
DataValue, -0.74, -6.346900000000001E-06, 6.346900000000001E-06, , 
DataValue, -0.75, -6.5577000000000008E-06, 6.5577000000000008E-06, , 
DataValue, -0.76, -6.4559E-06, 6.4559E-06, , 
DataValue, -0.77, -6.4666000000000009E-06, 6.4666000000000009E-06, , 
DataValue, -0.78, -6.453900000000001E-06, 6.453900000000001E-06, , 
DataValue, -0.79, -5.2621000000000008E-06, 5.2621000000000008E-06, , 
DataValue, -0.8, -2.2038000000000004E-06, 2.2038000000000004E-06, , 
DataValue, -0.81, -2.7775E-06, 2.7775E-06, , 
DataValue, -0.82000000000000006, -1.6619000000000001E-06, 1.6619000000000001E-06, , 
DataValue, -0.83000000000000007, -1.4432000000000002E-06, 1.4432000000000002E-06, , 
DataValue, -0.84000000000000008, -1.3789E-06, 1.3789E-06, , 
DataValue, -0.85000000000000009, -1.3023000000000002E-06, 1.3023000000000002E-06, , 
DataValue, -0.86, -1.4235000000000002E-06, 1.4235000000000002E-06, , 
DataValue, -0.87, -1.1313E-06, 1.1313E-06, , 
DataValue, -0.88, -1.5495000000000002E-06, 1.5495000000000002E-06, , 
DataValue, -0.89, -1.5440000000000002E-06, 1.5440000000000002E-06, , 
DataValue, -0.9, -1.5589000000000002E-06, 1.5589000000000002E-06, , 
DataValue, -0.91, -1.2740000000000002E-06, 1.2740000000000002E-06, , 
DataValue, -0.92, -9.1452E-07, 9.1452E-07, , 
DataValue, -0.93, -1.1248E-06, 1.1248E-06, , 
DataValue, -0.94000000000000006, -9.6300000000000014E-07, 9.6300000000000014E-07, , 
DataValue, -0.95000000000000007, -1.0558599999999999E-06, 1.0558599999999999E-06, , 
DataValue, -0.96000000000000008, -1.07842E-06, 1.07842E-06, , 
DataValue, -0.97000000000000008, -1.07636E-06, 1.07636E-06, , 
DataValue, -0.98000000000000009, -1.2217E-06, 1.2217E-06, , 
DataValue, -0.9900000000000001, -1.235E-06, 1.235E-06, , 
DataValue, -1, -1.2522E-06, 1.2522E-06, , 
DataValue, -1.01, -1.3853E-06, 1.3853E-06, , 
DataValue, -1.02, -1.3035E-06, 1.3035E-06, , 
DataValue, -1.03, -1.2883000000000002E-06, 1.2883000000000002E-06, , 
DataValue, -1.04, -1.312E-06, 1.312E-06, , 
DataValue, -1.05, -1.3773000000000001E-06, 1.3773000000000001E-06, , 
DataValue, -1.06, -1.4608E-06, 1.4608E-06, , 
DataValue, -1.07, -1.5229E-06, 1.5229E-06, , 
DataValue, -1.08, -1.5093E-06, 1.5093E-06, , 
DataValue, -1.09, -1.6346000000000002E-06, 1.6346000000000002E-06, , 
DataValue, -1.1, -1.5492000000000001E-06, 1.5492000000000001E-06, , 
DataValue, -1.11, -2.0078E-06, 2.0078E-06, , 
DataValue, -1.12, -1.7211000000000001E-06, 1.7211000000000001E-06, , 
DataValue, -1.1300000000000001, -1.2344000000000002E-06, 1.2344000000000002E-06, , 
DataValue, -1.1400000000000001, -9.484000000000001E-07, 9.484000000000001E-07, , 
DataValue, -1.1500000000000001, -1.1595E-06, 1.1595E-06, , 
DataValue, -1.1600000000000001, -1.3251000000000002E-06, 1.3251000000000002E-06, , 
DataValue, -1.1700000000000002, -1.1873E-06, 1.1873E-06, , 
DataValue, -1.1800000000000002, -2.1913E-06, 2.1913E-06, , 
DataValue, -1.19, -2.5492E-06, 2.5492E-06, , 
DataValue, -1.2, -1.8421000000000001E-06, 1.8421000000000001E-06, , 
DataValue, -1.21, -1.9248E-06, 1.9248E-06, , 
DataValue, -1.22, -1.9588E-06, 1.9588E-06, , 
DataValue, -1.23, -2.0586E-06, 2.0586E-06, , 
DataValue, -1.24, -2.0926E-06, 2.0926E-06, , 
DataValue, -1.25, -2.0461E-06, 2.0461E-06, , 
DataValue, -1.26, -2.2542000000000004E-06, 2.2542000000000004E-06, , 
DataValue, -1.27, -2.2339000000000003E-06, 2.2339000000000003E-06, , 
DataValue, -1.28, -2.3763000000000004E-06, 2.3763000000000004E-06, , 
DataValue, -1.29, -2.4318E-06, 2.4318E-06, , 
DataValue, -1.3, -2.313E-06, 2.313E-06, , 
DataValue, -1.31, -1.8972000000000002E-06, 1.8972000000000002E-06, , 
DataValue, -1.32, -2.0261000000000004E-06, 2.0261000000000004E-06, , 
DataValue, -1.33, -1.8102000000000003E-06, 1.8102000000000003E-06, , 
DataValue, -1.34, -1.1723000000000002E-06, 1.1723000000000002E-06, , 
DataValue, -1.35, -1.4753E-06, 1.4753E-06, , 
DataValue, -1.36, -1.7589000000000002E-06, 1.7589000000000002E-06, , 
DataValue, -1.37, -2.5516000000000003E-06, 2.5516000000000003E-06, , 
DataValue, -1.3800000000000001, -4.7852E-07, 4.7852E-07, , 
DataValue, -1.3900000000000001, -5.2482E-07, 5.2482E-07, , 
DataValue, -1.4000000000000001, -5.2776E-07, 5.2776E-07, , 
DataValue, -1.4100000000000001, -4.9182E-07, 4.9182E-07, , 
DataValue, -1.4200000000000002, -5.0005999999999994E-07, 5.0005999999999994E-07, , 
DataValue, -1.4300000000000002, -5.0748E-07, 5.0748E-07, , 
DataValue, -1.4400000000000002, -5.126E-07, 5.126E-07, , 
DataValue, -1.4500000000000002, -5.8954E-07, 5.8954E-07, , 
DataValue, -1.46, -5.2712E-07, 5.2712E-07, , 
DataValue, -1.47, -4.9666E-07, 4.9666E-07, , 
DataValue, -1.48, -4.6868E-07, 4.6868E-07, , 
DataValue, -1.49, -6.1135999999999994E-07, 6.1135999999999994E-07, , 
DataValue, -1.5, -5.4682E-07, 5.4682E-07, , 
DataValue, -1.51, -4.6263999999999997E-07, 4.6263999999999997E-07, , 
DataValue, -1.52, -1.5034E-07, 1.5034E-07, , 
DataValue, -1.53, -1.5622E-07, 1.5622E-07, , 
DataValue, -1.54, -1.5544E-07, 1.5544E-07, , 
DataValue, -1.55, -1.6416E-07, 1.6416E-07, , 
DataValue, -1.56, -1.6242E-07, 1.6242E-07, , 
DataValue, -1.57, -1.317E-07, 1.317E-07, , 
DataValue, -1.58, -1.3358E-07, 1.3358E-07, , 
DataValue, -1.59, -1.3576E-07, 1.3576E-07, , 
DataValue, -1.6, -1.4014E-07, 1.4014E-07, , 
DataValue, -1.61, -1.4122E-07, 1.4122E-07, , 
DataValue, -1.62, -1.4585999999999998E-07, 1.4585999999999998E-07, , 
DataValue, -1.6300000000000001, -1.5645999999999999E-07, 1.5645999999999999E-07, , 
DataValue, -1.6400000000000001, -1.4779999999999999E-07, 1.4779999999999999E-07, , 
DataValue, -1.6500000000000001, -1.5101999999999999E-07, 1.5101999999999999E-07, , 
DataValue, -1.6600000000000001, -1.5346E-07, 1.5346E-07, , 
DataValue, -1.6700000000000002, -1.5678E-07, 1.5678E-07, , 
DataValue, -1.6800000000000002, -1.6072E-07, 1.6072E-07, , 
DataValue, -1.6900000000000002, -1.6382E-07, 1.6382E-07, , 
DataValue, -1.7000000000000002, -1.6704E-07, 1.6704E-07, , 
DataValue, -1.7100000000000002, -1.7066E-07, 1.7066E-07, , 
DataValue, -1.72, -1.7736E-07, 1.7736E-07, , 
DataValue, -1.73, -1.7893999999999999E-07, 1.7893999999999999E-07, , 
DataValue, -1.74, -1.7998E-07, 1.7998E-07, , 
DataValue, -1.75, -1.8362E-07, 1.8362E-07, , 
DataValue, -1.76, -1.8916E-07, 1.8916E-07, , 
DataValue, -1.77, -1.8478E-07, 1.8478E-07, , 
DataValue, -1.78, -1.9516E-07, 1.9516E-07, , 
DataValue, -1.79, -2.189E-07, 2.189E-07, , 
DataValue, -1.8, -2.2534E-07, 2.2534E-07, , 
DataValue, -1.81, -2.145E-07, 2.145E-07, , 
DataValue, -1.82, -2.2878E-07, 2.2878E-07, , 
DataValue, -1.83, -2.6846E-07, 2.6846E-07, , 
DataValue, -1.84, -3.4022E-07, 3.4022E-07, , 
DataValue, -1.85, -3.3163999999999997E-07, 3.3163999999999997E-07, , 
DataValue, -1.86, -2.8152E-07, 2.8152E-07, , 
DataValue, -1.87, -2.7958E-07, 2.7958E-07, , 
DataValue, -1.8800000000000001, -2.6746E-07, 2.6746E-07, , 
DataValue, -1.8900000000000001, -2.6224E-07, 2.6224E-07, , 
DataValue, -1.9000000000000001, -2.7984E-07, 2.7984E-07, , 
DataValue, -1.9100000000000001, -3.0182E-07, 3.0182E-07, , 
DataValue, -1.9200000000000002, -3.3926E-07, 3.3926E-07, , 
DataValue, -1.9300000000000002, -3.4424E-07, 3.4424E-07, , 
DataValue, -1.9400000000000002, -3.3166E-07, 3.3166E-07, , 
DataValue, -1.9500000000000002, -3.5778E-07, 3.5778E-07, , 
DataValue, -1.9600000000000002, -3.8208E-07, 3.8208E-07, , 
DataValue, -1.9700000000000002, -3.131E-07, 3.131E-07, , 
DataValue, -1.9800000000000002, -3.2334E-07, 3.2334E-07, , 
DataValue, -1.99, -3.2784E-07, 3.2784E-07, , 
DataValue, -2, -2.9256E-07, 2.9256E-07, , 
DataValue, -2, -3.0262E-07, 3.0262E-07, , 
DataValue, -1.99, -2.8894E-07, 2.8894E-07, , 
DataValue, -1.9800000000000002, -3.1612E-07, 3.1612E-07, , 
DataValue, -1.9700000000000002, -3.284E-07, 3.284E-07, , 
DataValue, -1.9600000000000002, -3.053E-07, 3.053E-07, , 
DataValue, -1.9500000000000002, -2.9304E-07, 2.9304E-07, , 
DataValue, -1.9400000000000002, -2.7442E-07, 2.7442E-07, , 
DataValue, -1.9300000000000002, -2.485E-07, 2.485E-07, , 
DataValue, -1.9200000000000002, -2.2542E-07, 2.2542E-07, , 
DataValue, -1.9100000000000001, -2.0486E-07, 2.0486E-07, , 
DataValue, -1.9000000000000001, -2.1792E-07, 2.1792E-07, , 
DataValue, -1.8900000000000001, -1.961E-07, 1.961E-07, , 
DataValue, -1.8800000000000001, -1.8798E-07, 1.8798E-07, , 
DataValue, -1.87, -1.7798E-07, 1.7798E-07, , 
DataValue, -1.86, -2.169E-07, 2.169E-07, , 
DataValue, -1.85, -2.2276E-07, 2.2276E-07, , 
DataValue, -1.84, -2.0244E-07, 2.0244E-07, , 
DataValue, -1.83, -2.0012E-07, 2.0012E-07, , 
DataValue, -1.82, -1.8556E-07, 1.8556E-07, , 
DataValue, -1.81, -1.5902E-07, 1.5902E-07, , 
DataValue, -1.8, -1.644E-07, 1.644E-07, , 
DataValue, -1.79, -1.6118E-07, 1.6118E-07, , 
DataValue, -1.78, -1.5771999999999999E-07, 1.5771999999999999E-07, , 
