
SetupTitle, ExtFET - NEG RESET BE-2.0V
PrimitiveTest, I/V Sweep
TestParameter, Context.MainFrame, B1500A
TestParameter, Channel.UnitType, SMU, SMU, SMU
TestParameter, Channel.Unit, SMU2:HR, SMU4:HR, SMU3:HR
TestParameter, Channel.IName, I_TE, I_BE, I_G
TestParameter, Channel.VName, V_TE, V_BE, V_G
TestParameter, Channel.Mode, V, COMMON, V
TestParameter, Channel.Func, VAR1, CONST, CONST
TestParameter, Channel.Index, 
TestParameter, Channel.Time, 
TestParameter, Measurement.Port.Unit, SMU2:HR, SMU4:HR, SMU3:HR
TestParameter, Measurement.Port.SeriesResistor, NONE, NONE, NONE
TestParameter, Measurement.Port.Filter, ON, ON, ON
TestParameter, Measurement.Port.OutputVoltageComparison, 0, 0, 0
TestParameter, Measurement.Primary.Locus, Double
TestParameter, Measurement.Primary.Scale, LINEAR
TestParameter, Measurement.Primary.Start, 0
TestParameter, Measurement.Primary.Stop, -2
TestParameter, Measurement.Primary.Step, -0.01
TestParameter, Measurement.Primary.Compliance, 0.01
TestParameter, Measurement.Primary.PowerCompliance, 0
TestParameter, Measurement.Aborting.Condition, CONTINUE AT ANY
TestParameter, Measurement.PostOutput.Value, START
TestParameter, Measurement.PostOutput.Retention, OFF
TestParameter, Measurement.Bias.Source, 0, 0, 2
TestParameter, Measurement.Bias.Compliance, 0.01, 0.1, 0.0001
TestParameter, Measurement.Monitor.Unit, SMU2:HR, SMU4:HR, SMU3:HR
TestParameter, Measurement.Monitor.Adc, HR ADC, HR ADC, HR ADC
TestParameter, Measurement.Monitor.Measurement, Compliance Side, Compliance Side, Compliance Side
TestParameter, Measurement.Monitor.RangingMode, LIMITED, LIMITED, LIMITED
TestParameter, Measurement.Monitor.RangeBoundary, 1nA, 1nA, 1nA
TestParameter, Measurement.Monitor.RangeRating, BY FULL RANGE, BY FULL RANGE, BY FULL RANGE
TestParameter, Measurement.Monitor.RangeRatingCoeff, 50, 50, 50
TestParameter, Measurement.Timing.Hold, 0
TestParameter, Measurement.Timing.Delay, 0
TestParameter, Measurement.Adc.HighSpeed.Mode, AUTO
TestParameter, Measurement.Adc.HighSpeed.Coeff, 1
TestParameter, Measurement.Adc.HighResolution.AutoZero, OFF
TestParameter, Measurement.Adc.HighResolution.Mode, AUTO
TestParameter, Measurement.Adc.HighResolution.Coeff, 6
TestParameter, Measurement.WaitTime.Source.Coeff, 1
TestParameter, Measurement.WaitTime.Source.Offset, 0
TestParameter, Measurement.WaitTime.Monitor.Coeff, 1
TestParameter, Measurement.WaitTime.Monitor.Offset, 0
TestParameter, Function.User.Name, absITE
TestParameter, Function.User.Unit, A
TestParameter, Function.User.Definition, abs(I_TE)
TestParameter, Output.Graph.Enabled, true
TestParameter, Output.Graph.AutoScaling, false
TestParameter, Output.Graph.XAxis.Data, V_TE
TestParameter, Output.Graph.XAxis.Scale, Linear
TestParameter, Output.Graph.XAxis.Left, 0
TestParameter, Output.Graph.XAxis.Right, 10
TestParameter, Output.Graph.XAxis.RunTimeAutoScale, true
TestParameter, Output.Graph.YAxis.Data, absITE
TestParameter, Output.Graph.YAxis.Scale, Log
TestParameter, Output.Graph.YAxis.Bottom, 0
TestParameter, Output.Graph.YAxis.Top, 1
TestParameter, Output.Graph.YAxis.Group, 
TestParameter, Output.Graph.YAxis.RunTimeAutoScale, true
TestParameter, Output.List.Data, V1, I2abs
TestParameter, AutoAnalysis.Interpolation, false
TestParameter, AutoAnalysis.Var2StepCount, 1
TestParameter, AutoAnalysis.Var2StepScript, 
TestParameter, AutoAnalysis.Line1.Enabled, false
TestParameter, AutoAnalysis.Line1.Type, 1
TestParameter, AutoAnalysis.Line1.Fix, True
TestParameter, AutoAnalysis.Line1.YAxis, 0
TestParameter, AutoAnalysis.Line1.Point1.Type, 0
TestParameter, AutoAnalysis.Line1.Point1.XY.X, 
TestParameter, AutoAnalysis.Line1.Point1.XY.Y, 
TestParameter, AutoAnalysis.Line1.Point1.Data.Var, 
TestParameter, AutoAnalysis.Line1.Point1.Data.Condition, 
TestParameter, AutoAnalysis.Line1.Point1.Data.Start, false
TestParameter, AutoAnalysis.Line1.Point1.Data.StartVar, 
TestParameter, AutoAnalysis.Line1.Point1.Data.StartCondition, 
TestParameter, AutoAnalysis.Line1.Point2.Type, 0
TestParameter, AutoAnalysis.Line1.Point2.XY.X, 
TestParameter, AutoAnalysis.Line1.Point2.XY.Y, 
TestParameter, AutoAnalysis.Line1.Point2.Data.Var, 
TestParameter, AutoAnalysis.Line1.Point2.Data.Condition, 
TestParameter, AutoAnalysis.Line1.Point2.Data.Start, false
TestParameter, AutoAnalysis.Line1.Point2.Data.StartVar, 
TestParameter, AutoAnalysis.Line1.Point2.Data.StartCondition, 
TestParameter, AutoAnalysis.Line1.GradientExpr, 0
TestParameter, AutoAnalysis.Line2.Enabled, false
TestParameter, AutoAnalysis.Line2.Type, 1
TestParameter, AutoAnalysis.Line2.Fix, True
TestParameter, AutoAnalysis.Line2.YAxis, 0
TestParameter, AutoAnalysis.Line2.Point1.Type, 0
TestParameter, AutoAnalysis.Line2.Point1.XY.X, 
TestParameter, AutoAnalysis.Line2.Point1.XY.Y, 
TestParameter, AutoAnalysis.Line2.Point1.Data.Var, 
TestParameter, AutoAnalysis.Line2.Point1.Data.Condition, 
TestParameter, AutoAnalysis.Line2.Point1.Data.Start, false
TestParameter, AutoAnalysis.Line2.Point1.Data.StartVar, 
TestParameter, AutoAnalysis.Line2.Point1.Data.StartCondition, 
TestParameter, AutoAnalysis.Line2.Point2.Type, 0
TestParameter, AutoAnalysis.Line2.Point2.XY.X, 
TestParameter, AutoAnalysis.Line2.Point2.XY.Y, 
TestParameter, AutoAnalysis.Line2.Point2.Data.Var, 
TestParameter, AutoAnalysis.Line2.Point2.Data.Condition, 
TestParameter, AutoAnalysis.Line2.Point2.Data.Start, false
TestParameter, AutoAnalysis.Line2.Point2.Data.StartVar, 
TestParameter, AutoAnalysis.Line2.Point2.Data.StartCondition, 
TestParameter, AutoAnalysis.Line2.GradientExpr, 0
TestParameter, AutoAnalysis.Marker.Enabled, false
TestParameter, AutoAnalysis.Marker.Data.Var, 
TestParameter, AutoAnalysis.Marker.Data.Condition, 
TestParameter, AutoAnalysis.Marker.Data.Start, false
TestParameter, AutoAnalysis.Marker.Data.StartVar, 
TestParameter, AutoAnalysis.Marker.Data.StartCondition, 
MetaData, TestRecord.EntryPoint, true
MetaData, TestRecord.RecordTime, 04/14/2020 20:30:17
MetaData, TestRecord.TestTarget, InGaAs_1_W_BE_FijiHfO2_NW-G05
MetaData, TestRecord.IterationIndex, 83
MetaData, TestRecord.Preservation, true
MetaData, TestRecord.Flag, 
MetaData, TestRecord.Remarks, 
MetaData, TestRecord.LinkKey, 114cc3f3-4326-4f31-9e65-013058cd2f80
MetaData, TestRecord.Parameters, 
Dimension1, 402, 402, 402, 402, 402
Dimension2, 1, 1, 1, 1, 1
DataName, V_TE, I_TE, absITE, V1, I2abs
DataValue, 0, 1.6820000000000002E-10, 1.6820000000000002E-10, , 
DataValue, -0.01, -3.11608E-08, 3.11608E-08, , 
DataValue, -0.02, -6.40848E-08, 6.40848E-08, , 
DataValue, -0.030000000000000002, -9.671059999999999E-08, 9.671059999999999E-08, , 
DataValue, -0.04, -1.2342E-07, 1.2342E-07, , 
DataValue, -0.05, -1.553E-07, 1.553E-07, , 
DataValue, -0.060000000000000005, -1.8716E-07, 1.8716E-07, , 
DataValue, -0.07, -2.224E-07, 2.224E-07, , 
DataValue, -0.08, -2.5698E-07, 2.5698E-07, , 
DataValue, -0.090000000000000011, -2.8905999999999997E-07, 2.8905999999999997E-07, , 
DataValue, -0.1, -3.231E-07, 3.231E-07, , 
DataValue, -0.11, -3.5792E-07, 3.5792E-07, , 
DataValue, -0.12000000000000001, -3.9334E-07, 3.9334E-07, , 
DataValue, -0.13, -4.0936E-07, 4.0936E-07, , 
DataValue, -0.14, -4.143E-07, 4.143E-07, , 
DataValue, -0.15, -4.4128E-07, 4.4128E-07, , 
DataValue, -0.16, -4.88E-07, 4.88E-07, , 
DataValue, -0.17, -5.1406E-07, 5.1406E-07, , 
DataValue, -0.18000000000000002, -5.4543999999999994E-07, 5.4543999999999994E-07, , 
DataValue, -0.19, -6.0152E-07, 6.0152E-07, , 
DataValue, -0.2, -6.3482E-07, 6.3482E-07, , 
DataValue, -0.21000000000000002, -6.8724E-07, 6.8724E-07, , 
DataValue, -0.22, -7.1794E-07, 7.1794E-07, , 
DataValue, -0.23, -7.5234E-07, 7.5234E-07, , 
DataValue, -0.24000000000000002, -8.3996E-07, 8.3996E-07, , 
DataValue, -0.25, -8.4202E-07, 8.4202E-07, , 
DataValue, -0.26, -8.8362E-07, 8.8362E-07, , 
DataValue, -0.27, -9.7892E-07, 9.7892E-07, , 
DataValue, -0.28, -9.7942E-07, 9.7942E-07, , 
DataValue, -0.29000000000000004, -1.0582999999999999E-06, 1.0582999999999999E-06, , 
DataValue, -0.3, -1.12548E-06, 1.12548E-06, , 
DataValue, -0.31, -1.1816E-06, 1.1816E-06, , 
DataValue, -0.32, -1.2272E-06, 1.2272E-06, , 
DataValue, -0.33, -1.2857E-06, 1.2857E-06, , 
DataValue, -0.34, -1.3553000000000002E-06, 1.3553000000000002E-06, , 
DataValue, -0.35000000000000003, -1.4596000000000002E-06, 1.4596000000000002E-06, , 
DataValue, -0.36000000000000004, -1.4774000000000003E-06, 1.4774000000000003E-06, , 
DataValue, -0.37, -1.5156000000000002E-06, 1.5156000000000002E-06, , 
DataValue, -0.38, -1.6268000000000003E-06, 1.6268000000000003E-06, , 
DataValue, -0.39, -1.6997000000000002E-06, 1.6997000000000002E-06, , 
DataValue, -0.4, -1.7735000000000003E-06, 1.7735000000000003E-06, , 
DataValue, -0.41000000000000003, -1.9144000000000003E-06, 1.9144000000000003E-06, , 
DataValue, -0.42000000000000004, -1.9848E-06, 1.9848E-06, , 
DataValue, -0.43, -2.1222E-06, 2.1222E-06, , 
DataValue, -0.44, -2.1751E-06, 2.1751E-06, , 
DataValue, -0.45, -2.261E-06, 2.261E-06, , 
DataValue, -0.46, -2.4993000000000004E-06, 2.4993000000000004E-06, , 
DataValue, -0.47000000000000003, -2.6090000000000003E-06, 2.6090000000000003E-06, , 
DataValue, -0.48000000000000004, -2.6741000000000004E-06, 2.6741000000000004E-06, , 
DataValue, -0.49000000000000005, -2.7763000000000004E-06, 2.7763000000000004E-06, , 
DataValue, -0.5, -2.9060000000000002E-06, 2.9060000000000002E-06, , 
DataValue, -0.51, -3.0063000000000003E-06, 3.0063000000000003E-06, , 
DataValue, -0.52, -3.1903E-06, 3.1903E-06, , 
DataValue, -0.53, -3.4524E-06, 3.4524E-06, , 
DataValue, -0.54, -3.5574000000000004E-06, 3.5574000000000004E-06, , 
DataValue, -0.55, -3.8942000000000008E-06, 3.8942000000000008E-06, , 
DataValue, -0.56, -4.22E-06, 4.22E-06, , 
DataValue, -0.57000000000000006, -4.4328E-06, 4.4328E-06, , 
DataValue, -0.58000000000000007, -4.573E-06, 4.573E-06, , 
DataValue, -0.59000000000000008, -5.1084000000000009E-06, 5.1084000000000009E-06, , 
DataValue, -0.6, -5.6796000000000006E-06, 5.6796000000000006E-06, , 
DataValue, -0.61, -5.9918000000000008E-06, 5.9918000000000008E-06, , 
DataValue, -0.62, -6.6852000000000008E-06, 6.6852000000000008E-06, , 
DataValue, -0.63, -6.7849000000000009E-06, 6.7849000000000009E-06, , 
DataValue, -0.64, -7.3977E-06, 7.3977E-06, , 
DataValue, -0.65, -7.223400000000001E-06, 7.223400000000001E-06, , 
DataValue, -0.66, -9.3118000000000012E-06, 9.3118000000000012E-06, , 
DataValue, -0.67, -8.8323E-06, 8.8323E-06, , 
DataValue, -0.68, -7.570300000000001E-06, 7.570300000000001E-06, , 
DataValue, -0.69000000000000006, -7.153100000000001E-06, 7.153100000000001E-06, , 
DataValue, -0.70000000000000007, -5.6464000000000007E-06, 5.6464000000000007E-06, , 
DataValue, -0.71000000000000008, -4.3463E-06, 4.3463E-06, , 
DataValue, -0.72000000000000008, -4.4427000000000007E-06, 4.4427000000000007E-06, , 
DataValue, -0.73, -4.6397000000000007E-06, 4.6397000000000007E-06, , 
DataValue, -0.74, -5.2992000000000009E-06, 5.2992000000000009E-06, , 
DataValue, -0.75, -5.6737E-06, 5.6737E-06, , 
DataValue, -0.76, -4.7648000000000005E-06, 4.7648000000000005E-06, , 
DataValue, -0.77, -3.5988E-06, 3.5988E-06, , 
DataValue, -0.78, -5.4718000000000007E-06, 5.4718000000000007E-06, , 
DataValue, -0.79, -1.5061E-06, 1.5061E-06, , 
DataValue, -0.8, -9.582000000000002E-07, 9.582000000000002E-07, , 
DataValue, -0.81, -1.5009E-06, 1.5009E-06, , 
DataValue, -0.82000000000000006, -8.2560000000000009E-07, 8.2560000000000009E-07, , 
DataValue, -0.83000000000000007, -3.3194E-07, 3.3194E-07, , 
DataValue, -0.84000000000000008, -3.3464E-07, 3.3464E-07, , 
DataValue, -0.85000000000000009, -3.34E-07, 3.34E-07, , 
DataValue, -0.86, -3.3768E-07, 3.3768E-07, , 
DataValue, -0.87, -3.4452E-07, 3.4452E-07, , 
DataValue, -0.88, -3.5214E-07, 3.5214E-07, , 
DataValue, -0.89, -3.575E-07, 3.575E-07, , 
DataValue, -0.9, -3.8198E-07, 3.8198E-07, , 
DataValue, -0.91, -4.0054E-07, 4.0054E-07, , 
DataValue, -0.92, -3.8398E-07, 3.8398E-07, , 
DataValue, -0.93, -4.0437999999999997E-07, 4.0437999999999997E-07, , 
DataValue, -0.94000000000000006, -4.0902E-07, 4.0902E-07, , 
DataValue, -0.95000000000000007, -3.8194E-07, 3.8194E-07, , 
DataValue, -0.96000000000000008, -4.2108E-07, 4.2108E-07, , 
DataValue, -0.97000000000000008, -6.6694E-07, 6.6694E-07, , 
DataValue, -0.98000000000000009, -5.7118E-07, 5.7118E-07, , 
DataValue, -0.9900000000000001, -9.441E-07, 9.441E-07, , 
DataValue, -1, -3.0217999999999997E-07, 3.0217999999999997E-07, , 
DataValue, -1.01, -1.6362E-07, 1.6362E-07, , 
DataValue, -1.02, -1.718E-07, 1.718E-07, , 
DataValue, -1.03, -1.5848E-07, 1.5848E-07, , 
DataValue, -1.04, -1.7442E-07, 1.7442E-07, , 
DataValue, -1.05, -1.7402E-07, 1.7402E-07, , 
DataValue, -1.06, -2.0314E-07, 2.0314E-07, , 
DataValue, -1.07, -3.5354E-07, 3.5354E-07, , 
DataValue, -1.08, -4.2182E-07, 4.2182E-07, , 
DataValue, -1.09, -1.907E-07, 1.907E-07, , 
DataValue, -1.1, -4.584E-08, 4.584E-08, , 
DataValue, -1.11, -4.12344E-08, 4.12344E-08, , 
DataValue, -1.12, -7.3117399999999987E-08, 7.3117399999999987E-08, , 
DataValue, -1.1300000000000001, -6.9583599999999988E-08, 6.9583599999999988E-08, , 
DataValue, -1.1400000000000001, -8.74878E-08, 8.74878E-08, , 
DataValue, -1.1500000000000001, -9.0060599999999993E-08, 9.0060599999999993E-08, , 
DataValue, -1.1600000000000001, -9.3273199999999988E-08, 9.3273199999999988E-08, , 
DataValue, -1.1700000000000002, -8.8124799999999992E-08, 8.8124799999999992E-08, , 
DataValue, -1.1800000000000002, -8.28988E-08, 8.28988E-08, , 
DataValue, -1.19, -9.20674E-08, 9.20674E-08, , 
DataValue, -1.2, -9.3974599999999984E-08, 9.3974599999999984E-08, , 
DataValue, -1.21, -9.59598E-08, 9.59598E-08, , 
DataValue, -1.22, -9.8308399999999991E-08, 9.8308399999999991E-08, , 
DataValue, -1.23, -1.0038539999999999E-07, 1.0038539999999999E-07, , 
DataValue, -1.24, -1.023854E-07, 1.023854E-07, , 
DataValue, -1.25, -1.1442E-07, 1.1442E-07, , 
DataValue, -1.26, -1.1048E-07, 1.1048E-07, , 
DataValue, -1.27, -1.1106E-07, 1.1106E-07, , 
DataValue, -1.28, -1.1374E-07, 1.1374E-07, , 
DataValue, -1.29, -1.1694E-07, 1.1694E-07, , 
DataValue, -1.3, -1.1973999999999999E-07, 1.1973999999999999E-07, , 
DataValue, -1.31, -1.4742E-07, 1.4742E-07, , 
DataValue, -1.32, -1.2328E-07, 1.2328E-07, , 
DataValue, -1.33, -1.2858E-07, 1.2858E-07, , 
DataValue, -1.34, -1.878E-07, 1.878E-07, , 
DataValue, -1.35, -2.1798E-07, 2.1798E-07, , 
DataValue, -1.36, -2.1342E-07, 2.1342E-07, , 
DataValue, -1.37, -2.1691999999999999E-07, 2.1691999999999999E-07, , 
DataValue, -1.3800000000000001, -2.1831999999999999E-07, 2.1831999999999999E-07, , 
DataValue, -1.3900000000000001, -2.088E-07, 2.088E-07, , 
DataValue, -1.4000000000000001, -2.2408E-07, 2.2408E-07, , 
DataValue, -1.4100000000000001, -2.243E-07, 2.243E-07, , 
DataValue, -1.4200000000000002, -2.162E-07, 2.162E-07, , 
DataValue, -1.4300000000000002, -2.1326E-07, 2.1326E-07, , 
DataValue, -1.4400000000000002, -2.4624E-07, 2.4624E-07, , 
DataValue, -1.4500000000000002, -2.4216E-07, 2.4216E-07, , 
DataValue, -1.46, -2.543E-07, 2.543E-07, , 
DataValue, -1.47, -2.9394E-07, 2.9394E-07, , 
DataValue, -1.48, -2.6092E-07, 2.6092E-07, , 
DataValue, -1.49, -2.401E-07, 2.401E-07, , 
DataValue, -1.5, -2.509E-07, 2.509E-07, , 
DataValue, -1.51, -2.5832E-07, 2.5832E-07, , 
DataValue, -1.52, -4.344E-08, 4.344E-08, , 
DataValue, -1.53, -1.2534E-07, 1.2534E-07, , 
DataValue, -1.54, -1.23E-07, 1.23E-07, , 
DataValue, -1.55, -1.1704E-07, 1.1704E-07, , 
DataValue, -1.56, -1.0831999999999999E-07, 1.0831999999999999E-07, , 
DataValue, -1.57, -1.307E-07, 1.307E-07, , 
DataValue, -1.58, -1.3264E-07, 1.3264E-07, , 
DataValue, -1.59, -1.3352E-07, 1.3352E-07, , 
DataValue, -1.6, -1.3652E-07, 1.3652E-07, , 
DataValue, -1.61, -1.3574E-07, 1.3574E-07, , 
DataValue, -1.62, -1.4919999999999999E-07, 1.4919999999999999E-07, , 
DataValue, -1.6300000000000001, -1.482E-07, 1.482E-07, , 
DataValue, -1.6400000000000001, -1.5064E-07, 1.5064E-07, , 
DataValue, -1.6500000000000001, -1.5561999999999999E-07, 1.5561999999999999E-07, , 
DataValue, -1.6600000000000001, -1.6128E-07, 1.6128E-07, , 
DataValue, -1.6700000000000002, -1.69E-07, 1.69E-07, , 
DataValue, -1.6800000000000002, -1.5462E-07, 1.5462E-07, , 
DataValue, -1.6900000000000002, -1.6026E-07, 1.6026E-07, , 
DataValue, -1.7000000000000002, -1.6642E-07, 1.6642E-07, , 
DataValue, -1.7100000000000002, -1.6328E-07, 1.6328E-07, , 
DataValue, -1.72, -1.6511999999999999E-07, 1.6511999999999999E-07, , 
DataValue, -1.73, -1.9298E-07, 1.9298E-07, , 
DataValue, -1.74, -1.7818E-07, 1.7818E-07, , 
DataValue, -1.75, -1.7442E-07, 1.7442E-07, , 
DataValue, -1.76, -1.7522E-07, 1.7522E-07, , 
DataValue, -1.77, -2.1024E-07, 2.1024E-07, , 
DataValue, -1.78, -1.8486E-07, 1.8486E-07, , 
DataValue, -1.79, -1.8108E-07, 1.8108E-07, , 
DataValue, -1.8, -1.8156E-07, 1.8156E-07, , 
DataValue, -1.81, -1.8772E-07, 1.8772E-07, , 
DataValue, -1.82, -1.9534E-07, 1.9534E-07, , 
DataValue, -1.83, -2.0645999999999998E-07, 2.0645999999999998E-07, , 
DataValue, -1.84, -2.1E-07, 2.1E-07, , 
DataValue, -1.85, -2.8532E-07, 2.8532E-07, , 
DataValue, -1.86, -2.9628E-07, 2.9628E-07, , 
DataValue, -1.87, -2.4451999999999997E-07, 2.4451999999999997E-07, , 
DataValue, -1.8800000000000001, -2.2884E-07, 2.2884E-07, , 
DataValue, -1.8900000000000001, -1.9902E-07, 1.9902E-07, , 
DataValue, -1.9000000000000001, -3.1224E-07, 3.1224E-07, , 
DataValue, -1.9100000000000001, -3.1906E-07, 3.1906E-07, , 
DataValue, -1.9200000000000002, -2.0589E-09, 2.0589E-09, , 
DataValue, -1.9300000000000002, -2.4592E-09, 2.4592E-09, , 
DataValue, -1.9400000000000002, -2.0895E-09, 2.0895E-09, , 
DataValue, -1.9500000000000002, -2.4438E-09, 2.4438E-09, , 
DataValue, -1.9600000000000002, -4.0321E-09, 4.0321E-09, , 
DataValue, -1.9700000000000002, -3.1294E-09, 3.1294E-09, , 
DataValue, -1.9800000000000002, -2.3117E-09, 2.3117E-09, , 
DataValue, -1.99, -2.5484E-09, 2.5484E-09, , 
DataValue, -2, -2.0483E-09, 2.0483E-09, , 
DataValue, -2, -2.0514E-09, 2.0514E-09, , 
DataValue, -1.99, -3.2438E-09, 3.2438E-09, , 
DataValue, -1.9800000000000002, -2.8899E-09, 2.8899E-09, , 
DataValue, -1.9700000000000002, -3.1149E-09, 3.1149E-09, , 
DataValue, -1.9600000000000002, -3.5026E-09, 3.5026E-09, , 
DataValue, -1.9500000000000002, -2.5689E-09, 2.5689E-09, , 
DataValue, -1.9400000000000002, -2.7189E-09, 2.7189E-09, , 
DataValue, -1.9300000000000002, -2.7835E-09, 2.7835E-09, , 
DataValue, -1.9200000000000002, -2.5306E-09, 2.5306E-09, , 
DataValue, -1.9100000000000001, -2.4224E-09, 2.4224E-09, , 
DataValue, -1.9000000000000001, -2.0836E-09, 2.0836E-09, , 
DataValue, -1.8900000000000001, -2.782E-09, 2.782E-09, , 
DataValue, -1.8800000000000001, -2.325E-09, 2.325E-09, , 
DataValue, -1.87, -2.2525E-09, 2.2525E-09, , 
DataValue, -1.86, -2.386E-09, 2.386E-09, , 
DataValue, -1.85, -2.0664E-09, 2.0664E-09, , 
DataValue, -1.84, -1.9367E-09, 1.9367E-09, , 
DataValue, -1.83, -1.9903E-09, 1.9903E-09, , 
DataValue, -1.82, -1.8911E-09, 1.8911E-09, , 
DataValue, -1.81, -1.9495E-09, 1.9495E-09, , 
DataValue, -1.8, -1.7508E-09, 1.7508E-09, , 
DataValue, -1.79, -1.8561E-09, 1.8561E-09, , 
DataValue, -1.78, -1.1923E-09, 1.1923E-09, , 
DataValue, -1.77, -1.2544E-09, 1.2544E-09, , 
DataValue, -1.76, -1.1997E-09, 1.1997E-09, , 
DataValue, -1.75, -1.169E-09, 1.169E-09, , 
DataValue, -1.74, -1.0144E-09, 1.0144E-09, , 
DataValue, -1.73, -9.7891E-10, 9.7891E-10, , 
DataValue, -1.72, -4.3514E-10, 4.3514E-10, , 
DataValue, -1.7100000000000002, -5.1214000000000005E-10, 5.1214000000000005E-10, , 
DataValue, -1.7000000000000002, -4.5663000000000006E-10, 4.5663000000000006E-10, , 
DataValue, -1.6900000000000002, -1.1807E-09, 1.1807E-09, , 
DataValue, -1.6800000000000002, -1.0304E-09, 1.0304E-09, , 
DataValue, -1.6700000000000002, -1.4247E-09, 1.4247E-09, , 
