
SetupTitle, ExtFET - NEG RESET BE-2.0V
PrimitiveTest, I/V Sweep
TestParameter, Context.MainFrame, B1500A
TestParameter, Channel.UnitType, SMU, SMU, SMU
TestParameter, Channel.Unit, SMU2:HR, SMU4:HR, SMU3:HR
TestParameter, Channel.IName, I_TE, I_BE, I_G
TestParameter, Channel.VName, V_TE, V_BE, V_G
TestParameter, Channel.Mode, V, COMMON, V
TestParameter, Channel.Func, VAR1, CONST, CONST
TestParameter, Channel.Index, 
TestParameter, Channel.Time, 
TestParameter, Measurement.Port.Unit, SMU2:HR, SMU4:HR, SMU3:HR
TestParameter, Measurement.Port.SeriesResistor, NONE, NONE, NONE
TestParameter, Measurement.Port.Filter, ON, ON, ON
TestParameter, Measurement.Port.OutputVoltageComparison, 0, 0, 0
TestParameter, Measurement.Primary.Locus, Double
TestParameter, Measurement.Primary.Scale, LINEAR
TestParameter, Measurement.Primary.Start, 0
TestParameter, Measurement.Primary.Stop, -2
TestParameter, Measurement.Primary.Step, -0.01
TestParameter, Measurement.Primary.Compliance, 0.01
TestParameter, Measurement.Primary.PowerCompliance, 0
TestParameter, Measurement.Aborting.Condition, CONTINUE AT ANY
TestParameter, Measurement.PostOutput.Value, START
TestParameter, Measurement.PostOutput.Retention, OFF
TestParameter, Measurement.Bias.Source, 0, 0, 2
TestParameter, Measurement.Bias.Compliance, 0.01, 0.1, 0.0001
TestParameter, Measurement.Monitor.Unit, SMU2:HR, SMU4:HR, SMU3:HR
TestParameter, Measurement.Monitor.Adc, HR ADC, HR ADC, HR ADC
TestParameter, Measurement.Monitor.Measurement, Compliance Side, Compliance Side, Compliance Side
TestParameter, Measurement.Monitor.RangingMode, LIMITED, LIMITED, LIMITED
TestParameter, Measurement.Monitor.RangeBoundary, 1nA, 1nA, 1nA
TestParameter, Measurement.Monitor.RangeRating, BY FULL RANGE, BY FULL RANGE, BY FULL RANGE
TestParameter, Measurement.Monitor.RangeRatingCoeff, 50, 50, 50
TestParameter, Measurement.Timing.Hold, 0
TestParameter, Measurement.Timing.Delay, 0
TestParameter, Measurement.Adc.HighSpeed.Mode, AUTO
TestParameter, Measurement.Adc.HighSpeed.Coeff, 1
TestParameter, Measurement.Adc.HighResolution.AutoZero, OFF
TestParameter, Measurement.Adc.HighResolution.Mode, AUTO
TestParameter, Measurement.Adc.HighResolution.Coeff, 6
TestParameter, Measurement.WaitTime.Source.Coeff, 1
TestParameter, Measurement.WaitTime.Source.Offset, 0
TestParameter, Measurement.WaitTime.Monitor.Coeff, 1
TestParameter, Measurement.WaitTime.Monitor.Offset, 0
TestParameter, Function.User.Name, absITE
TestParameter, Function.User.Unit, A
TestParameter, Function.User.Definition, abs(I_TE)
TestParameter, Output.Graph.Enabled, true
TestParameter, Output.Graph.AutoScaling, false
TestParameter, Output.Graph.XAxis.Data, V_TE
TestParameter, Output.Graph.XAxis.Scale, Linear
TestParameter, Output.Graph.XAxis.Left, 0
TestParameter, Output.Graph.XAxis.Right, 10
TestParameter, Output.Graph.XAxis.RunTimeAutoScale, true
TestParameter, Output.Graph.YAxis.Data, absITE
TestParameter, Output.Graph.YAxis.Scale, Log
TestParameter, Output.Graph.YAxis.Bottom, 0
TestParameter, Output.Graph.YAxis.Top, 1
TestParameter, Output.Graph.YAxis.Group, 
TestParameter, Output.Graph.YAxis.RunTimeAutoScale, true
TestParameter, Output.List.Data, V1, I2abs
TestParameter, AutoAnalysis.Interpolation, false
TestParameter, AutoAnalysis.Var2StepCount, 1
TestParameter, AutoAnalysis.Var2StepScript, 
TestParameter, AutoAnalysis.Line1.Enabled, false
TestParameter, AutoAnalysis.Line1.Type, 1
TestParameter, AutoAnalysis.Line1.Fix, True
TestParameter, AutoAnalysis.Line1.YAxis, 0
TestParameter, AutoAnalysis.Line1.Point1.Type, 0
TestParameter, AutoAnalysis.Line1.Point1.XY.X, 
TestParameter, AutoAnalysis.Line1.Point1.XY.Y, 
TestParameter, AutoAnalysis.Line1.Point1.Data.Var, 
TestParameter, AutoAnalysis.Line1.Point1.Data.Condition, 
TestParameter, AutoAnalysis.Line1.Point1.Data.Start, false
TestParameter, AutoAnalysis.Line1.Point1.Data.StartVar, 
TestParameter, AutoAnalysis.Line1.Point1.Data.StartCondition, 
TestParameter, AutoAnalysis.Line1.Point2.Type, 0
TestParameter, AutoAnalysis.Line1.Point2.XY.X, 
TestParameter, AutoAnalysis.Line1.Point2.XY.Y, 
TestParameter, AutoAnalysis.Line1.Point2.Data.Var, 
TestParameter, AutoAnalysis.Line1.Point2.Data.Condition, 
TestParameter, AutoAnalysis.Line1.Point2.Data.Start, false
TestParameter, AutoAnalysis.Line1.Point2.Data.StartVar, 
TestParameter, AutoAnalysis.Line1.Point2.Data.StartCondition, 
TestParameter, AutoAnalysis.Line1.GradientExpr, 0
TestParameter, AutoAnalysis.Line2.Enabled, false
TestParameter, AutoAnalysis.Line2.Type, 1
TestParameter, AutoAnalysis.Line2.Fix, True
TestParameter, AutoAnalysis.Line2.YAxis, 0
TestParameter, AutoAnalysis.Line2.Point1.Type, 0
TestParameter, AutoAnalysis.Line2.Point1.XY.X, 
TestParameter, AutoAnalysis.Line2.Point1.XY.Y, 
TestParameter, AutoAnalysis.Line2.Point1.Data.Var, 
TestParameter, AutoAnalysis.Line2.Point1.Data.Condition, 
TestParameter, AutoAnalysis.Line2.Point1.Data.Start, false
TestParameter, AutoAnalysis.Line2.Point1.Data.StartVar, 
TestParameter, AutoAnalysis.Line2.Point1.Data.StartCondition, 
TestParameter, AutoAnalysis.Line2.Point2.Type, 0
TestParameter, AutoAnalysis.Line2.Point2.XY.X, 
TestParameter, AutoAnalysis.Line2.Point2.XY.Y, 
TestParameter, AutoAnalysis.Line2.Point2.Data.Var, 
TestParameter, AutoAnalysis.Line2.Point2.Data.Condition, 
TestParameter, AutoAnalysis.Line2.Point2.Data.Start, false
TestParameter, AutoAnalysis.Line2.Point2.Data.StartVar, 
TestParameter, AutoAnalysis.Line2.Point2.Data.StartCondition, 
TestParameter, AutoAnalysis.Line2.GradientExpr, 0
TestParameter, AutoAnalysis.Marker.Enabled, false
TestParameter, AutoAnalysis.Marker.Data.Var, 
TestParameter, AutoAnalysis.Marker.Data.Condition, 
TestParameter, AutoAnalysis.Marker.Data.Start, false
TestParameter, AutoAnalysis.Marker.Data.StartVar, 
TestParameter, AutoAnalysis.Marker.Data.StartCondition, 
MetaData, TestRecord.EntryPoint, true
MetaData, TestRecord.RecordTime, 04/14/2020 20:30:36
MetaData, TestRecord.TestTarget, InGaAs_1_W_BE_FijiHfO2_NW-G05
MetaData, TestRecord.IterationIndex, 84
MetaData, TestRecord.Preservation, true
MetaData, TestRecord.Flag, 
MetaData, TestRecord.Remarks, 
MetaData, TestRecord.LinkKey, 369486d3-c036-45c4-b5c1-31b331fa5fbe
MetaData, TestRecord.Parameters, 
Dimension1, 402, 402, 402, 402, 402
Dimension2, 1, 1, 1, 1, 1
DataName, V_TE, I_TE, absITE, V1, I2abs
DataValue, 0, 6.5580000000000008E-11, 6.5580000000000008E-11, , 
DataValue, -0.01, -1.9980799999999998E-08, 1.9980799999999998E-08, , 
DataValue, -0.02, -2.9253799999999998E-08, 2.9253799999999998E-08, , 
DataValue, -0.030000000000000002, -5.15914E-08, 5.15914E-08, , 
DataValue, -0.04, -6.70006E-08, 6.70006E-08, , 
DataValue, -0.05, -8.3985E-08, 8.3985E-08, , 
DataValue, -0.060000000000000005, -1.013004E-07, 1.013004E-07, , 
DataValue, -0.07, -1.1896E-07, 1.1896E-07, , 
DataValue, -0.08, -1.3788E-07, 1.3788E-07, , 
DataValue, -0.090000000000000011, -9.4662199999999989E-08, 9.4662199999999989E-08, , 
DataValue, -0.1, -1.088E-07, 1.088E-07, , 
DataValue, -0.11, -1.316E-07, 1.316E-07, , 
DataValue, -0.12000000000000001, -1.0516E-07, 1.0516E-07, , 
DataValue, -0.13, -2.8212E-07, 2.8212E-07, , 
DataValue, -0.14, -2.0085999999999999E-07, 2.0085999999999999E-07, , 
DataValue, -0.15, -2.1856E-07, 2.1856E-07, , 
DataValue, -0.16, -3.0858E-07, 3.0858E-07, , 
DataValue, -0.17, -3.4372E-07, 3.4372E-07, , 
DataValue, -0.18000000000000002, -1.8871999999999999E-07, 1.8871999999999999E-07, , 
DataValue, -0.19, -2.0448E-07, 2.0448E-07, , 
DataValue, -0.2, -2.415E-07, 2.415E-07, , 
DataValue, -0.21000000000000002, -2.6182E-07, 2.6182E-07, , 
DataValue, -0.22, -2.633E-07, 2.633E-07, , 
DataValue, -0.23, -1.8528E-07, 1.8528E-07, , 
DataValue, -0.24000000000000002, -1.9958E-07, 1.9958E-07, , 
DataValue, -0.25, -2.1144E-07, 2.1144E-07, , 
DataValue, -0.26, -2.0476E-07, 2.0476E-07, , 
DataValue, -0.27, -2.367E-07, 2.367E-07, , 
DataValue, -0.28, -2.4714E-07, 2.4714E-07, , 
DataValue, -0.29000000000000004, -2.598E-07, 2.598E-07, , 
DataValue, -0.3, -2.5758E-07, 2.5758E-07, , 
DataValue, -0.31, -2.9432E-07, 2.9432E-07, , 
DataValue, -0.32, -4.0838E-07, 4.0838E-07, , 
DataValue, -0.33, -4.2538E-07, 4.2538E-07, , 
DataValue, -0.34, -4.4552E-07, 4.4552E-07, , 
DataValue, -0.35000000000000003, -4.7842E-07, 4.7842E-07, , 
DataValue, -0.36000000000000004, -8.3822E-07, 8.3822E-07, , 
DataValue, -0.37, -5.1191999999999994E-07, 5.1191999999999994E-07, , 
DataValue, -0.38, -5.3438E-07, 5.3438E-07, , 
DataValue, -0.39, -3.8808E-07, 3.8808E-07, , 
DataValue, -0.4, -4.1042E-07, 4.1042E-07, , 
DataValue, -0.41000000000000003, -4.3422E-07, 4.3422E-07, , 
DataValue, -0.42000000000000004, -4.5266E-07, 4.5266E-07, , 
DataValue, -0.43, -5.0098E-07, 5.0098E-07, , 
DataValue, -0.44, -4.9534E-07, 4.9534E-07, , 
DataValue, -0.45, -5.0738E-07, 5.0738E-07, , 
DataValue, -0.46, -5.521E-07, 5.521E-07, , 
DataValue, -0.47000000000000003, -5.9361999999999994E-07, 5.9361999999999994E-07, , 
DataValue, -0.48000000000000004, -6.1033999999999994E-07, 6.1033999999999994E-07, , 
DataValue, -0.49000000000000005, -6.3266E-07, 6.3266E-07, , 
DataValue, -0.5, -6.6624E-07, 6.6624E-07, , 
DataValue, -0.51, -9.267E-07, 9.267E-07, , 
DataValue, -0.52, -9.639E-07, 9.639E-07, , 
DataValue, -0.53, -9.7704E-07, 9.7704E-07, , 
DataValue, -0.54, -1.02728E-06, 1.02728E-06, , 
DataValue, -0.55, -1.07152E-06, 1.07152E-06, , 
DataValue, -0.56, -1.10656E-06, 1.10656E-06, , 
DataValue, -0.57000000000000006, -1.1028E-06, 1.1028E-06, , 
DataValue, -0.58000000000000007, -1.1844E-06, 1.1844E-06, , 
DataValue, -0.59000000000000008, -1.1975000000000002E-06, 1.1975000000000002E-06, , 
DataValue, -0.6, -1.1285E-06, 1.1285E-06, , 
DataValue, -0.61, -1.1911000000000001E-06, 1.1911000000000001E-06, , 
DataValue, -0.62, -1.0252000000000002E-06, 1.0252000000000002E-06, , 
DataValue, -0.63, -1.0899000000000001E-06, 1.0899000000000001E-06, , 
DataValue, -0.64, -1.1126000000000002E-06, 1.1126000000000002E-06, , 
DataValue, -0.65, -1.1287E-06, 1.1287E-06, , 
DataValue, -0.66, -1.1673E-06, 1.1673E-06, , 
DataValue, -0.67, -1.2011E-06, 1.2011E-06, , 
DataValue, -0.68, -1.3416000000000002E-06, 1.3416000000000002E-06, , 
DataValue, -0.69000000000000006, -1.6612E-06, 1.6612E-06, , 
DataValue, -0.70000000000000007, -1.8302000000000003E-06, 1.8302000000000003E-06, , 
DataValue, -0.71000000000000008, -2.1049000000000004E-06, 2.1049000000000004E-06, , 
DataValue, -0.72000000000000008, -1.6266000000000002E-06, 1.6266000000000002E-06, , 
DataValue, -0.73, -1.5945000000000002E-06, 1.5945000000000002E-06, , 
DataValue, -0.74, -1.6319000000000002E-06, 1.6319000000000002E-06, , 
DataValue, -0.75, -1.1175E-06, 1.1175E-06, , 
DataValue, -0.76, -1.2541000000000002E-06, 1.2541000000000002E-06, , 
DataValue, -0.77, -1.2163000000000001E-06, 1.2163000000000001E-06, , 
DataValue, -0.78, -1.3875E-06, 1.3875E-06, , 
DataValue, -0.79, -1.2561000000000001E-06, 1.2561000000000001E-06, , 
DataValue, -0.8, -1.3774000000000001E-06, 1.3774000000000001E-06, , 
DataValue, -0.81, -1.7398000000000003E-06, 1.7398000000000003E-06, , 
DataValue, -0.82000000000000006, -1.6854000000000002E-06, 1.6854000000000002E-06, , 
DataValue, -0.83000000000000007, -1.6637000000000003E-06, 1.6637000000000003E-06, , 
DataValue, -0.84000000000000008, -1.9107E-06, 1.9107E-06, , 
DataValue, -0.85000000000000009, -2.1255000000000002E-06, 2.1255000000000002E-06, , 
DataValue, -0.86, -1.4562000000000001E-06, 1.4562000000000001E-06, , 
DataValue, -0.87, -1.3137000000000002E-06, 1.3137000000000002E-06, , 
DataValue, -0.88, -1.5327000000000002E-06, 1.5327000000000002E-06, , 
DataValue, -0.89, -1.4164000000000001E-06, 1.4164000000000001E-06, , 
DataValue, -0.9, -1.6621000000000002E-06, 1.6621000000000002E-06, , 
DataValue, -0.91, -1.495E-06, 1.495E-06, , 
DataValue, -0.92, -1.0116000000000002E-06, 1.0116000000000002E-06, , 
DataValue, -0.93, -2.0367000000000003E-06, 2.0367000000000003E-06, , 
DataValue, -0.94000000000000006, -1.8780000000000003E-06, 1.8780000000000003E-06, , 
DataValue, -0.95000000000000007, -1.9861000000000003E-06, 1.9861000000000003E-06, , 
DataValue, -0.96000000000000008, -1.8792000000000002E-06, 1.8792000000000002E-06, , 
DataValue, -0.97000000000000008, -1.9327E-06, 1.9327E-06, , 
DataValue, -0.98000000000000009, -1.6742000000000002E-06, 1.6742000000000002E-06, , 
DataValue, -0.9900000000000001, -1.76E-06, 1.76E-06, , 
DataValue, -1, -1.0672000000000001E-06, 1.0672000000000001E-06, , 
DataValue, -1.01, -1.0429E-06, 1.0429E-06, , 
DataValue, -1.02, -1.0155E-06, 1.0155E-06, , 
DataValue, -1.03, -1.0034E-06, 1.0034E-06, , 
DataValue, -1.04, -9.4301999999999993E-07, 9.4301999999999993E-07, , 
DataValue, -1.05, -1.04692E-06, 1.04692E-06, , 
DataValue, -1.06, -1.0421000000000002E-06, 1.0421000000000002E-06, , 
DataValue, -1.07, -1.0828E-06, 1.0828E-06, , 
DataValue, -1.08, -1.2265E-06, 1.2265E-06, , 
DataValue, -1.09, -1.2357E-06, 1.2357E-06, , 
DataValue, -1.1, -1.1459000000000001E-06, 1.1459000000000001E-06, , 
DataValue, -1.11, -9.8300000000000016E-07, 9.8300000000000016E-07, , 
DataValue, -1.12, -1.4903000000000002E-06, 1.4903000000000002E-06, , 
DataValue, -1.1300000000000001, -1.2099E-06, 1.2099E-06, , 
DataValue, -1.1400000000000001, -9.6454E-07, 9.6454E-07, , 
DataValue, -1.1500000000000001, -1.07598E-06, 1.07598E-06, , 
DataValue, -1.1600000000000001, -1.09582E-06, 1.09582E-06, , 
DataValue, -1.1700000000000002, -9.0118E-07, 9.0118E-07, , 
DataValue, -1.1800000000000002, -1.02652E-06, 1.02652E-06, , 
DataValue, -1.19, -1.4603000000000002E-06, 1.4603000000000002E-06, , 
DataValue, -1.2, -1.3674000000000002E-06, 1.3674000000000002E-06, , 
DataValue, -1.21, -1.289E-06, 1.289E-06, , 
DataValue, -1.22, -1.4234000000000002E-06, 1.4234000000000002E-06, , 
DataValue, -1.23, -1.0864E-06, 1.0864E-06, , 
DataValue, -1.24, -1.1569E-06, 1.1569E-06, , 
DataValue, -1.25, -8.9710000000000006E-07, 8.9710000000000006E-07, , 
DataValue, -1.26, -1.1777000000000002E-06, 1.1777000000000002E-06, , 
DataValue, -1.27, -1.2307000000000001E-06, 1.2307000000000001E-06, , 
DataValue, -1.28, -1.3404000000000001E-06, 1.3404000000000001E-06, , 
DataValue, -1.29, -1.1774000000000002E-06, 1.1774000000000002E-06, , 
DataValue, -1.3, -1.3073000000000002E-06, 1.3073000000000002E-06, , 
DataValue, -1.31, -1.0984000000000002E-06, 1.0984000000000002E-06, , 
DataValue, -1.32, -1.1720000000000002E-06, 1.1720000000000002E-06, , 
DataValue, -1.33, -1.3217000000000002E-06, 1.3217000000000002E-06, , 
DataValue, -1.34, -1.1240000000000002E-06, 1.1240000000000002E-06, , 
DataValue, -1.35, -1.2670000000000001E-06, 1.2670000000000001E-06, , 
DataValue, -1.36, -8.5440000000000013E-07, 8.5440000000000013E-07, , 
DataValue, -1.37, -7.602E-07, 7.602E-07, , 
DataValue, -1.3800000000000001, -8.653E-07, 8.653E-07, , 
DataValue, -1.3900000000000001, -6.465E-07, 6.465E-07, , 
DataValue, -1.4000000000000001, -5.7156E-07, 5.7156E-07, , 
DataValue, -1.4100000000000001, -5.4892E-07, 5.4892E-07, , 
DataValue, -1.4200000000000002, -4.1762E-07, 4.1762E-07, , 
DataValue, -1.4300000000000002, -4.3352E-07, 4.3352E-07, , 
DataValue, -1.4400000000000002, -6.4536E-07, 6.4536E-07, , 
DataValue, -1.4500000000000002, -4.124E-07, 4.124E-07, , 
DataValue, -1.46, -4.2134E-07, 4.2134E-07, , 
DataValue, -1.47, -4.3872E-07, 4.3872E-07, , 
DataValue, -1.48, -4.6926E-07, 4.6926E-07, , 
DataValue, -1.49, -4.7032E-07, 4.7032E-07, , 
DataValue, -1.5, -4.601E-07, 4.601E-07, , 
DataValue, -1.51, -9.5150000000000012E-07, 9.5150000000000012E-07, , 
DataValue, -1.52, -9.8542E-07, 9.8542E-07, , 
DataValue, -1.53, -1.01978E-06, 1.01978E-06, , 
DataValue, -1.54, -1.03774E-06, 1.03774E-06, , 
DataValue, -1.55, -1.03264E-06, 1.03264E-06, , 
DataValue, -1.56, -1.03026E-06, 1.03026E-06, , 
DataValue, -1.57, -1.3358000000000002E-06, 1.3358000000000002E-06, , 
DataValue, -1.58, -1.5037E-06, 1.5037E-06, , 
DataValue, -1.59, -2.9706E-07, 2.9706E-07, , 
DataValue, -1.6, -3.3888E-07, 3.3888E-07, , 
DataValue, -1.61, -3.3874E-07, 3.3874E-07, , 
DataValue, -1.62, -3.2862E-07, 3.2862E-07, , 
DataValue, -1.6300000000000001, -3.134E-07, 3.134E-07, , 
DataValue, -1.6400000000000001, -3.2256E-07, 3.2256E-07, , 
DataValue, -1.6500000000000001, -3.3432E-07, 3.3432E-07, , 
DataValue, -1.6600000000000001, -3.9578E-07, 3.9578E-07, , 
DataValue, -1.6700000000000002, -4.8798E-07, 4.8798E-07, , 
DataValue, -1.6800000000000002, -5.2046E-07, 5.2046E-07, , 
DataValue, -1.6900000000000002, -7.0344E-07, 7.0344E-07, , 
DataValue, -1.7000000000000002, -7.3405999999999994E-07, 7.3405999999999994E-07, , 
DataValue, -1.7100000000000002, -1.0236E-06, 1.0236E-06, , 
DataValue, -1.72, -1.4519000000000002E-06, 1.4519000000000002E-06, , 
DataValue, -1.73, -4.1442E-07, 4.1442E-07, , 
DataValue, -1.74, -4.4082E-07, 4.4082E-07, , 
DataValue, -1.75, -4.9613999999999994E-07, 4.9613999999999994E-07, , 
DataValue, -1.76, -2.5826E-07, 2.5826E-07, , 
DataValue, -1.77, -2.6314E-07, 2.6314E-07, , 
DataValue, -1.78, -2.6974E-07, 2.6974E-07, , 
DataValue, -1.79, -2.7406E-07, 2.7406E-07, , 
DataValue, -1.8, -2.7914E-07, 2.7914E-07, , 
DataValue, -1.81, -2.6954E-07, 2.6954E-07, , 
DataValue, -1.82, -2.869E-07, 2.869E-07, , 
DataValue, -1.83, -2.8102E-07, 2.8102E-07, , 
DataValue, -1.84, -2.8096E-07, 2.8096E-07, , 
DataValue, -1.85, -2.8065999999999997E-07, 2.8065999999999997E-07, , 
DataValue, -1.86, -2.8638E-07, 2.8638E-07, , 
DataValue, -1.87, -2.8182E-07, 2.8182E-07, , 
DataValue, -1.8800000000000001, -2.9818E-07, 2.9818E-07, , 
DataValue, -1.8900000000000001, -3.0496E-07, 3.0496E-07, , 
DataValue, -1.9000000000000001, -3.0536E-07, 3.0536E-07, , 
DataValue, -1.9100000000000001, -3.239E-07, 3.239E-07, , 
DataValue, -1.9200000000000002, -3.436E-07, 3.436E-07, , 
DataValue, -1.9300000000000002, -2.8028E-07, 2.8028E-07, , 
DataValue, -1.9400000000000002, -2.9806E-07, 2.9806E-07, , 
DataValue, -1.9500000000000002, -3E-07, 3E-07, , 
DataValue, -1.9600000000000002, -2.8356E-07, 2.8356E-07, , 
DataValue, -1.9700000000000002, -2.915E-07, 2.915E-07, , 
DataValue, -1.9800000000000002, -2.5968E-07, 2.5968E-07, , 
DataValue, -1.99, -2.9782E-07, 2.9782E-07, , 
DataValue, -2, -2.8429999999999997E-07, 2.8429999999999997E-07, , 
DataValue, -2, -4.373E-07, 4.373E-07, , 
DataValue, -1.99, -2.3804E-07, 2.3804E-07, , 
DataValue, -1.9800000000000002, -2.3468E-07, 2.3468E-07, , 
DataValue, -1.9700000000000002, -2.2178E-07, 2.2178E-07, , 
DataValue, -1.9600000000000002, -1.861E-07, 1.861E-07, , 
DataValue, -1.9500000000000002, -1.8414E-07, 1.8414E-07, , 
DataValue, -1.9400000000000002, -1.0839999999999999E-07, 1.0839999999999999E-07, , 
DataValue, -1.9300000000000002, -1.1354E-07, 1.1354E-07, , 
DataValue, -1.9200000000000002, -1.2004E-07, 1.2004E-07, , 
DataValue, -1.9100000000000001, -1.1532E-07, 1.1532E-07, , 
DataValue, -1.9000000000000001, -1.1252E-07, 1.1252E-07, , 
DataValue, -1.8900000000000001, -1.0954E-07, 1.0954E-07, , 
DataValue, -1.8800000000000001, -1.2268E-07, 1.2268E-07, , 
DataValue, -1.87, -1.0682E-07, 1.0682E-07, , 
DataValue, -1.86, -1.0713999999999999E-07, 1.0713999999999999E-07, , 
DataValue, -1.85, -1.0356E-07, 1.0356E-07, , 
DataValue, -1.84, -1.0486E-07, 1.0486E-07, , 
DataValue, -1.83, -9.998E-08, 9.998E-08, , 
DataValue, -1.82, -9.7993799999999986E-08, 9.7993799999999986E-08, , 
DataValue, -1.81, -9.6742399999999989E-08, 9.6742399999999989E-08, , 
DataValue, -1.8, -9.4177799999999987E-08, 9.4177799999999987E-08, , 
DataValue, -1.79, -9.1689E-08, 9.1689E-08, , 
DataValue, -1.78, -9.0487599999999988E-08, 9.0487599999999988E-08, , 
DataValue, -1.77, -8.855479999999999E-08, 8.855479999999999E-08, , 
DataValue, -1.76, -8.59742E-08, 8.59742E-08, , 
DataValue, -1.75, -8.6023199999999986E-08, 8.6023199999999986E-08, , 
