
SetupTitle, ExtFET - NEG RESET BE-2.0V
PrimitiveTest, I/V Sweep
TestParameter, Context.MainFrame, B1500A
TestParameter, Channel.UnitType, SMU, SMU, SMU
TestParameter, Channel.Unit, SMU2:HR, SMU4:HR, SMU3:HR
TestParameter, Channel.IName, I_TE, I_BE, I_G
TestParameter, Channel.VName, V_TE, V_BE, V_G
TestParameter, Channel.Mode, V, COMMON, V
TestParameter, Channel.Func, VAR1, CONST, CONST
TestParameter, Channel.Index, 
TestParameter, Channel.Time, 
TestParameter, Measurement.Port.Unit, SMU2:HR, SMU4:HR, SMU3:HR
TestParameter, Measurement.Port.SeriesResistor, NONE, NONE, NONE
TestParameter, Measurement.Port.Filter, ON, ON, ON
TestParameter, Measurement.Port.OutputVoltageComparison, 0, 0, 0
TestParameter, Measurement.Primary.Locus, Double
TestParameter, Measurement.Primary.Scale, LINEAR
TestParameter, Measurement.Primary.Start, 0
TestParameter, Measurement.Primary.Stop, -2
TestParameter, Measurement.Primary.Step, -0.01
TestParameter, Measurement.Primary.Compliance, 0.01
TestParameter, Measurement.Primary.PowerCompliance, 0
TestParameter, Measurement.Aborting.Condition, CONTINUE AT ANY
TestParameter, Measurement.PostOutput.Value, START
TestParameter, Measurement.PostOutput.Retention, OFF
TestParameter, Measurement.Bias.Source, 0, 0, 2
TestParameter, Measurement.Bias.Compliance, 0.01, 0.1, 0.0001
TestParameter, Measurement.Monitor.Unit, SMU2:HR, SMU4:HR, SMU3:HR
TestParameter, Measurement.Monitor.Adc, HR ADC, HR ADC, HR ADC
TestParameter, Measurement.Monitor.Measurement, Compliance Side, Compliance Side, Compliance Side
TestParameter, Measurement.Monitor.RangingMode, LIMITED, LIMITED, LIMITED
TestParameter, Measurement.Monitor.RangeBoundary, 1nA, 1nA, 1nA
TestParameter, Measurement.Monitor.RangeRating, BY FULL RANGE, BY FULL RANGE, BY FULL RANGE
TestParameter, Measurement.Monitor.RangeRatingCoeff, 50, 50, 50
TestParameter, Measurement.Timing.Hold, 0
TestParameter, Measurement.Timing.Delay, 0
TestParameter, Measurement.Adc.HighSpeed.Mode, AUTO
TestParameter, Measurement.Adc.HighSpeed.Coeff, 1
TestParameter, Measurement.Adc.HighResolution.AutoZero, OFF
TestParameter, Measurement.Adc.HighResolution.Mode, AUTO
TestParameter, Measurement.Adc.HighResolution.Coeff, 6
TestParameter, Measurement.WaitTime.Source.Coeff, 1
TestParameter, Measurement.WaitTime.Source.Offset, 0
TestParameter, Measurement.WaitTime.Monitor.Coeff, 1
TestParameter, Measurement.WaitTime.Monitor.Offset, 0
TestParameter, Function.User.Name, absITE
TestParameter, Function.User.Unit, A
TestParameter, Function.User.Definition, abs(I_TE)
TestParameter, Output.Graph.Enabled, true
TestParameter, Output.Graph.AutoScaling, false
TestParameter, Output.Graph.XAxis.Data, V_TE
TestParameter, Output.Graph.XAxis.Scale, Linear
TestParameter, Output.Graph.XAxis.Left, 0
TestParameter, Output.Graph.XAxis.Right, 10
TestParameter, Output.Graph.XAxis.RunTimeAutoScale, true
TestParameter, Output.Graph.YAxis.Data, absITE
TestParameter, Output.Graph.YAxis.Scale, Log
TestParameter, Output.Graph.YAxis.Bottom, 0
TestParameter, Output.Graph.YAxis.Top, 1
TestParameter, Output.Graph.YAxis.Group, 
TestParameter, Output.Graph.YAxis.RunTimeAutoScale, true
TestParameter, Output.List.Data, V1, I2abs
TestParameter, AutoAnalysis.Interpolation, false
TestParameter, AutoAnalysis.Var2StepCount, 1
TestParameter, AutoAnalysis.Var2StepScript, 
TestParameter, AutoAnalysis.Line1.Enabled, false
TestParameter, AutoAnalysis.Line1.Type, 1
TestParameter, AutoAnalysis.Line1.Fix, True
TestParameter, AutoAnalysis.Line1.YAxis, 0
TestParameter, AutoAnalysis.Line1.Point1.Type, 0
TestParameter, AutoAnalysis.Line1.Point1.XY.X, 
TestParameter, AutoAnalysis.Line1.Point1.XY.Y, 
TestParameter, AutoAnalysis.Line1.Point1.Data.Var, 
TestParameter, AutoAnalysis.Line1.Point1.Data.Condition, 
TestParameter, AutoAnalysis.Line1.Point1.Data.Start, false
TestParameter, AutoAnalysis.Line1.Point1.Data.StartVar, 
TestParameter, AutoAnalysis.Line1.Point1.Data.StartCondition, 
TestParameter, AutoAnalysis.Line1.Point2.Type, 0
TestParameter, AutoAnalysis.Line1.Point2.XY.X, 
TestParameter, AutoAnalysis.Line1.Point2.XY.Y, 
TestParameter, AutoAnalysis.Line1.Point2.Data.Var, 
TestParameter, AutoAnalysis.Line1.Point2.Data.Condition, 
TestParameter, AutoAnalysis.Line1.Point2.Data.Start, false
TestParameter, AutoAnalysis.Line1.Point2.Data.StartVar, 
TestParameter, AutoAnalysis.Line1.Point2.Data.StartCondition, 
TestParameter, AutoAnalysis.Line1.GradientExpr, 0
TestParameter, AutoAnalysis.Line2.Enabled, false
TestParameter, AutoAnalysis.Line2.Type, 1
TestParameter, AutoAnalysis.Line2.Fix, True
TestParameter, AutoAnalysis.Line2.YAxis, 0
TestParameter, AutoAnalysis.Line2.Point1.Type, 0
TestParameter, AutoAnalysis.Line2.Point1.XY.X, 
TestParameter, AutoAnalysis.Line2.Point1.XY.Y, 
TestParameter, AutoAnalysis.Line2.Point1.Data.Var, 
TestParameter, AutoAnalysis.Line2.Point1.Data.Condition, 
TestParameter, AutoAnalysis.Line2.Point1.Data.Start, false
TestParameter, AutoAnalysis.Line2.Point1.Data.StartVar, 
TestParameter, AutoAnalysis.Line2.Point1.Data.StartCondition, 
TestParameter, AutoAnalysis.Line2.Point2.Type, 0
TestParameter, AutoAnalysis.Line2.Point2.XY.X, 
TestParameter, AutoAnalysis.Line2.Point2.XY.Y, 
TestParameter, AutoAnalysis.Line2.Point2.Data.Var, 
TestParameter, AutoAnalysis.Line2.Point2.Data.Condition, 
TestParameter, AutoAnalysis.Line2.Point2.Data.Start, false
TestParameter, AutoAnalysis.Line2.Point2.Data.StartVar, 
TestParameter, AutoAnalysis.Line2.Point2.Data.StartCondition, 
TestParameter, AutoAnalysis.Line2.GradientExpr, 0
TestParameter, AutoAnalysis.Marker.Enabled, false
TestParameter, AutoAnalysis.Marker.Data.Var, 
TestParameter, AutoAnalysis.Marker.Data.Condition, 
TestParameter, AutoAnalysis.Marker.Data.Start, false
TestParameter, AutoAnalysis.Marker.Data.StartVar, 
TestParameter, AutoAnalysis.Marker.Data.StartCondition, 
MetaData, TestRecord.EntryPoint, true
MetaData, TestRecord.RecordTime, 04/14/2020 20:31:10
MetaData, TestRecord.TestTarget, InGaAs_1_W_BE_FijiHfO2_NW-G05
MetaData, TestRecord.IterationIndex, 86
MetaData, TestRecord.Preservation, true
MetaData, TestRecord.Flag, 
MetaData, TestRecord.Remarks, 
MetaData, TestRecord.LinkKey, 10684dde-1ed0-4d1d-8533-c16e09acdacf
MetaData, TestRecord.Parameters, 
Dimension1, 402, 402, 402, 402, 402
Dimension2, 1, 1, 1, 1, 1
DataName, V_TE, I_TE, absITE, V1, I2abs
DataValue, 0, 1.3431E-10, 1.3431E-10, , 
DataValue, -0.01, -2.2077199999999997E-08, 2.2077199999999997E-08, , 
DataValue, -0.02, -4.2877599999999993E-08, 4.2877599999999993E-08, , 
DataValue, -0.030000000000000002, -6.522E-08, 6.522E-08, , 
DataValue, -0.04, -8.812719999999999E-08, 8.812719999999999E-08, , 
DataValue, -0.05, -1.148E-07, 1.148E-07, , 
DataValue, -0.060000000000000005, -1.2538E-07, 1.2538E-07, , 
DataValue, -0.07, -1.5932E-07, 1.5932E-07, , 
DataValue, -0.08, -1.9882E-07, 1.9882E-07, , 
DataValue, -0.090000000000000011, -1.9366E-07, 1.9366E-07, , 
DataValue, -0.1, -2.0827999999999998E-07, 2.0827999999999998E-07, , 
DataValue, -0.11, -2.5262E-07, 2.5262E-07, , 
DataValue, -0.12000000000000001, -2.8324E-07, 2.8324E-07, , 
DataValue, -0.13, -3.1756E-07, 3.1756E-07, , 
DataValue, -0.14, -3.3858E-07, 3.3858E-07, , 
DataValue, -0.15, -3.82E-07, 3.82E-07, , 
DataValue, -0.16, -3.9526E-07, 3.9526E-07, , 
DataValue, -0.17, -4.6566E-07, 4.6566E-07, , 
DataValue, -0.18000000000000002, -5.0488E-07, 5.0488E-07, , 
DataValue, -0.19, -5.2316E-07, 5.2316E-07, , 
DataValue, -0.2, -5.5922E-07, 5.5922E-07, , 
DataValue, -0.21000000000000002, -5.8052E-07, 5.8052E-07, , 
DataValue, -0.22, -6.0888E-07, 6.0888E-07, , 
DataValue, -0.23, -6.3752E-07, 6.3752E-07, , 
DataValue, -0.24000000000000002, -7.0893999999999994E-07, 7.0893999999999994E-07, , 
DataValue, -0.25, -7.5188E-07, 7.5188E-07, , 
DataValue, -0.26, -7.6672E-07, 7.6672E-07, , 
DataValue, -0.27, -7.726E-07, 7.726E-07, , 
DataValue, -0.28, -8.4626E-07, 8.4626E-07, , 
DataValue, -0.29000000000000004, -9.1656E-07, 9.1656E-07, , 
DataValue, -0.3, -9.6144E-07, 9.6144E-07, , 
DataValue, -0.31, -9.704E-07, 9.704E-07, , 
DataValue, -0.32, -9.4176E-07, 9.4176E-07, , 
DataValue, -0.33, -1.06246E-06, 1.06246E-06, , 
DataValue, -0.34, -1.1781000000000002E-06, 1.1781000000000002E-06, , 
DataValue, -0.35000000000000003, -1.2089000000000002E-06, 1.2089000000000002E-06, , 
DataValue, -0.36000000000000004, -1.3232E-06, 1.3232E-06, , 
DataValue, -0.37, -1.3268000000000002E-06, 1.3268000000000002E-06, , 
DataValue, -0.38, -1.3253E-06, 1.3253E-06, , 
DataValue, -0.39, -1.3516000000000001E-06, 1.3516000000000001E-06, , 
DataValue, -0.4, -1.4814000000000001E-06, 1.4814000000000001E-06, , 
DataValue, -0.41000000000000003, -1.5021000000000002E-06, 1.5021000000000002E-06, , 
DataValue, -0.42000000000000004, -1.5914000000000001E-06, 1.5914000000000001E-06, , 
DataValue, -0.43, -1.7179E-06, 1.7179E-06, , 
DataValue, -0.44, -1.8649000000000001E-06, 1.8649000000000001E-06, , 
DataValue, -0.45, -1.8968000000000002E-06, 1.8968000000000002E-06, , 
DataValue, -0.46, -1.9004000000000003E-06, 1.9004000000000003E-06, , 
DataValue, -0.47000000000000003, -1.8549000000000002E-06, 1.8549000000000002E-06, , 
DataValue, -0.48000000000000004, -1.9612000000000004E-06, 1.9612000000000004E-06, , 
DataValue, -0.49000000000000005, -2.2911000000000004E-06, 2.2911000000000004E-06, , 
DataValue, -0.5, -2.5043000000000003E-06, 2.5043000000000003E-06, , 
DataValue, -0.51, -2.8559000000000005E-06, 2.8559000000000005E-06, , 
DataValue, -0.52, -2.9825000000000002E-06, 2.9825000000000002E-06, , 
DataValue, -0.53, -3.0378000000000004E-06, 3.0378000000000004E-06, , 
DataValue, -0.54, -3.0841000000000003E-06, 3.0841000000000003E-06, , 
DataValue, -0.55, -3.1944000000000003E-06, 3.1944000000000003E-06, , 
DataValue, -0.56, -3.5487000000000004E-06, 3.5487000000000004E-06, , 
DataValue, -0.57000000000000006, -3.4987000000000005E-06, 3.4987000000000005E-06, , 
DataValue, -0.58000000000000007, -3.7695000000000005E-06, 3.7695000000000005E-06, , 
DataValue, -0.59000000000000008, -4.0866000000000008E-06, 4.0866000000000008E-06, , 
DataValue, -0.6, -4.0961000000000005E-06, 4.0961000000000005E-06, , 
DataValue, -0.61, -3.8664000000000008E-06, 3.8664000000000008E-06, , 
DataValue, -0.62, -3.8894E-06, 3.8894E-06, , 
DataValue, -0.63, -3.2894000000000002E-06, 3.2894000000000002E-06, , 
DataValue, -0.64, -3.6951000000000004E-06, 3.6951000000000004E-06, , 
DataValue, -0.65, -3.7284E-06, 3.7284E-06, , 
DataValue, -0.66, -3.9519E-06, 3.9519E-06, , 
DataValue, -0.67, -3.9359000000000007E-06, 3.9359000000000007E-06, , 
DataValue, -0.68, -6.746E-06, 6.746E-06, , 
DataValue, -0.69000000000000006, -6.4963000000000008E-06, 6.4963000000000008E-06, , 
DataValue, -0.70000000000000007, -6.4996E-06, 6.4996E-06, , 
DataValue, -0.71000000000000008, -5.2626E-06, 5.2626E-06, , 
DataValue, -0.72000000000000008, -6.0886000000000005E-06, 6.0886000000000005E-06, , 
DataValue, -0.73, -7.7584E-06, 7.7584E-06, , 
DataValue, -0.74, -7.7580000000000009E-06, 7.7580000000000009E-06, , 
DataValue, -0.75, -7.8424000000000014E-06, 7.8424000000000014E-06, , 
DataValue, -0.76, -3.8622E-06, 3.8622E-06, , 
DataValue, -0.77, -4.349E-06, 4.349E-06, , 
DataValue, -0.78, -6.6500000000000007E-06, 6.6500000000000007E-06, , 
DataValue, -0.79, -4.9234E-06, 4.9234E-06, , 
DataValue, -0.8, -3.4049000000000002E-06, 3.4049000000000002E-06, , 
DataValue, -0.81, -2.0977000000000003E-06, 2.0977000000000003E-06, , 
DataValue, -0.82000000000000006, -1.7186000000000002E-06, 1.7186000000000002E-06, , 
DataValue, -0.83000000000000007, -2.7959E-06, 2.7959E-06, , 
DataValue, -0.84000000000000008, -2.3369000000000004E-06, 2.3369000000000004E-06, , 
DataValue, -0.85000000000000009, -8.5510000000000008E-07, 8.5510000000000008E-07, , 
DataValue, -0.86, -1.0254000000000002E-06, 1.0254000000000002E-06, , 
DataValue, -0.87, -7.4899999999999994E-07, 7.4899999999999994E-07, , 
DataValue, -0.88, -7.9906E-07, 7.9906E-07, , 
DataValue, -0.89, -8.2738E-07, 8.2738E-07, , 
DataValue, -0.9, -8.7121999999999994E-07, 8.7121999999999994E-07, , 
DataValue, -0.91, -1.01322E-06, 1.01322E-06, , 
DataValue, -0.92, -1.07784E-06, 1.07784E-06, , 
DataValue, -0.93, -1.00706E-06, 1.00706E-06, , 
DataValue, -0.94000000000000006, -2.1180000000000003E-06, 2.1180000000000003E-06, , 
DataValue, -0.95000000000000007, -1.7454000000000003E-06, 1.7454000000000003E-06, , 
DataValue, -0.96000000000000008, -3.0674E-07, 3.0674E-07, , 
DataValue, -0.97000000000000008, -3.1468E-07, 3.1468E-07, , 
DataValue, -0.98000000000000009, -3.0436E-07, 3.0436E-07, , 
DataValue, -0.9900000000000001, -3.1078E-07, 3.1078E-07, , 
DataValue, -1, -3.1392E-07, 3.1392E-07, , 
DataValue, -1.01, -3.6594E-07, 3.6594E-07, , 
DataValue, -1.02, -3.6954E-07, 3.6954E-07, , 
DataValue, -1.03, -3.8317999999999997E-07, 3.8317999999999997E-07, , 
DataValue, -1.04, -3.982E-07, 3.982E-07, , 
DataValue, -1.05, -3.7962E-07, 3.7962E-07, , 
DataValue, -1.06, -3.891E-07, 3.891E-07, , 
DataValue, -1.07, -3.712E-07, 3.712E-07, , 
DataValue, -1.08, -4.0451999999999997E-07, 4.0451999999999997E-07, , 
DataValue, -1.09, -4.3788E-07, 4.3788E-07, , 
DataValue, -1.1, -3.9764E-07, 3.9764E-07, , 
DataValue, -1.11, -4.1394E-07, 4.1394E-07, , 
DataValue, -1.12, -5.1848E-07, 5.1848E-07, , 
DataValue, -1.1300000000000001, -4.9501999999999994E-07, 4.9501999999999994E-07, , 
DataValue, -1.1400000000000001, -4.7948E-07, 4.7948E-07, , 
DataValue, -1.1500000000000001, -5.4534E-07, 5.4534E-07, , 
DataValue, -1.1600000000000001, -4.9410000000000006E-07, 4.9410000000000006E-07, , 
DataValue, -1.1700000000000002, -5.5396E-07, 5.5396E-07, , 
DataValue, -1.1800000000000002, -6.9164E-07, 6.9164E-07, , 
DataValue, -1.19, -5.7554E-07, 5.7554E-07, , 
DataValue, -1.2, -2.7590000000000003E-07, 2.7590000000000003E-07, , 
DataValue, -1.21, -5.03E-07, 5.03E-07, , 
DataValue, -1.22, -5.0198E-07, 5.0198E-07, , 
DataValue, -1.23, -5.3955999999999994E-07, 5.3955999999999994E-07, , 
DataValue, -1.24, -5.2212E-07, 5.2212E-07, , 
DataValue, -1.25, -5.5768E-07, 5.5768E-07, , 
DataValue, -1.26, -5.9184E-07, 5.9184E-07, , 
DataValue, -1.27, -5.7528E-07, 5.7528E-07, , 
DataValue, -1.28, -5.7737999999999995E-07, 5.7737999999999995E-07, , 
DataValue, -1.29, -5.7302E-07, 5.7302E-07, , 
DataValue, -1.3, -3.7532E-07, 3.7532E-07, , 
DataValue, -1.31, -5.1714E-07, 5.1714E-07, , 
DataValue, -1.32, -5.4062E-07, 5.4062E-07, , 
DataValue, -1.33, -7.3852E-07, 7.3852E-07, , 
DataValue, -1.34, -4.8406E-07, 4.8406E-07, , 
DataValue, -1.35, -7.3304E-07, 7.3304E-07, , 
DataValue, -1.36, -6.605E-07, 6.605E-07, , 
DataValue, -1.37, -6.4062E-07, 6.4062E-07, , 
DataValue, -1.3800000000000001, -7.4898E-07, 7.4898E-07, , 
DataValue, -1.3900000000000001, -6.2534E-07, 6.2534E-07, , 
DataValue, -1.4000000000000001, -6.821E-07, 6.821E-07, , 
DataValue, -1.4100000000000001, -5.9822E-07, 5.9822E-07, , 
DataValue, -1.4200000000000002, -7.1338E-07, 7.1338E-07, , 
DataValue, -1.4300000000000002, -7.3868E-07, 7.3868E-07, , 
DataValue, -1.4400000000000002, -7.6551999999999994E-07, 7.6551999999999994E-07, , 
DataValue, -1.4500000000000002, -7.548E-07, 7.548E-07, , 
DataValue, -1.46, -7.9464E-07, 7.9464E-07, , 
DataValue, -1.47, -8.3846E-07, 8.3846E-07, , 
DataValue, -1.48, -8.9392E-07, 8.9392E-07, , 
DataValue, -1.49, -8.0249999999999994E-07, 8.0249999999999994E-07, , 
DataValue, -1.5, -8.6444E-07, 8.6444E-07, , 
DataValue, -1.51, -8.5812E-07, 8.5812E-07, , 
DataValue, -1.52, -9.7252E-07, 9.7252E-07, , 
DataValue, -1.53, -9.282E-07, 9.282E-07, , 
DataValue, -1.54, -7.6602E-07, 7.6602E-07, , 
DataValue, -1.55, -1.4049E-06, 1.4049E-06, , 
DataValue, -1.56, -2.2854E-06, 2.2854E-06, , 
DataValue, -1.57, -1.9748E-06, 1.9748E-06, , 
DataValue, -1.58, -1.8308000000000001E-06, 1.8308000000000001E-06, , 
DataValue, -1.59, -9.067E-07, 9.067E-07, , 
DataValue, -1.6, -7.459E-07, 7.459E-07, , 
DataValue, -1.61, -1.6143000000000002E-06, 1.6143000000000002E-06, , 
DataValue, -1.62, -1.6357E-06, 1.6357E-06, , 
DataValue, -1.6300000000000001, -2.1281E-06, 2.1281E-06, , 
DataValue, -1.6400000000000001, -2.1671000000000004E-06, 2.1671000000000004E-06, , 
DataValue, -1.6500000000000001, -3.6375999999999997E-07, 3.6375999999999997E-07, , 
DataValue, -1.6600000000000001, -3.6038E-07, 3.6038E-07, , 
DataValue, -1.6700000000000002, -3.5978E-07, 3.5978E-07, , 
DataValue, -1.6800000000000002, -5.5124E-07, 5.5124E-07, , 
DataValue, -1.6900000000000002, -4.064E-07, 4.064E-07, , 
DataValue, -1.7000000000000002, -4.8455999999999994E-07, 4.8455999999999994E-07, , 
DataValue, -1.7100000000000002, -3.1946E-07, 3.1946E-07, , 
DataValue, -1.72, -1.5374E-07, 1.5374E-07, , 
DataValue, -1.73, -5.362E-08, 5.362E-08, , 
DataValue, -1.74, -1.1604E-07, 1.1604E-07, , 
DataValue, -1.75, -1.1978E-07, 1.1978E-07, , 
DataValue, -1.76, -1.2084E-07, 1.2084E-07, , 
DataValue, -1.77, -1.4966E-07, 1.4966E-07, , 
DataValue, -1.78, -1.4452E-07, 1.4452E-07, , 
DataValue, -1.79, -1.72656E-08, 1.72656E-08, , 
DataValue, -1.8, -1.6955599999999998E-08, 1.6955599999999998E-08, , 
DataValue, -1.81, -1.6929399999999997E-08, 1.6929399999999997E-08, , 
DataValue, -1.82, -1.8026399999999997E-08, 1.8026399999999997E-08, , 
DataValue, -1.83, -1.85304E-08, 1.85304E-08, , 
DataValue, -1.84, -1.8749599999999997E-08, 1.8749599999999997E-08, , 
DataValue, -1.85, -1.9243999999999997E-08, 1.9243999999999997E-08, , 
DataValue, -1.86, -1.9365E-08, 1.9365E-08, , 
DataValue, -1.87, -1.9711999999999998E-08, 1.9711999999999998E-08, , 
DataValue, -1.8800000000000001, -1.98948E-08, 1.98948E-08, , 
DataValue, -1.8900000000000001, -2.03988E-08, 2.03988E-08, , 
DataValue, -1.9000000000000001, -2.0580399999999998E-08, 2.0580399999999998E-08, , 
DataValue, -1.9100000000000001, -2.0836E-08, 2.0836E-08, , 
DataValue, -1.9200000000000002, -2.1374799999999997E-08, 2.1374799999999997E-08, , 
DataValue, -1.9300000000000002, -2.1996599999999997E-08, 2.1996599999999997E-08, , 
DataValue, -1.9400000000000002, -2.2397599999999998E-08, 2.2397599999999998E-08, , 
DataValue, -1.9500000000000002, -2.2583399999999996E-08, 2.2583399999999996E-08, , 
DataValue, -1.9600000000000002, -1.87576E-08, 1.87576E-08, , 
DataValue, -1.9700000000000002, -1.40502E-08, 1.40502E-08, , 
DataValue, -1.9800000000000002, -1.03454E-08, 1.03454E-08, , 
DataValue, -1.99, -4.7273999999999992E-09, 4.7273999999999992E-09, , 
DataValue, -2, -4.6544E-09, 4.6544E-09, , 
DataValue, -2, -4.8402E-09, 4.8402E-09, , 
DataValue, -1.99, -7.5895E-09, 7.5895E-09, , 
DataValue, -1.9800000000000002, -7.9388E-09, 7.9388E-09, , 
DataValue, -1.9700000000000002, -8.0387E-09, 8.0387E-09, , 
DataValue, -1.9600000000000002, -7.7321E-09, 7.7321E-09, , 
DataValue, -1.9500000000000002, -6.5196E-09, 6.5196E-09, , 
DataValue, -1.9400000000000002, -7.2937E-09, 7.2937E-09, , 
DataValue, -1.9300000000000002, -6.8588E-09, 6.8588E-09, , 
DataValue, -1.9200000000000002, -6.6431E-09, 6.6431E-09, , 
DataValue, -1.9100000000000001, -6.8168E-09, 6.8168E-09, , 
DataValue, -1.9000000000000001, -5.5885E-09, 5.5885E-09, , 
DataValue, -1.8900000000000001, -4.4934E-09, 4.4934E-09, , 
DataValue, -1.8800000000000001, -4.3023E-09, 4.3023E-09, , 
DataValue, -1.87, -3.5095E-09, 3.5095E-09, , 
DataValue, -1.86, -3.5434E-09, 3.5434E-09, , 
DataValue, -1.85, -3.0555E-09, 3.0555E-09, , 
DataValue, -1.84, -2.9689E-09, 2.9689E-09, , 
DataValue, -1.83, -3.051E-09, 3.051E-09, , 
DataValue, -1.82, -2.8315E-09, 2.8315E-09, , 
DataValue, -1.81, -2.6369E-09, 2.6369E-09, , 
DataValue, -1.8, -2.8629E-09, 2.8629E-09, , 
DataValue, -1.79, -2.774E-09, 2.774E-09, , 
DataValue, -1.78, -2.9126E-09, 2.9126E-09, , 
DataValue, -1.77, -3.1203E-09, 3.1203E-09, , 
DataValue, -1.76, -3.0302E-09, 3.0302E-09, , 
DataValue, -1.75, -2.7007E-09, 2.7007E-09, , 
DataValue, -1.74, -2.5582E-09, 2.5582E-09, , 
