
SetupTitle, ExtFET - NEG RESET BE-2.0V
PrimitiveTest, I/V Sweep
TestParameter, Context.MainFrame, B1500A
TestParameter, Channel.UnitType, SMU, SMU, SMU
TestParameter, Channel.Unit, SMU2:HR, SMU4:HR, SMU3:HR
TestParameter, Channel.IName, I_TE, I_BE, I_G
TestParameter, Channel.VName, V_TE, V_BE, V_G
TestParameter, Channel.Mode, V, COMMON, V
TestParameter, Channel.Func, VAR1, CONST, CONST
TestParameter, Channel.Index, 
TestParameter, Channel.Time, 
TestParameter, Measurement.Port.Unit, SMU2:HR, SMU4:HR, SMU3:HR
TestParameter, Measurement.Port.SeriesResistor, NONE, NONE, NONE
TestParameter, Measurement.Port.Filter, ON, ON, ON
TestParameter, Measurement.Port.OutputVoltageComparison, 0, 0, 0
TestParameter, Measurement.Primary.Locus, Double
TestParameter, Measurement.Primary.Scale, LINEAR
TestParameter, Measurement.Primary.Start, 0
TestParameter, Measurement.Primary.Stop, -2
TestParameter, Measurement.Primary.Step, -0.01
TestParameter, Measurement.Primary.Compliance, 0.01
TestParameter, Measurement.Primary.PowerCompliance, 0
TestParameter, Measurement.Aborting.Condition, CONTINUE AT ANY
TestParameter, Measurement.PostOutput.Value, START
TestParameter, Measurement.PostOutput.Retention, OFF
TestParameter, Measurement.Bias.Source, 0, 0, 2
TestParameter, Measurement.Bias.Compliance, 0.01, 0.1, 0.0001
TestParameter, Measurement.Monitor.Unit, SMU2:HR, SMU4:HR, SMU3:HR
TestParameter, Measurement.Monitor.Adc, HR ADC, HR ADC, HR ADC
TestParameter, Measurement.Monitor.Measurement, Compliance Side, Compliance Side, Compliance Side
TestParameter, Measurement.Monitor.RangingMode, LIMITED, LIMITED, LIMITED
TestParameter, Measurement.Monitor.RangeBoundary, 1nA, 1nA, 1nA
TestParameter, Measurement.Monitor.RangeRating, BY FULL RANGE, BY FULL RANGE, BY FULL RANGE
TestParameter, Measurement.Monitor.RangeRatingCoeff, 50, 50, 50
TestParameter, Measurement.Timing.Hold, 0
TestParameter, Measurement.Timing.Delay, 0
TestParameter, Measurement.Adc.HighSpeed.Mode, AUTO
TestParameter, Measurement.Adc.HighSpeed.Coeff, 1
TestParameter, Measurement.Adc.HighResolution.AutoZero, OFF
TestParameter, Measurement.Adc.HighResolution.Mode, AUTO
TestParameter, Measurement.Adc.HighResolution.Coeff, 6
TestParameter, Measurement.WaitTime.Source.Coeff, 1
TestParameter, Measurement.WaitTime.Source.Offset, 0
TestParameter, Measurement.WaitTime.Monitor.Coeff, 1
TestParameter, Measurement.WaitTime.Monitor.Offset, 0
TestParameter, Function.User.Name, absITE
TestParameter, Function.User.Unit, A
TestParameter, Function.User.Definition, abs(I_TE)
TestParameter, Output.Graph.Enabled, true
TestParameter, Output.Graph.AutoScaling, false
TestParameter, Output.Graph.XAxis.Data, V_TE
TestParameter, Output.Graph.XAxis.Scale, Linear
TestParameter, Output.Graph.XAxis.Left, 0
TestParameter, Output.Graph.XAxis.Right, 10
TestParameter, Output.Graph.XAxis.RunTimeAutoScale, true
TestParameter, Output.Graph.YAxis.Data, absITE
TestParameter, Output.Graph.YAxis.Scale, Log
TestParameter, Output.Graph.YAxis.Bottom, 0
TestParameter, Output.Graph.YAxis.Top, 1
TestParameter, Output.Graph.YAxis.Group, 
TestParameter, Output.Graph.YAxis.RunTimeAutoScale, true
TestParameter, Output.List.Data, V1, I2abs
TestParameter, AutoAnalysis.Interpolation, false
TestParameter, AutoAnalysis.Var2StepCount, 1
TestParameter, AutoAnalysis.Var2StepScript, 
TestParameter, AutoAnalysis.Line1.Enabled, false
TestParameter, AutoAnalysis.Line1.Type, 1
TestParameter, AutoAnalysis.Line1.Fix, True
TestParameter, AutoAnalysis.Line1.YAxis, 0
TestParameter, AutoAnalysis.Line1.Point1.Type, 0
TestParameter, AutoAnalysis.Line1.Point1.XY.X, 
TestParameter, AutoAnalysis.Line1.Point1.XY.Y, 
TestParameter, AutoAnalysis.Line1.Point1.Data.Var, 
TestParameter, AutoAnalysis.Line1.Point1.Data.Condition, 
TestParameter, AutoAnalysis.Line1.Point1.Data.Start, false
TestParameter, AutoAnalysis.Line1.Point1.Data.StartVar, 
TestParameter, AutoAnalysis.Line1.Point1.Data.StartCondition, 
TestParameter, AutoAnalysis.Line1.Point2.Type, 0
TestParameter, AutoAnalysis.Line1.Point2.XY.X, 
TestParameter, AutoAnalysis.Line1.Point2.XY.Y, 
TestParameter, AutoAnalysis.Line1.Point2.Data.Var, 
TestParameter, AutoAnalysis.Line1.Point2.Data.Condition, 
TestParameter, AutoAnalysis.Line1.Point2.Data.Start, false
TestParameter, AutoAnalysis.Line1.Point2.Data.StartVar, 
TestParameter, AutoAnalysis.Line1.Point2.Data.StartCondition, 
TestParameter, AutoAnalysis.Line1.GradientExpr, 0
TestParameter, AutoAnalysis.Line2.Enabled, false
TestParameter, AutoAnalysis.Line2.Type, 1
TestParameter, AutoAnalysis.Line2.Fix, True
TestParameter, AutoAnalysis.Line2.YAxis, 0
TestParameter, AutoAnalysis.Line2.Point1.Type, 0
TestParameter, AutoAnalysis.Line2.Point1.XY.X, 
TestParameter, AutoAnalysis.Line2.Point1.XY.Y, 
TestParameter, AutoAnalysis.Line2.Point1.Data.Var, 
TestParameter, AutoAnalysis.Line2.Point1.Data.Condition, 
TestParameter, AutoAnalysis.Line2.Point1.Data.Start, false
TestParameter, AutoAnalysis.Line2.Point1.Data.StartVar, 
TestParameter, AutoAnalysis.Line2.Point1.Data.StartCondition, 
TestParameter, AutoAnalysis.Line2.Point2.Type, 0
TestParameter, AutoAnalysis.Line2.Point2.XY.X, 
TestParameter, AutoAnalysis.Line2.Point2.XY.Y, 
TestParameter, AutoAnalysis.Line2.Point2.Data.Var, 
TestParameter, AutoAnalysis.Line2.Point2.Data.Condition, 
TestParameter, AutoAnalysis.Line2.Point2.Data.Start, false
TestParameter, AutoAnalysis.Line2.Point2.Data.StartVar, 
TestParameter, AutoAnalysis.Line2.Point2.Data.StartCondition, 
TestParameter, AutoAnalysis.Line2.GradientExpr, 0
TestParameter, AutoAnalysis.Marker.Enabled, false
TestParameter, AutoAnalysis.Marker.Data.Var, 
TestParameter, AutoAnalysis.Marker.Data.Condition, 
TestParameter, AutoAnalysis.Marker.Data.Start, false
TestParameter, AutoAnalysis.Marker.Data.StartVar, 
TestParameter, AutoAnalysis.Marker.Data.StartCondition, 
MetaData, TestRecord.EntryPoint, true
MetaData, TestRecord.RecordTime, 04/14/2020 20:31:29
MetaData, TestRecord.TestTarget, InGaAs_1_W_BE_FijiHfO2_NW-G05
MetaData, TestRecord.IterationIndex, 87
MetaData, TestRecord.Preservation, true
MetaData, TestRecord.Flag, 
MetaData, TestRecord.Remarks, 
MetaData, TestRecord.LinkKey, 2de8e79f-941b-4ff4-b00c-8ea83bf45171
MetaData, TestRecord.Parameters, 
Dimension1, 402, 402, 402, 402, 402
Dimension2, 1, 1, 1, 1, 1
DataName, V_TE, I_TE, absITE, V1, I2abs
DataValue, 0, 1.2837000000000002E-10, 1.2837000000000002E-10, , 
DataValue, -0.01, -1.7102199999999997E-08, 1.7102199999999997E-08, , 
DataValue, -0.02, -3.40088E-08, 3.40088E-08, , 
DataValue, -0.030000000000000002, -5.0239399999999993E-08, 5.0239399999999993E-08, , 
DataValue, -0.04, -6.5810199999999989E-08, 6.5810199999999989E-08, , 
DataValue, -0.05, -8.45658E-08, 8.45658E-08, , 
DataValue, -0.060000000000000005, -1.0005379999999999E-07, 1.0005379999999999E-07, , 
DataValue, -0.07, -1.1664E-07, 1.1664E-07, , 
DataValue, -0.08, -1.3752E-07, 1.3752E-07, , 
DataValue, -0.090000000000000011, -1.533E-07, 1.533E-07, , 
DataValue, -0.1, -1.7904E-07, 1.7904E-07, , 
DataValue, -0.11, -2.0148E-07, 2.0148E-07, , 
DataValue, -0.12000000000000001, -2.2166E-07, 2.2166E-07, , 
DataValue, -0.13, -2.418E-07, 2.418E-07, , 
DataValue, -0.14, -2.4768E-07, 2.4768E-07, , 
DataValue, -0.15, -2.793E-07, 2.793E-07, , 
DataValue, -0.16, -3.0147999999999997E-07, 3.0147999999999997E-07, , 
DataValue, -0.17, -3.2366E-07, 3.2366E-07, , 
DataValue, -0.18000000000000002, -3.4666E-07, 3.4666E-07, , 
DataValue, -0.19, -3.6462E-07, 3.6462E-07, , 
DataValue, -0.2, -3.8834E-07, 3.8834E-07, , 
DataValue, -0.21000000000000002, -4.1538E-07, 4.1538E-07, , 
DataValue, -0.22, -4.4454E-07, 4.4454E-07, , 
DataValue, -0.23, -4.659E-07, 4.659E-07, , 
DataValue, -0.24000000000000002, -4.8782E-07, 4.8782E-07, , 
DataValue, -0.25, -5.1128E-07, 5.1128E-07, , 
DataValue, -0.26, -5.4132E-07, 5.4132E-07, , 
DataValue, -0.27, -5.7597999999999995E-07, 5.7597999999999995E-07, , 
DataValue, -0.28, -6.0392E-07, 6.0392E-07, , 
DataValue, -0.29000000000000004, -6.2636E-07, 6.2636E-07, , 
DataValue, -0.3, -6.698E-07, 6.698E-07, , 
DataValue, -0.31, -6.7768E-07, 6.7768E-07, , 
DataValue, -0.32, -7.069E-07, 7.069E-07, , 
DataValue, -0.33, -7.268E-07, 7.268E-07, , 
DataValue, -0.34, -7.6788E-07, 7.6788E-07, , 
DataValue, -0.35000000000000003, -8.3858E-07, 8.3858E-07, , 
DataValue, -0.36000000000000004, -8.6296E-07, 8.6296E-07, , 
DataValue, -0.37, -9.3634E-07, 9.3634E-07, , 
DataValue, -0.38, -9.4161999999999993E-07, 9.4161999999999993E-07, , 
DataValue, -0.39, -1.03642E-06, 1.03642E-06, , 
DataValue, -0.4, -1.0475599999999999E-06, 1.0475599999999999E-06, , 
DataValue, -0.41000000000000003, -1.1418E-06, 1.1418E-06, , 
DataValue, -0.42000000000000004, -1.2823000000000002E-06, 1.2823000000000002E-06, , 
DataValue, -0.43, -1.2579E-06, 1.2579E-06, , 
DataValue, -0.44, -1.3038000000000001E-06, 1.3038000000000001E-06, , 
DataValue, -0.45, -1.3648E-06, 1.3648E-06, , 
DataValue, -0.46, -1.4490000000000002E-06, 1.4490000000000002E-06, , 
DataValue, -0.47000000000000003, -1.5102000000000002E-06, 1.5102000000000002E-06, , 
DataValue, -0.48000000000000004, -1.5016000000000002E-06, 1.5016000000000002E-06, , 
DataValue, -0.49000000000000005, -1.6029000000000002E-06, 1.6029000000000002E-06, , 
DataValue, -0.5, -1.6457000000000002E-06, 1.6457000000000002E-06, , 
DataValue, -0.51, -1.7093E-06, 1.7093E-06, , 
DataValue, -0.52, -1.8361E-06, 1.8361E-06, , 
DataValue, -0.53, -1.7942000000000001E-06, 1.7942000000000001E-06, , 
DataValue, -0.54, -1.9610000000000004E-06, 1.9610000000000004E-06, , 
DataValue, -0.55, -2.0437E-06, 2.0437E-06, , 
DataValue, -0.56, -2.2127000000000004E-06, 2.2127000000000004E-06, , 
DataValue, -0.57000000000000006, -2.1574000000000003E-06, 2.1574000000000003E-06, , 
DataValue, -0.58000000000000007, -2.2265E-06, 2.2265E-06, , 
DataValue, -0.59000000000000008, -2.5609000000000003E-06, 2.5609000000000003E-06, , 
DataValue, -0.6, -2.5527E-06, 2.5527E-06, , 
DataValue, -0.61, -2.7647000000000004E-06, 2.7647000000000004E-06, , 
DataValue, -0.62, -2.8322E-06, 2.8322E-06, , 
DataValue, -0.63, -2.8803E-06, 2.8803E-06, , 
DataValue, -0.64, -2.9205000000000002E-06, 2.9205000000000002E-06, , 
DataValue, -0.65, -3.1228000000000004E-06, 3.1228000000000004E-06, , 
DataValue, -0.66, -3.3755000000000005E-06, 3.3755000000000005E-06, , 
DataValue, -0.67, -2.8545000000000004E-06, 2.8545000000000004E-06, , 
DataValue, -0.68, -2.6313E-06, 2.6313E-06, , 
DataValue, -0.69000000000000006, -2.8956000000000003E-06, 2.8956000000000003E-06, , 
DataValue, -0.70000000000000007, -3.1377000000000005E-06, 3.1377000000000005E-06, , 
DataValue, -0.71000000000000008, -3.0887E-06, 3.0887E-06, , 
DataValue, -0.72000000000000008, -3.5923000000000003E-06, 3.5923000000000003E-06, , 
DataValue, -0.73, -3.5663000000000005E-06, 3.5663000000000005E-06, , 
DataValue, -0.74, -3.5548000000000003E-06, 3.5548000000000003E-06, , 
DataValue, -0.75, -3.5881000000000004E-06, 3.5881000000000004E-06, , 
DataValue, -0.76, -3.8988000000000007E-06, 3.8988000000000007E-06, , 
DataValue, -0.77, -4.3521E-06, 4.3521E-06, , 
DataValue, -0.78, -4.5318E-06, 4.5318E-06, , 
DataValue, -0.79, -4.709E-06, 4.709E-06, , 
DataValue, -0.8, -5.0944000000000007E-06, 5.0944000000000007E-06, , 
DataValue, -0.81, -2.7786000000000004E-06, 2.7786000000000004E-06, , 
DataValue, -0.82000000000000006, -3.1766000000000002E-06, 3.1766000000000002E-06, , 
DataValue, -0.83000000000000007, -3.3331000000000003E-06, 3.3331000000000003E-06, , 
DataValue, -0.84000000000000008, -3.695E-06, 3.695E-06, , 
DataValue, -0.85000000000000009, -3.8819E-06, 3.8819E-06, , 
DataValue, -0.86, -4.2996E-06, 4.2996E-06, , 
DataValue, -0.87, -3.2966000000000003E-06, 3.2966000000000003E-06, , 
DataValue, -0.88, -1.5222000000000002E-06, 1.5222000000000002E-06, , 
DataValue, -0.89, -2.8794000000000003E-06, 2.8794000000000003E-06, , 
DataValue, -0.9, -3.5176000000000004E-06, 3.5176000000000004E-06, , 
DataValue, -0.91, -1.9012000000000001E-06, 1.9012000000000001E-06, , 
DataValue, -0.92, -2.014E-06, 2.014E-06, , 
DataValue, -0.93, -1.9082000000000002E-06, 1.9082000000000002E-06, , 
DataValue, -0.94000000000000006, -1.7879000000000003E-06, 1.7879000000000003E-06, , 
DataValue, -0.95000000000000007, -2.1291E-06, 2.1291E-06, , 
DataValue, -0.96000000000000008, -1.9915000000000003E-06, 1.9915000000000003E-06, , 
DataValue, -0.97000000000000008, -2.025E-06, 2.025E-06, , 
DataValue, -0.98000000000000009, -2.014E-06, 2.014E-06, , 
DataValue, -0.9900000000000001, -2.0989000000000004E-06, 2.0989000000000004E-06, , 
DataValue, -1, -2.0971000000000002E-06, 2.0971000000000002E-06, , 
DataValue, -1.01, -2.4478E-06, 2.4478E-06, , 
DataValue, -1.02, -2.2844E-06, 2.2844E-06, , 
DataValue, -1.03, -2.4461E-06, 2.4461E-06, , 
DataValue, -1.04, -2.3474E-06, 2.3474E-06, , 
DataValue, -1.05, -2.5113000000000004E-06, 2.5113000000000004E-06, , 
DataValue, -1.06, -2.7370000000000002E-06, 2.7370000000000002E-06, , 
DataValue, -1.07, -2.6848E-06, 2.6848E-06, , 
DataValue, -1.08, -2.9268000000000005E-06, 2.9268000000000005E-06, , 
DataValue, -1.09, -4.3915E-06, 4.3915E-06, , 
DataValue, -1.1, -1.5317E-06, 1.5317E-06, , 
DataValue, -1.11, -1.4037000000000002E-06, 1.4037000000000002E-06, , 
DataValue, -1.12, -1.3877E-06, 1.3877E-06, , 
DataValue, -1.1300000000000001, -1.3789E-06, 1.3789E-06, , 
DataValue, -1.1400000000000001, -1.4328E-06, 1.4328E-06, , 
DataValue, -1.1500000000000001, -1.3725000000000002E-06, 1.3725000000000002E-06, , 
DataValue, -1.1600000000000001, -1.4889E-06, 1.4889E-06, , 
DataValue, -1.1700000000000002, -1.5418000000000002E-06, 1.5418000000000002E-06, , 
DataValue, -1.1800000000000002, -1.5960000000000003E-06, 1.5960000000000003E-06, , 
DataValue, -1.19, -1.5871000000000002E-06, 1.5871000000000002E-06, , 
DataValue, -1.2, -1.6122000000000002E-06, 1.6122000000000002E-06, , 
DataValue, -1.21, -1.6735000000000002E-06, 1.6735000000000002E-06, , 
DataValue, -1.22, -1.9524E-06, 1.9524E-06, , 
DataValue, -1.23, -1.7733000000000002E-06, 1.7733000000000002E-06, , 
DataValue, -1.24, -2.7756E-07, 2.7756E-07, , 
DataValue, -1.25, -2.1574E-07, 2.1574E-07, , 
DataValue, -1.26, -1.6252E-07, 1.6252E-07, , 
DataValue, -1.27, -2.5133999999999997E-07, 2.5133999999999997E-07, , 
DataValue, -1.28, -2.86E-07, 2.86E-07, , 
DataValue, -1.29, -1.2741999999999999E-07, 1.2741999999999999E-07, , 
DataValue, -1.3, -9.463E-07, 9.463E-07, , 
DataValue, -1.31, -9.7358E-07, 9.7358E-07, , 
DataValue, -1.32, -3.6281999999999994E-08, 3.6281999999999994E-08, , 
DataValue, -1.33, -3.79434E-08, 3.79434E-08, , 
DataValue, -1.34, -4.2558599999999996E-08, 4.2558599999999996E-08, , 
DataValue, -1.35, -4.3394399999999993E-08, 4.3394399999999993E-08, , 
DataValue, -1.36, -5.3331599999999996E-08, 5.3331599999999996E-08, , 
DataValue, -1.37, -8.7308999999999991E-08, 8.7308999999999991E-08, , 
DataValue, -1.3800000000000001, -7.64274E-08, 7.64274E-08, , 
DataValue, -1.3900000000000001, -7.8313E-08, 7.8313E-08, , 
DataValue, -1.4000000000000001, -1.0764E-07, 1.0764E-07, , 
DataValue, -1.4100000000000001, -2.933E-07, 2.933E-07, , 
DataValue, -1.4200000000000002, -2.82762E-08, 2.82762E-08, , 
DataValue, -1.4300000000000002, -3.0182199999999996E-08, 3.0182199999999996E-08, , 
DataValue, -1.4400000000000002, -3.0929799999999995E-08, 3.0929799999999995E-08, , 
DataValue, -1.4500000000000002, -3.12222E-08, 3.12222E-08, , 
DataValue, -1.46, -1.268E-08, 1.268E-08, , 
DataValue, -1.47, -1.74528E-08, 1.74528E-08, , 
DataValue, -1.48, -1.6918E-08, 1.6918E-08, , 
DataValue, -1.49, -1.73818E-08, 1.73818E-08, , 
DataValue, -1.5, -1.7434E-08, 1.7434E-08, , 
DataValue, -1.51, -1.8354999999999998E-08, 1.8354999999999998E-08, , 
DataValue, -1.52, -1.9010999999999997E-08, 1.9010999999999997E-08, , 
DataValue, -1.53, -1.9404E-08, 1.9404E-08, , 
DataValue, -1.54, -2.0118599999999998E-08, 2.0118599999999998E-08, , 
DataValue, -1.55, -2.10148E-08, 2.10148E-08, , 
DataValue, -1.56, -2.1465599999999997E-08, 2.1465599999999997E-08, , 
DataValue, -1.57, -2.1853199999999998E-08, 2.1853199999999998E-08, , 
DataValue, -1.58, -2.1831199999999996E-08, 2.1831199999999996E-08, , 
DataValue, -1.59, -2.26472E-08, 2.26472E-08, , 
DataValue, -1.6, -2.3157799999999997E-08, 2.3157799999999997E-08, , 
DataValue, -1.61, -2.4273599999999998E-08, 2.4273599999999998E-08, , 
DataValue, -1.62, -1.6121999999999998E-07, 1.6121999999999998E-07, , 
DataValue, -1.6300000000000001, -1.1854E-07, 1.1854E-07, , 
DataValue, -1.6400000000000001, -6.786E-08, 6.786E-08, , 
DataValue, -1.6500000000000001, -6.52728E-08, 6.52728E-08, , 
DataValue, -1.6600000000000001, -7.944E-08, 7.944E-08, , 
DataValue, -1.6700000000000002, -8.9392399999999993E-08, 8.9392399999999993E-08, , 
DataValue, -1.6800000000000002, -3.566E-07, 3.566E-07, , 
DataValue, -1.6900000000000002, -1.58E-08, 1.58E-08, , 
DataValue, -1.7000000000000002, -1.2284199999999999E-08, 1.2284199999999999E-08, , 
DataValue, -1.7100000000000002, -1.2734399999999999E-08, 1.2734399999999999E-08, , 
DataValue, -1.72, -1.2997799999999999E-08, 1.2997799999999999E-08, , 
DataValue, -1.73, -1.3371999999999999E-08, 1.3371999999999999E-08, , 
DataValue, -1.74, -1.3889999999999999E-08, 1.3889999999999999E-08, , 
DataValue, -1.75, -6.444E-08, 6.444E-08, , 
DataValue, -1.76, -1.3761999999999998E-07, 1.3761999999999998E-07, , 
DataValue, -1.77, -4.215E-07, 4.215E-07, , 
DataValue, -1.78, -4.807E-07, 4.807E-07, , 
DataValue, -1.79, -6.6622E-07, 6.6622E-07, , 
DataValue, -1.8, -1.1313999999999999E-07, 1.1313999999999999E-07, , 
DataValue, -1.81, -1.1753999999999999E-07, 1.1753999999999999E-07, , 
DataValue, -1.82, -6.17346E-08, 6.17346E-08, , 
DataValue, -1.83, -2E-07, 2E-07, , 
DataValue, -1.84, -1.9234E-07, 1.9234E-07, , 
DataValue, -1.85, -1.515E-07, 1.515E-07, , 
DataValue, -1.86, -1.4793999999999999E-07, 1.4793999999999999E-07, , 
DataValue, -1.87, -1.5902E-07, 1.5902E-07, , 
DataValue, -1.8800000000000001, -2.3138E-07, 2.3138E-07, , 
DataValue, -1.8900000000000001, -2.7131999999999997E-07, 2.7131999999999997E-07, , 
DataValue, -1.9000000000000001, -7.5414799999999993E-08, 7.5414799999999993E-08, , 
DataValue, -1.9100000000000001, -7.4632799999999993E-08, 7.4632799999999993E-08, , 
DataValue, -1.9200000000000002, -7.497539999999999E-08, 7.497539999999999E-08, , 
DataValue, -1.9300000000000002, -7.6673799999999991E-08, 7.6673799999999991E-08, , 
DataValue, -1.9400000000000002, -2.7607999999999997E-07, 2.7607999999999997E-07, , 
DataValue, -1.9500000000000002, -3.312E-07, 3.312E-07, , 
DataValue, -1.9600000000000002, -3.1746E-07, 3.1746E-07, , 
DataValue, -1.9700000000000002, -3.141E-07, 3.141E-07, , 
DataValue, -1.9800000000000002, -1.6012E-07, 1.6012E-07, , 
DataValue, -1.99, -2.7108E-07, 2.7108E-07, , 
DataValue, -2, -3.6858E-07, 3.6858E-07, , 
DataValue, -2, -3.6214E-07, 3.6214E-07, , 
DataValue, -1.99, -4.233E-07, 4.233E-07, , 
DataValue, -1.9800000000000002, -2.2576E-07, 2.2576E-07, , 
DataValue, -1.9700000000000002, -2.847E-07, 2.847E-07, , 
DataValue, -1.9600000000000002, -3.44E-07, 3.44E-07, , 
DataValue, -1.9500000000000002, -4.3208E-07, 4.3208E-07, , 
DataValue, -1.9400000000000002, -3.5028E-07, 3.5028E-07, , 
DataValue, -1.9300000000000002, -3.3034E-07, 3.3034E-07, , 
DataValue, -1.9200000000000002, -3.4398E-07, 3.4398E-07, , 
DataValue, -1.9100000000000001, -3.12E-07, 3.12E-07, , 
DataValue, -1.9000000000000001, -2.9252E-07, 2.9252E-07, , 
DataValue, -1.8900000000000001, -2.9084E-07, 2.9084E-07, , 
DataValue, -1.8800000000000001, -7.902E-08, 7.902E-08, , 
DataValue, -1.87, -6.73946E-08, 6.73946E-08, , 
DataValue, -1.86, -7.0864399999999987E-08, 7.0864399999999987E-08, , 
DataValue, -1.85, -6.67282E-08, 6.67282E-08, , 
DataValue, -1.84, -5.5862999999999995E-08, 5.5862999999999995E-08, , 
