
SetupTitle, ExtFET - NEG RESET BE-2.0V
PrimitiveTest, I/V Sweep
TestParameter, Context.MainFrame, B1500A
TestParameter, Channel.UnitType, SMU, SMU, SMU
TestParameter, Channel.Unit, SMU2:HR, SMU4:HR, SMU3:HR
TestParameter, Channel.IName, I_TE, I_BE, I_G
TestParameter, Channel.VName, V_TE, V_BE, V_G
TestParameter, Channel.Mode, V, COMMON, V
TestParameter, Channel.Func, VAR1, CONST, CONST
TestParameter, Channel.Index, 
TestParameter, Channel.Time, 
TestParameter, Measurement.Port.Unit, SMU2:HR, SMU4:HR, SMU3:HR
TestParameter, Measurement.Port.SeriesResistor, NONE, NONE, NONE
TestParameter, Measurement.Port.Filter, ON, ON, ON
TestParameter, Measurement.Port.OutputVoltageComparison, 0, 0, 0
TestParameter, Measurement.Primary.Locus, Double
TestParameter, Measurement.Primary.Scale, LINEAR
TestParameter, Measurement.Primary.Start, 0
TestParameter, Measurement.Primary.Stop, -2
TestParameter, Measurement.Primary.Step, -0.01
TestParameter, Measurement.Primary.Compliance, 0.01
TestParameter, Measurement.Primary.PowerCompliance, 0
TestParameter, Measurement.Aborting.Condition, CONTINUE AT ANY
TestParameter, Measurement.PostOutput.Value, START
TestParameter, Measurement.PostOutput.Retention, OFF
TestParameter, Measurement.Bias.Source, 0, 0, 2
TestParameter, Measurement.Bias.Compliance, 0.01, 0.1, 0.0001
TestParameter, Measurement.Monitor.Unit, SMU2:HR, SMU4:HR, SMU3:HR
TestParameter, Measurement.Monitor.Adc, HR ADC, HR ADC, HR ADC
TestParameter, Measurement.Monitor.Measurement, Compliance Side, Compliance Side, Compliance Side
TestParameter, Measurement.Monitor.RangingMode, LIMITED, LIMITED, LIMITED
TestParameter, Measurement.Monitor.RangeBoundary, 1nA, 1nA, 1nA
TestParameter, Measurement.Monitor.RangeRating, BY FULL RANGE, BY FULL RANGE, BY FULL RANGE
TestParameter, Measurement.Monitor.RangeRatingCoeff, 50, 50, 50
TestParameter, Measurement.Timing.Hold, 0
TestParameter, Measurement.Timing.Delay, 0
TestParameter, Measurement.Adc.HighSpeed.Mode, AUTO
TestParameter, Measurement.Adc.HighSpeed.Coeff, 1
TestParameter, Measurement.Adc.HighResolution.AutoZero, OFF
TestParameter, Measurement.Adc.HighResolution.Mode, AUTO
TestParameter, Measurement.Adc.HighResolution.Coeff, 6
TestParameter, Measurement.WaitTime.Source.Coeff, 1
TestParameter, Measurement.WaitTime.Source.Offset, 0
TestParameter, Measurement.WaitTime.Monitor.Coeff, 1
TestParameter, Measurement.WaitTime.Monitor.Offset, 0
TestParameter, Function.User.Name, absITE
TestParameter, Function.User.Unit, A
TestParameter, Function.User.Definition, abs(I_TE)
TestParameter, Output.Graph.Enabled, true
TestParameter, Output.Graph.AutoScaling, false
TestParameter, Output.Graph.XAxis.Data, V_TE
TestParameter, Output.Graph.XAxis.Scale, Linear
TestParameter, Output.Graph.XAxis.Left, 0
TestParameter, Output.Graph.XAxis.Right, 10
TestParameter, Output.Graph.XAxis.RunTimeAutoScale, true
TestParameter, Output.Graph.YAxis.Data, absITE
TestParameter, Output.Graph.YAxis.Scale, Log
TestParameter, Output.Graph.YAxis.Bottom, 0
TestParameter, Output.Graph.YAxis.Top, 1
TestParameter, Output.Graph.YAxis.Group, 
TestParameter, Output.Graph.YAxis.RunTimeAutoScale, true
TestParameter, Output.List.Data, V1, I2abs
TestParameter, AutoAnalysis.Interpolation, false
TestParameter, AutoAnalysis.Var2StepCount, 1
TestParameter, AutoAnalysis.Var2StepScript, 
TestParameter, AutoAnalysis.Line1.Enabled, false
TestParameter, AutoAnalysis.Line1.Type, 1
TestParameter, AutoAnalysis.Line1.Fix, True
TestParameter, AutoAnalysis.Line1.YAxis, 0
TestParameter, AutoAnalysis.Line1.Point1.Type, 0
TestParameter, AutoAnalysis.Line1.Point1.XY.X, 
TestParameter, AutoAnalysis.Line1.Point1.XY.Y, 
TestParameter, AutoAnalysis.Line1.Point1.Data.Var, 
TestParameter, AutoAnalysis.Line1.Point1.Data.Condition, 
TestParameter, AutoAnalysis.Line1.Point1.Data.Start, false
TestParameter, AutoAnalysis.Line1.Point1.Data.StartVar, 
TestParameter, AutoAnalysis.Line1.Point1.Data.StartCondition, 
TestParameter, AutoAnalysis.Line1.Point2.Type, 0
TestParameter, AutoAnalysis.Line1.Point2.XY.X, 
TestParameter, AutoAnalysis.Line1.Point2.XY.Y, 
TestParameter, AutoAnalysis.Line1.Point2.Data.Var, 
TestParameter, AutoAnalysis.Line1.Point2.Data.Condition, 
TestParameter, AutoAnalysis.Line1.Point2.Data.Start, false
TestParameter, AutoAnalysis.Line1.Point2.Data.StartVar, 
TestParameter, AutoAnalysis.Line1.Point2.Data.StartCondition, 
TestParameter, AutoAnalysis.Line1.GradientExpr, 0
TestParameter, AutoAnalysis.Line2.Enabled, false
TestParameter, AutoAnalysis.Line2.Type, 1
TestParameter, AutoAnalysis.Line2.Fix, True
TestParameter, AutoAnalysis.Line2.YAxis, 0
TestParameter, AutoAnalysis.Line2.Point1.Type, 0
TestParameter, AutoAnalysis.Line2.Point1.XY.X, 
TestParameter, AutoAnalysis.Line2.Point1.XY.Y, 
TestParameter, AutoAnalysis.Line2.Point1.Data.Var, 
TestParameter, AutoAnalysis.Line2.Point1.Data.Condition, 
TestParameter, AutoAnalysis.Line2.Point1.Data.Start, false
TestParameter, AutoAnalysis.Line2.Point1.Data.StartVar, 
TestParameter, AutoAnalysis.Line2.Point1.Data.StartCondition, 
TestParameter, AutoAnalysis.Line2.Point2.Type, 0
TestParameter, AutoAnalysis.Line2.Point2.XY.X, 
TestParameter, AutoAnalysis.Line2.Point2.XY.Y, 
TestParameter, AutoAnalysis.Line2.Point2.Data.Var, 
TestParameter, AutoAnalysis.Line2.Point2.Data.Condition, 
TestParameter, AutoAnalysis.Line2.Point2.Data.Start, false
TestParameter, AutoAnalysis.Line2.Point2.Data.StartVar, 
TestParameter, AutoAnalysis.Line2.Point2.Data.StartCondition, 
TestParameter, AutoAnalysis.Line2.GradientExpr, 0
TestParameter, AutoAnalysis.Marker.Enabled, false
TestParameter, AutoAnalysis.Marker.Data.Var, 
TestParameter, AutoAnalysis.Marker.Data.Condition, 
TestParameter, AutoAnalysis.Marker.Data.Start, false
TestParameter, AutoAnalysis.Marker.Data.StartVar, 
TestParameter, AutoAnalysis.Marker.Data.StartCondition, 
MetaData, TestRecord.EntryPoint, true
MetaData, TestRecord.RecordTime, 04/14/2020 20:29:59
MetaData, TestRecord.TestTarget, InGaAs_1_W_BE_FijiHfO2_NW-G05
MetaData, TestRecord.IterationIndex, 82
MetaData, TestRecord.Preservation, true
MetaData, TestRecord.Flag, 
MetaData, TestRecord.Remarks, 
MetaData, TestRecord.LinkKey, 0320449b-9bbf-4b6d-b438-be0e285a19b9
MetaData, TestRecord.Parameters, 
Dimension1, 402, 402, 402, 402, 402
Dimension2, 1, 1, 1, 1, 1
DataName, V_TE, I_TE, absITE, V1, I2abs
DataValue, 0, 9.6120000000000013E-11, 9.6120000000000013E-11, , 
DataValue, -0.01, -2.28148E-08, 2.28148E-08, , 
DataValue, -0.02, -4.59156E-08, 4.59156E-08, , 
DataValue, -0.030000000000000002, -6.79882E-08, 6.79882E-08, , 
DataValue, -0.04, -9.1724799999999985E-08, 9.1724799999999985E-08, , 
DataValue, -0.05, -1.15E-07, 1.15E-07, , 
DataValue, -0.060000000000000005, -1.399E-07, 1.399E-07, , 
DataValue, -0.07, -1.6516E-07, 1.6516E-07, , 
DataValue, -0.08, -1.8976E-07, 1.8976E-07, , 
DataValue, -0.090000000000000011, -2.2102E-07, 2.2102E-07, , 
DataValue, -0.1, -2.4842E-07, 2.4842E-07, , 
DataValue, -0.11, -2.7738E-07, 2.7738E-07, , 
DataValue, -0.12000000000000001, -3.0856E-07, 3.0856E-07, , 
DataValue, -0.13, -3.3512E-07, 3.3512E-07, , 
DataValue, -0.14, -3.6542E-07, 3.6542E-07, , 
DataValue, -0.15, -3.89E-07, 3.89E-07, , 
DataValue, -0.16, -4.2078E-07, 4.2078E-07, , 
DataValue, -0.17, -4.5874E-07, 4.5874E-07, , 
DataValue, -0.18000000000000002, -5.02E-07, 5.02E-07, , 
DataValue, -0.19, -5.3618E-07, 5.3618E-07, , 
DataValue, -0.2, -5.819E-07, 5.819E-07, , 
DataValue, -0.21000000000000002, -6.0918E-07, 6.0918E-07, , 
DataValue, -0.22, -6.4756E-07, 6.4756E-07, , 
DataValue, -0.23, -6.9154E-07, 6.9154E-07, , 
DataValue, -0.24000000000000002, -7.3952E-07, 7.3952E-07, , 
DataValue, -0.25, -7.832E-07, 7.832E-07, , 
DataValue, -0.26, -8.2718E-07, 8.2718E-07, , 
DataValue, -0.27, -8.6688E-07, 8.6688E-07, , 
DataValue, -0.28, -9.0818E-07, 9.0818E-07, , 
DataValue, -0.29000000000000004, -9.6546E-07, 9.6546E-07, , 
DataValue, -0.3, -1.00954E-06, 1.00954E-06, , 
DataValue, -0.31, -1.05188E-06, 1.05188E-06, , 
DataValue, -0.32, -1.11678E-06, 1.11678E-06, , 
DataValue, -0.33, -1.1869E-06, 1.1869E-06, , 
DataValue, -0.34, -1.2531000000000001E-06, 1.2531000000000001E-06, , 
DataValue, -0.35000000000000003, -1.3495000000000002E-06, 1.3495000000000002E-06, , 
DataValue, -0.36000000000000004, -1.4116000000000002E-06, 1.4116000000000002E-06, , 
DataValue, -0.37, -1.4891E-06, 1.4891E-06, , 
DataValue, -0.38, -1.5539E-06, 1.5539E-06, , 
DataValue, -0.39, -1.6289000000000002E-06, 1.6289000000000002E-06, , 
DataValue, -0.4, -1.6791000000000002E-06, 1.6791000000000002E-06, , 
DataValue, -0.41000000000000003, -1.7886000000000001E-06, 1.7886000000000001E-06, , 
DataValue, -0.42000000000000004, -1.8622000000000001E-06, 1.8622000000000001E-06, , 
DataValue, -0.43, -2.0005E-06, 2.0005E-06, , 
DataValue, -0.44, -2.0787E-06, 2.0787E-06, , 
DataValue, -0.45, -2.1268E-06, 2.1268E-06, , 
DataValue, -0.46, -2.1506000000000002E-06, 2.1506000000000002E-06, , 
DataValue, -0.47000000000000003, -2.4224000000000003E-06, 2.4224000000000003E-06, , 
DataValue, -0.48000000000000004, -2.4959E-06, 2.4959E-06, , 
DataValue, -0.49000000000000005, -2.577E-06, 2.577E-06, , 
DataValue, -0.5, -2.6366000000000003E-06, 2.6366000000000003E-06, , 
DataValue, -0.51, -2.7297000000000003E-06, 2.7297000000000003E-06, , 
DataValue, -0.52, -2.8405E-06, 2.8405E-06, , 
DataValue, -0.53, -2.8816000000000005E-06, 2.8816000000000005E-06, , 
DataValue, -0.54, -3.2316000000000005E-06, 3.2316000000000005E-06, , 
DataValue, -0.55, -3.2749E-06, 3.2749E-06, , 
DataValue, -0.56, -3.4708000000000003E-06, 3.4708000000000003E-06, , 
DataValue, -0.57000000000000006, -3.4325E-06, 3.4325E-06, , 
DataValue, -0.58000000000000007, -3.8357E-06, 3.8357E-06, , 
DataValue, -0.59000000000000008, -3.7711E-06, 3.7711E-06, , 
DataValue, -0.6, -4.1523E-06, 4.1523E-06, , 
DataValue, -0.61, -4.2488000000000007E-06, 4.2488000000000007E-06, , 
DataValue, -0.62, -4.4448E-06, 4.4448E-06, , 
DataValue, -0.63, -4.7727E-06, 4.7727E-06, , 
DataValue, -0.64, -4.9473000000000009E-06, 4.9473000000000009E-06, , 
DataValue, -0.65, -5.0223E-06, 5.0223E-06, , 
DataValue, -0.66, -5.4753000000000008E-06, 5.4753000000000008E-06, , 
DataValue, -0.67, -5.3772000000000008E-06, 5.3772000000000008E-06, , 
DataValue, -0.68, -5.4076000000000005E-06, 5.4076000000000005E-06, , 
DataValue, -0.69000000000000006, -5.8643000000000008E-06, 5.8643000000000008E-06, , 
DataValue, -0.70000000000000007, -6.8501000000000007E-06, 6.8501000000000007E-06, , 
DataValue, -0.71000000000000008, -7.383700000000001E-06, 7.383700000000001E-06, , 
DataValue, -0.72000000000000008, -7.8054000000000015E-06, 7.8054000000000015E-06, , 
DataValue, -0.73, -7.9991000000000011E-06, 7.9991000000000011E-06, , 
DataValue, -0.74, -5.4337E-06, 5.4337E-06, , 
DataValue, -0.75, -4.7488E-06, 4.7488E-06, , 
DataValue, -0.76, -5.1792E-06, 5.1792E-06, , 
DataValue, -0.77, -5.1742E-06, 5.1742E-06, , 
DataValue, -0.78, -6.0378000000000009E-06, 6.0378000000000009E-06, , 
DataValue, -0.79, -6.416800000000001E-06, 6.416800000000001E-06, , 
DataValue, -0.8, -5.5979E-06, 5.5979E-06, , 
DataValue, -0.81, -7.1607000000000007E-06, 7.1607000000000007E-06, , 
DataValue, -0.82000000000000006, -2.1828599999999998E-08, 2.1828599999999998E-08, , 
DataValue, -0.83000000000000007, -2.47476E-08, 2.47476E-08, , 
DataValue, -0.84000000000000008, -2.12964E-08, 2.12964E-08, , 
DataValue, -0.85000000000000009, -2.3125799999999997E-08, 2.3125799999999997E-08, , 
DataValue, -0.86, -2.4624999999999997E-08, 2.4624999999999997E-08, , 
DataValue, -0.87, -2.57522E-08, 2.57522E-08, , 
DataValue, -0.88, -2.6422599999999996E-08, 2.6422599999999996E-08, , 
DataValue, -0.89, -3.0183999999999994E-08, 3.0183999999999994E-08, , 
DataValue, -0.9, -2.9208999999999997E-08, 2.9208999999999997E-08, , 
DataValue, -0.91, -4.0973799999999996E-08, 4.0973799999999996E-08, , 
DataValue, -0.92, -4.28128E-08, 4.28128E-08, , 
DataValue, -0.93, -4.1864199999999994E-08, 4.1864199999999994E-08, , 
DataValue, -0.94000000000000006, -4.3347799999999995E-08, 4.3347799999999995E-08, , 
DataValue, -0.95000000000000007, -4.3161799999999995E-08, 4.3161799999999995E-08, , 
DataValue, -0.96000000000000008, -5.8988599999999991E-08, 5.8988599999999991E-08, , 
DataValue, -0.97000000000000008, -5.89684E-08, 5.89684E-08, , 
DataValue, -0.98000000000000009, -6.28982E-08, 6.28982E-08, , 
DataValue, -0.9900000000000001, -5.7220199999999996E-08, 5.7220199999999996E-08, , 
DataValue, -1, -6.2088199999999991E-08, 6.2088199999999991E-08, , 
DataValue, -1.01, -6.390159999999999E-08, 6.390159999999999E-08, , 
DataValue, -1.02, -6.4867199999999992E-08, 6.4867199999999992E-08, , 
DataValue, -1.03, -6.86248E-08, 6.86248E-08, , 
DataValue, -1.04, -7.02478E-08, 7.02478E-08, , 
DataValue, -1.05, -4.9834999999999996E-08, 4.9834999999999996E-08, , 
DataValue, -1.06, -5.79868E-08, 5.79868E-08, , 
DataValue, -1.07, -5.6586799999999992E-08, 5.6586799999999992E-08, , 
DataValue, -1.08, -5.6011799999999995E-08, 5.6011799999999995E-08, , 
DataValue, -1.09, -6.71798E-08, 6.71798E-08, , 
DataValue, -1.1, -5.3044599999999994E-08, 5.3044599999999994E-08, , 
DataValue, -1.11, -4.12728E-08, 4.12728E-08, , 
DataValue, -1.12, -2.8712799999999996E-08, 2.8712799999999996E-08, , 
DataValue, -1.1300000000000001, -1.8294E-07, 1.8294E-07, , 
DataValue, -1.1400000000000001, -2.1034E-07, 2.1034E-07, , 
DataValue, -1.1500000000000001, -1.1938E-07, 1.1938E-07, , 
DataValue, -1.1600000000000001, -3.218E-07, 3.218E-07, , 
DataValue, -1.1700000000000002, -3.3974E-07, 3.3974E-07, , 
DataValue, -1.1800000000000002, -3.3144E-07, 3.3144E-07, , 
DataValue, -1.19, -6.8381999999999994E-07, 6.8381999999999994E-07, , 
DataValue, -1.2, -3.2494E-07, 3.2494E-07, , 
DataValue, -1.21, -2.2944E-07, 2.2944E-07, , 
DataValue, -1.22, -3.4144E-07, 3.4144E-07, , 
DataValue, -1.23, -3.3044E-07, 3.3044E-07, , 
DataValue, -1.24, -3.1574E-07, 3.1574E-07, , 
DataValue, -1.25, -4.7614E-07, 4.7614E-07, , 
DataValue, -1.26, -4.2701999999999997E-07, 4.2701999999999997E-07, , 
DataValue, -1.27, -4.3288E-07, 4.3288E-07, , 
DataValue, -1.28, -4.5218E-07, 4.5218E-07, , 
DataValue, -1.29, -4.4834E-07, 4.4834E-07, , 
DataValue, -1.3, -3.2284E-07, 3.2284E-07, , 
DataValue, -1.31, -3.0672E-07, 3.0672E-07, , 
DataValue, -1.32, -3.1042E-07, 3.1042E-07, , 
DataValue, -1.33, -3.034E-07, 3.034E-07, , 
DataValue, -1.34, -3.305E-07, 3.305E-07, , 
DataValue, -1.35, -3.672E-07, 3.672E-07, , 
DataValue, -1.36, -3.9078E-07, 3.9078E-07, , 
DataValue, -1.37, -4.138E-07, 4.138E-07, , 
DataValue, -1.3800000000000001, -4.1512E-07, 4.1512E-07, , 
DataValue, -1.3900000000000001, -4.276E-07, 4.276E-07, , 
DataValue, -1.4000000000000001, -4.142E-07, 4.142E-07, , 
DataValue, -1.4100000000000001, -4.526E-07, 4.526E-07, , 
DataValue, -1.4200000000000002, -4.1566E-07, 4.1566E-07, , 
DataValue, -1.4300000000000002, -5.1698E-07, 5.1698E-07, , 
DataValue, -1.4400000000000002, -4.969E-07, 4.969E-07, , 
DataValue, -1.4500000000000002, -5.0514E-07, 5.0514E-07, , 
DataValue, -1.46, -5.4486E-07, 5.4486E-07, , 
DataValue, -1.47, -5.6803999999999994E-07, 5.6803999999999994E-07, , 
DataValue, -1.48, -5.4428E-07, 5.4428E-07, , 
DataValue, -1.49, -5.3214E-07, 5.3214E-07, , 
DataValue, -1.5, -5.6382E-07, 5.6382E-07, , 
DataValue, -1.51, -5.2756E-07, 5.2756E-07, , 
DataValue, -1.52, -5.2054E-07, 5.2054E-07, , 
DataValue, -1.53, -5.6498E-07, 5.6498E-07, , 
DataValue, -1.54, -5.197E-07, 5.197E-07, , 
DataValue, -1.55, -5.2822E-07, 5.2822E-07, , 
DataValue, -1.56, -5.6952E-07, 5.6952E-07, , 
DataValue, -1.57, -5.6793999999999994E-07, 5.6793999999999994E-07, , 
DataValue, -1.58, -5.5586E-07, 5.5586E-07, , 
DataValue, -1.59, -5.689E-07, 5.689E-07, , 
DataValue, -1.6, -5.8936E-07, 5.8936E-07, , 
DataValue, -1.61, -5.9776E-07, 5.9776E-07, , 
DataValue, -1.62, -6.7608E-07, 6.7608E-07, , 
DataValue, -1.6300000000000001, -9.168E-08, 9.168E-08, , 
DataValue, -1.6400000000000001, -1.081E-07, 1.081E-07, , 
DataValue, -1.6500000000000001, -8.2438999999999988E-08, 8.2438999999999988E-08, , 
DataValue, -1.6600000000000001, -8.6277799999999989E-08, 8.6277799999999989E-08, , 
DataValue, -1.6700000000000002, -1.7442E-07, 1.7442E-07, , 
DataValue, -1.6800000000000002, -1.4714E-07, 1.4714E-07, , 
DataValue, -1.6900000000000002, -1.6696E-07, 1.6696E-07, , 
DataValue, -1.7000000000000002, -3.008E-07, 3.008E-07, , 
DataValue, -1.7100000000000002, -3.0511999999999997E-07, 3.0511999999999997E-07, , 
DataValue, -1.72, -3.0174E-07, 3.0174E-07, , 
DataValue, -1.73, -1.5757999999999999E-07, 1.5757999999999999E-07, , 
DataValue, -1.74, -1.6586E-07, 1.6586E-07, , 
DataValue, -1.75, -1.6496E-07, 1.6496E-07, , 
DataValue, -1.76, -2.145E-07, 2.145E-07, , 
DataValue, -1.77, -2.1581999999999998E-07, 2.1581999999999998E-07, , 
DataValue, -1.78, -2.3204E-07, 2.3204E-07, , 
DataValue, -1.79, -2.3353999999999999E-07, 2.3353999999999999E-07, , 
DataValue, -1.8, -3.7304E-07, 3.7304E-07, , 
DataValue, -1.81, -4.0283999999999997E-07, 4.0283999999999997E-07, , 
DataValue, -1.82, -3.4018E-07, 3.4018E-07, , 
DataValue, -1.83, -2.9098E-07, 2.9098E-07, , 
DataValue, -1.84, -3.133E-07, 3.133E-07, , 
DataValue, -1.85, -3.1466E-07, 3.1466E-07, , 
DataValue, -1.86, -3.3398E-07, 3.3398E-07, , 
DataValue, -1.87, -3.2692E-07, 3.2692E-07, , 
DataValue, -1.8800000000000001, -3.748E-07, 3.748E-07, , 
DataValue, -1.8900000000000001, -5.393E-07, 5.393E-07, , 
DataValue, -1.9000000000000001, -1.4403999999999999E-07, 1.4403999999999999E-07, , 
DataValue, -1.9100000000000001, -1.8706E-07, 1.8706E-07, , 
DataValue, -1.9200000000000002, -2.796E-07, 2.796E-07, , 
DataValue, -1.9300000000000002, -3.0604E-07, 3.0604E-07, , 
DataValue, -1.9400000000000002, -2.3117999999999998E-07, 2.3117999999999998E-07, , 
DataValue, -1.9500000000000002, -2.3633999999999998E-07, 2.3633999999999998E-07, , 
DataValue, -1.9600000000000002, -2.4542E-07, 2.4542E-07, , 
DataValue, -1.9700000000000002, -2.5329999999999997E-07, 2.5329999999999997E-07, , 
DataValue, -1.9800000000000002, -2.5654E-07, 2.5654E-07, , 
DataValue, -1.99, -2.5623999999999997E-07, 2.5623999999999997E-07, , 
DataValue, -2, -2.8284E-07, 2.8284E-07, , 
DataValue, -2, -2.8456E-07, 2.8456E-07, , 
DataValue, -1.99, -2.8482E-07, 2.8482E-07, , 
DataValue, -1.9800000000000002, -2.732E-07, 2.732E-07, , 
DataValue, -1.9700000000000002, -2.732E-07, 2.732E-07, , 
DataValue, -1.9600000000000002, -2.5884E-07, 2.5884E-07, , 
DataValue, -1.9500000000000002, -2.5326E-07, 2.5326E-07, , 
DataValue, -1.9400000000000002, -2.4814E-07, 2.4814E-07, , 
DataValue, -1.9300000000000002, -2.418E-07, 2.418E-07, , 
DataValue, -1.9200000000000002, -2.3532E-07, 2.3532E-07, , 
DataValue, -1.9100000000000001, -2.3372E-07, 2.3372E-07, , 
DataValue, -1.9000000000000001, -2.3028E-07, 2.3028E-07, , 
DataValue, -1.8900000000000001, -2.1606E-07, 2.1606E-07, , 
DataValue, -1.8800000000000001, -2.194E-07, 2.194E-07, , 
DataValue, -1.87, -2.0874E-07, 2.0874E-07, , 
DataValue, -1.86, -2.1172E-07, 2.1172E-07, , 
DataValue, -1.85, -2.0572E-07, 2.0572E-07, , 
DataValue, -1.84, -2.0356E-07, 2.0356E-07, , 
DataValue, -1.83, -2.0054E-07, 2.0054E-07, , 
DataValue, -1.82, -2.0816E-07, 2.0816E-07, , 
DataValue, -1.81, -2.0294E-07, 2.0294E-07, , 
DataValue, -1.8, -1.9877999999999998E-07, 1.9877999999999998E-07, , 
DataValue, -1.79, -1.8633999999999999E-07, 1.8633999999999999E-07, , 
DataValue, -1.78, -1.797E-07, 1.797E-07, , 
DataValue, -1.77, -1.7208E-07, 1.7208E-07, , 
DataValue, -1.76, -1.732E-07, 1.732E-07, , 
DataValue, -1.75, -1.645E-07, 1.645E-07, , 
DataValue, -1.74, -1.576E-07, 1.576E-07, , 
DataValue, -1.73, -1.6198E-07, 1.6198E-07, , 
DataValue, -1.72, -1.5916E-07, 1.5916E-07, , 
DataValue, -1.7100000000000002, -1.5412E-07, 1.5412E-07, , 
