
SetupTitle, ExtFET - NEG RESET BE-2.0V
PrimitiveTest, I/V Sweep
TestParameter, Context.MainFrame, B1500A
TestParameter, Channel.UnitType, SMU, SMU, SMU
TestParameter, Channel.Unit, SMU2:HR, SMU4:HR, SMU3:HR
TestParameter, Channel.IName, I_TE, I_BE, I_G
TestParameter, Channel.VName, V_TE, V_BE, V_G
TestParameter, Channel.Mode, V, COMMON, V
TestParameter, Channel.Func, VAR1, CONST, CONST
TestParameter, Channel.Index, 
TestParameter, Channel.Time, 
TestParameter, Measurement.Port.Unit, SMU2:HR, SMU4:HR, SMU3:HR
TestParameter, Measurement.Port.SeriesResistor, NONE, NONE, NONE
TestParameter, Measurement.Port.Filter, ON, ON, ON
TestParameter, Measurement.Port.OutputVoltageComparison, 0, 0, 0
TestParameter, Measurement.Primary.Locus, Double
TestParameter, Measurement.Primary.Scale, LINEAR
TestParameter, Measurement.Primary.Start, 0
TestParameter, Measurement.Primary.Stop, -2
TestParameter, Measurement.Primary.Step, -0.01
TestParameter, Measurement.Primary.Compliance, 0.01
TestParameter, Measurement.Primary.PowerCompliance, 0
TestParameter, Measurement.Aborting.Condition, CONTINUE AT ANY
TestParameter, Measurement.PostOutput.Value, START
TestParameter, Measurement.PostOutput.Retention, OFF
TestParameter, Measurement.Bias.Source, 0, 0, 2
TestParameter, Measurement.Bias.Compliance, 0.01, 0.1, 0.0001
TestParameter, Measurement.Monitor.Unit, SMU2:HR, SMU4:HR, SMU3:HR
TestParameter, Measurement.Monitor.Adc, HR ADC, HR ADC, HR ADC
TestParameter, Measurement.Monitor.Measurement, Compliance Side, Compliance Side, Compliance Side
TestParameter, Measurement.Monitor.RangingMode, LIMITED, LIMITED, LIMITED
TestParameter, Measurement.Monitor.RangeBoundary, 1nA, 1nA, 1nA
TestParameter, Measurement.Monitor.RangeRating, BY FULL RANGE, BY FULL RANGE, BY FULL RANGE
TestParameter, Measurement.Monitor.RangeRatingCoeff, 50, 50, 50
TestParameter, Measurement.Timing.Hold, 0
TestParameter, Measurement.Timing.Delay, 0
TestParameter, Measurement.Adc.HighSpeed.Mode, AUTO
TestParameter, Measurement.Adc.HighSpeed.Coeff, 1
TestParameter, Measurement.Adc.HighResolution.AutoZero, OFF
TestParameter, Measurement.Adc.HighResolution.Mode, AUTO
TestParameter, Measurement.Adc.HighResolution.Coeff, 6
TestParameter, Measurement.WaitTime.Source.Coeff, 1
TestParameter, Measurement.WaitTime.Source.Offset, 0
TestParameter, Measurement.WaitTime.Monitor.Coeff, 1
TestParameter, Measurement.WaitTime.Monitor.Offset, 0
TestParameter, Function.User.Name, absITE
TestParameter, Function.User.Unit, A
TestParameter, Function.User.Definition, abs(I_TE)
TestParameter, Output.Graph.Enabled, true
TestParameter, Output.Graph.AutoScaling, false
TestParameter, Output.Graph.XAxis.Data, V_TE
TestParameter, Output.Graph.XAxis.Scale, Linear
TestParameter, Output.Graph.XAxis.Left, 0
TestParameter, Output.Graph.XAxis.Right, 10
TestParameter, Output.Graph.XAxis.RunTimeAutoScale, true
TestParameter, Output.Graph.YAxis.Data, absITE
TestParameter, Output.Graph.YAxis.Scale, Log
TestParameter, Output.Graph.YAxis.Bottom, 0
TestParameter, Output.Graph.YAxis.Top, 1
TestParameter, Output.Graph.YAxis.Group, 
TestParameter, Output.Graph.YAxis.RunTimeAutoScale, true
TestParameter, Output.List.Data, V1, I2abs
TestParameter, AutoAnalysis.Interpolation, false
TestParameter, AutoAnalysis.Var2StepCount, 1
TestParameter, AutoAnalysis.Var2StepScript, 
TestParameter, AutoAnalysis.Line1.Enabled, false
TestParameter, AutoAnalysis.Line1.Type, 1
TestParameter, AutoAnalysis.Line1.Fix, True
TestParameter, AutoAnalysis.Line1.YAxis, 0
TestParameter, AutoAnalysis.Line1.Point1.Type, 0
TestParameter, AutoAnalysis.Line1.Point1.XY.X, 
TestParameter, AutoAnalysis.Line1.Point1.XY.Y, 
TestParameter, AutoAnalysis.Line1.Point1.Data.Var, 
TestParameter, AutoAnalysis.Line1.Point1.Data.Condition, 
TestParameter, AutoAnalysis.Line1.Point1.Data.Start, false
TestParameter, AutoAnalysis.Line1.Point1.Data.StartVar, 
TestParameter, AutoAnalysis.Line1.Point1.Data.StartCondition, 
TestParameter, AutoAnalysis.Line1.Point2.Type, 0
TestParameter, AutoAnalysis.Line1.Point2.XY.X, 
TestParameter, AutoAnalysis.Line1.Point2.XY.Y, 
TestParameter, AutoAnalysis.Line1.Point2.Data.Var, 
TestParameter, AutoAnalysis.Line1.Point2.Data.Condition, 
TestParameter, AutoAnalysis.Line1.Point2.Data.Start, false
TestParameter, AutoAnalysis.Line1.Point2.Data.StartVar, 
TestParameter, AutoAnalysis.Line1.Point2.Data.StartCondition, 
TestParameter, AutoAnalysis.Line1.GradientExpr, 0
TestParameter, AutoAnalysis.Line2.Enabled, false
TestParameter, AutoAnalysis.Line2.Type, 1
TestParameter, AutoAnalysis.Line2.Fix, True
TestParameter, AutoAnalysis.Line2.YAxis, 0
TestParameter, AutoAnalysis.Line2.Point1.Type, 0
TestParameter, AutoAnalysis.Line2.Point1.XY.X, 
TestParameter, AutoAnalysis.Line2.Point1.XY.Y, 
TestParameter, AutoAnalysis.Line2.Point1.Data.Var, 
TestParameter, AutoAnalysis.Line2.Point1.Data.Condition, 
TestParameter, AutoAnalysis.Line2.Point1.Data.Start, false
TestParameter, AutoAnalysis.Line2.Point1.Data.StartVar, 
TestParameter, AutoAnalysis.Line2.Point1.Data.StartCondition, 
TestParameter, AutoAnalysis.Line2.Point2.Type, 0
TestParameter, AutoAnalysis.Line2.Point2.XY.X, 
TestParameter, AutoAnalysis.Line2.Point2.XY.Y, 
TestParameter, AutoAnalysis.Line2.Point2.Data.Var, 
TestParameter, AutoAnalysis.Line2.Point2.Data.Condition, 
TestParameter, AutoAnalysis.Line2.Point2.Data.Start, false
TestParameter, AutoAnalysis.Line2.Point2.Data.StartVar, 
TestParameter, AutoAnalysis.Line2.Point2.Data.StartCondition, 
TestParameter, AutoAnalysis.Line2.GradientExpr, 0
TestParameter, AutoAnalysis.Marker.Enabled, false
TestParameter, AutoAnalysis.Marker.Data.Var, 
TestParameter, AutoAnalysis.Marker.Data.Condition, 
TestParameter, AutoAnalysis.Marker.Data.Start, false
TestParameter, AutoAnalysis.Marker.Data.StartVar, 
TestParameter, AutoAnalysis.Marker.Data.StartCondition, 
MetaData, TestRecord.EntryPoint, true
MetaData, TestRecord.RecordTime, 04/14/2020 20:31:48
MetaData, TestRecord.TestTarget, InGaAs_1_W_BE_FijiHfO2_NW-G05
MetaData, TestRecord.IterationIndex, 88
MetaData, TestRecord.Preservation, true
MetaData, TestRecord.Flag, 
MetaData, TestRecord.Remarks, 
MetaData, TestRecord.LinkKey, 3faddcfc-7946-4365-ba30-10c320f0b93a
MetaData, TestRecord.Parameters, 
Dimension1, 402, 402, 402, 402, 402
Dimension2, 1, 1, 1, 1, 1
DataName, V_TE, I_TE, absITE, V1, I2abs
DataValue, 0, 1.7695000000000002E-10, 1.7695000000000002E-10, , 
DataValue, -0.01, -2.6973799999999996E-08, 2.6973799999999996E-08, , 
DataValue, -0.02, -5.4294599999999996E-08, 5.4294599999999996E-08, , 
DataValue, -0.030000000000000002, -8.2316E-08, 8.2316E-08, , 
DataValue, -0.04, -1.1017719999999999E-07, 1.1017719999999999E-07, , 
DataValue, -0.05, -1.4024E-07, 1.4024E-07, , 
DataValue, -0.060000000000000005, -1.716E-07, 1.716E-07, , 
DataValue, -0.07, -1.9992E-07, 1.9992E-07, , 
DataValue, -0.08, -2.3042E-07, 2.3042E-07, , 
DataValue, -0.090000000000000011, -2.6204E-07, 2.6204E-07, , 
DataValue, -0.1, -2.929E-07, 2.929E-07, , 
DataValue, -0.11, -3.257E-07, 3.257E-07, , 
DataValue, -0.12000000000000001, -3.6368E-07, 3.6368E-07, , 
DataValue, -0.13, -4.0602E-07, 4.0602E-07, , 
DataValue, -0.14, -4.566E-07, 4.566E-07, , 
DataValue, -0.15, -4.7968E-07, 4.7968E-07, , 
DataValue, -0.16, -4.9694E-07, 4.9694E-07, , 
DataValue, -0.17, -5.6088E-07, 5.6088E-07, , 
DataValue, -0.18000000000000002, -5.9488E-07, 5.9488E-07, , 
DataValue, -0.19, -6.3548E-07, 6.3548E-07, , 
DataValue, -0.2, -6.7932E-07, 6.7932E-07, , 
DataValue, -0.21000000000000002, -7.2256E-07, 7.2256E-07, , 
DataValue, -0.22, -7.8244E-07, 7.8244E-07, , 
DataValue, -0.23, -8.3428E-07, 8.3428E-07, , 
DataValue, -0.24000000000000002, -8.6742E-07, 8.6742E-07, , 
DataValue, -0.25, -9.3872E-07, 9.3872E-07, , 
DataValue, -0.26, -1.00726E-06, 1.00726E-06, , 
DataValue, -0.27, -1.0138E-06, 1.0138E-06, , 
DataValue, -0.28, -1.0729599999999999E-06, 1.0729599999999999E-06, , 
DataValue, -0.29000000000000004, -1.12498E-06, 1.12498E-06, , 
DataValue, -0.3, -1.2085000000000002E-06, 1.2085000000000002E-06, , 
DataValue, -0.31, -1.3051000000000002E-06, 1.3051000000000002E-06, , 
DataValue, -0.32, -1.3463000000000001E-06, 1.3463000000000001E-06, , 
DataValue, -0.33, -1.4244E-06, 1.4244E-06, , 
DataValue, -0.34, -1.5012000000000001E-06, 1.5012000000000001E-06, , 
DataValue, -0.35000000000000003, -1.5822E-06, 1.5822E-06, , 
DataValue, -0.36000000000000004, -1.7114000000000003E-06, 1.7114000000000003E-06, , 
DataValue, -0.37, -1.7912E-06, 1.7912E-06, , 
DataValue, -0.38, -1.8633000000000002E-06, 1.8633000000000002E-06, , 
DataValue, -0.39, -1.9648000000000002E-06, 1.9648000000000002E-06, , 
DataValue, -0.4, -2.0821000000000004E-06, 2.0821000000000004E-06, , 
DataValue, -0.41000000000000003, -2.1899000000000004E-06, 2.1899000000000004E-06, , 
DataValue, -0.42000000000000004, -2.3006E-06, 2.3006E-06, , 
DataValue, -0.43, -2.3942000000000003E-06, 2.3942000000000003E-06, , 
DataValue, -0.44, -2.5438E-06, 2.5438E-06, , 
DataValue, -0.45, -2.6558000000000005E-06, 2.6558000000000005E-06, , 
DataValue, -0.46, -2.7676000000000004E-06, 2.7676000000000004E-06, , 
DataValue, -0.47000000000000003, -2.9027E-06, 2.9027E-06, , 
DataValue, -0.48000000000000004, -3.0336000000000005E-06, 3.0336000000000005E-06, , 
DataValue, -0.49000000000000005, -3.2842000000000003E-06, 3.2842000000000003E-06, , 
DataValue, -0.5, -3.1695000000000003E-06, 3.1695000000000003E-06, , 
DataValue, -0.51, -3.4810000000000002E-06, 3.4810000000000002E-06, , 
DataValue, -0.52, -3.6854000000000003E-06, 3.6854000000000003E-06, , 
DataValue, -0.53, -3.7376000000000004E-06, 3.7376000000000004E-06, , 
DataValue, -0.54, -4.0287E-06, 4.0287E-06, , 
DataValue, -0.55, -4.2254E-06, 4.2254E-06, , 
DataValue, -0.56, -4.3376000000000006E-06, 4.3376000000000006E-06, , 
DataValue, -0.57000000000000006, -4.3255E-06, 4.3255E-06, , 
DataValue, -0.58000000000000007, -4.7082E-06, 4.7082E-06, , 
DataValue, -0.59000000000000008, -4.9473000000000009E-06, 4.9473000000000009E-06, , 
DataValue, -0.6, -5.0703E-06, 5.0703E-06, , 
DataValue, -0.61, -5.4684000000000009E-06, 5.4684000000000009E-06, , 
DataValue, -0.62, -5.1294E-06, 5.1294E-06, , 
DataValue, -0.63, -5.6344000000000006E-06, 5.6344000000000006E-06, , 
DataValue, -0.64, -6.0077000000000009E-06, 6.0077000000000009E-06, , 
DataValue, -0.65, -5.757400000000001E-06, 5.757400000000001E-06, , 
DataValue, -0.66, -6.1826000000000007E-06, 6.1826000000000007E-06, , 
DataValue, -0.67, -6.2300000000000005E-06, 6.2300000000000005E-06, , 
DataValue, -0.68, -6.702E-06, 6.702E-06, , 
DataValue, -0.69000000000000006, -6.7928E-06, 6.7928E-06, , 
DataValue, -0.70000000000000007, -6.546600000000001E-06, 6.546600000000001E-06, , 
DataValue, -0.71000000000000008, -8.2578E-06, 8.2578E-06, , 
DataValue, -0.72000000000000008, -8.3841000000000016E-06, 8.3841000000000016E-06, , 
DataValue, -0.73, -8.5104E-06, 8.5104E-06, , 
DataValue, -0.74, -5.3827E-06, 5.3827E-06, , 
DataValue, -0.75, -7.0780000000000007E-06, 7.0780000000000007E-06, , 
DataValue, -0.76, -6.6739000000000006E-06, 6.6739000000000006E-06, , 
DataValue, -0.77, -3.7058000000000006E-06, 3.7058000000000006E-06, , 
DataValue, -0.78, -3.6657000000000003E-06, 3.6657000000000003E-06, , 
DataValue, -0.79, -3.4133000000000004E-06, 3.4133000000000004E-06, , 
DataValue, -0.8, -3.6357E-06, 3.6357E-06, , 
DataValue, -0.81, -4.0251000000000006E-06, 4.0251000000000006E-06, , 
DataValue, -0.82000000000000006, -1.2600000000000002E-06, 1.2600000000000002E-06, , 
DataValue, -0.83000000000000007, -2.1566000000000002E-06, 2.1566000000000002E-06, , 
DataValue, -0.84000000000000008, -2.2312000000000003E-06, 2.2312000000000003E-06, , 
DataValue, -0.85000000000000009, -2.3351000000000003E-06, 2.3351000000000003E-06, , 
DataValue, -0.86, -2.3632E-06, 2.3632E-06, , 
DataValue, -0.87, -2.3233000000000003E-06, 2.3233000000000003E-06, , 
DataValue, -0.88, -2.3555E-06, 2.3555E-06, , 
DataValue, -0.89, -2.3827E-06, 2.3827E-06, , 
DataValue, -0.9, -1.8950000000000002E-07, 1.8950000000000002E-07, , 
DataValue, -0.91, -2.1052E-07, 2.1052E-07, , 
DataValue, -0.92, -1.975E-07, 1.975E-07, , 
DataValue, -0.93, -2.0822E-07, 2.0822E-07, , 
DataValue, -0.94000000000000006, -2.2438E-07, 2.2438E-07, , 
DataValue, -0.95000000000000007, -2.2244E-07, 2.2244E-07, , 
DataValue, -0.96000000000000008, -2.386E-07, 2.386E-07, , 
DataValue, -0.97000000000000008, -2.2795999999999999E-07, 2.2795999999999999E-07, , 
DataValue, -0.98000000000000009, -2.4864E-07, 2.4864E-07, , 
DataValue, -0.9900000000000001, -2.5654E-07, 2.5654E-07, , 
DataValue, -1, -3.3622E-07, 3.3622E-07, , 
DataValue, -1.01, -3.6438E-07, 3.6438E-07, , 
DataValue, -1.02, -4.0272E-07, 4.0272E-07, , 
DataValue, -1.03, -5.2162E-07, 5.2162E-07, , 
DataValue, -1.04, -4.475E-07, 4.475E-07, , 
DataValue, -1.05, -4.234E-07, 4.234E-07, , 
DataValue, -1.06, -6.4148E-07, 6.4148E-07, , 
DataValue, -1.07, -5.142E-07, 5.142E-07, , 
DataValue, -1.08, -5.1468E-07, 5.1468E-07, , 
DataValue, -1.09, -5.7534E-07, 5.7534E-07, , 
DataValue, -1.1, -6.2112E-07, 6.2112E-07, , 
DataValue, -1.11, -6.5054E-07, 6.5054E-07, , 
DataValue, -1.12, -1.997E-07, 1.997E-07, , 
DataValue, -1.1300000000000001, -2.0964E-07, 2.0964E-07, , 
DataValue, -1.1400000000000001, -2.0918E-07, 2.0918E-07, , 
DataValue, -1.1500000000000001, -2.1376E-07, 2.1376E-07, , 
DataValue, -1.1600000000000001, -2.1663999999999999E-07, 2.1663999999999999E-07, , 
DataValue, -1.1700000000000002, -2.0914E-07, 2.0914E-07, , 
DataValue, -1.1800000000000002, -2.2176E-07, 2.2176E-07, , 
DataValue, -1.19, -2.3633999999999998E-07, 2.3633999999999998E-07, , 
DataValue, -1.2, -2.4687E-06, 2.4687E-06, , 
DataValue, -1.21, -2.0782000000000003E-06, 2.0782000000000003E-06, , 
DataValue, -1.22, -1.3649999999999998E-08, 1.3649999999999998E-08, , 
DataValue, -1.23, -1.5282799999999998E-08, 1.5282799999999998E-08, , 
DataValue, -1.24, -1.62802E-08, 1.62802E-08, , 
DataValue, -1.25, -1.3346599999999999E-08, 1.3346599999999999E-08, , 
DataValue, -1.26, -1.2419999999999998E-08, 1.2419999999999998E-08, , 
DataValue, -1.27, -1.4752399999999999E-08, 1.4752399999999999E-08, , 
DataValue, -1.28, -1.4097399999999999E-08, 1.4097399999999999E-08, , 
DataValue, -1.29, -1.73104E-08, 1.73104E-08, , 
DataValue, -1.3, -1.77684E-08, 1.77684E-08, , 
DataValue, -1.31, -1.6673399999999998E-08, 1.6673399999999998E-08, , 
DataValue, -1.32, -2.0173399999999997E-08, 2.0173399999999997E-08, , 
DataValue, -1.33, -2.27196E-08, 2.27196E-08, , 
DataValue, -1.34, -2.0418799999999998E-08, 2.0418799999999998E-08, , 
DataValue, -1.35, -1.9938199999999997E-08, 1.9938199999999997E-08, , 
DataValue, -1.36, -2.1796999999999997E-08, 2.1796999999999997E-08, , 
DataValue, -1.37, -2.59652E-08, 2.59652E-08, , 
DataValue, -1.3800000000000001, -2.6392799999999996E-08, 2.6392799999999996E-08, , 
DataValue, -1.3900000000000001, -2.9028599999999996E-08, 2.9028599999999996E-08, , 
DataValue, -1.4000000000000001, -3.3949999999999996E-08, 3.3949999999999996E-08, , 
DataValue, -1.4100000000000001, -2.9489199999999998E-08, 2.9489199999999998E-08, , 
DataValue, -1.4200000000000002, -3.6403199999999996E-08, 3.6403199999999996E-08, , 
DataValue, -1.4300000000000002, -3.3384199999999994E-08, 3.3384199999999994E-08, , 
DataValue, -1.4400000000000002, -3.6560199999999995E-08, 3.6560199999999995E-08, , 
DataValue, -1.4500000000000002, -4.4760799999999995E-08, 4.4760799999999995E-08, , 
DataValue, -1.46, -4.9551199999999996E-08, 4.9551199999999996E-08, , 
DataValue, -1.47, -6.9891999999999988E-08, 6.9891999999999988E-08, , 
DataValue, -1.48, -5.4770999999999995E-08, 5.4770999999999995E-08, , 
DataValue, -1.49, -5.7433799999999992E-08, 5.7433799999999992E-08, , 
DataValue, -1.5, -5.7504799999999994E-08, 5.7504799999999994E-08, , 
DataValue, -1.51, -5.5649799999999994E-08, 5.5649799999999994E-08, , 
DataValue, -1.52, -6.25566E-08, 6.25566E-08, , 
DataValue, -1.53, -6.5452599999999989E-08, 6.5452599999999989E-08, , 
DataValue, -1.54, -7.0065799999999989E-08, 7.0065799999999989E-08, , 
DataValue, -1.55, -1.7704E-07, 1.7704E-07, , 
DataValue, -1.56, -1.9182E-07, 1.9182E-07, , 
DataValue, -1.57, -1.0526E-06, 1.0526E-06, , 
DataValue, -1.58, -1.0536000000000002E-06, 1.0536000000000002E-06, , 
DataValue, -1.59, -1.0924000000000001E-06, 1.0924000000000001E-06, , 
DataValue, -1.6, -9.7390000000000011E-07, 9.7390000000000011E-07, , 
DataValue, -1.61, -9.8778E-07, 9.8778E-07, , 
DataValue, -1.62, -9.9766E-07, 9.9766E-07, , 
DataValue, -1.6300000000000001, -1.0425E-06, 1.0425E-06, , 
DataValue, -1.6400000000000001, -6.6200000000000008E-07, 6.6200000000000008E-07, , 
DataValue, -1.6500000000000001, -5.5138E-07, 5.5138E-07, , 
DataValue, -1.6600000000000001, -5.0656E-07, 5.0656E-07, , 
DataValue, -1.6700000000000002, -3.5329999999999997E-07, 3.5329999999999997E-07, , 
DataValue, -1.6800000000000002, -3.8583999999999997E-07, 3.8583999999999997E-07, , 
DataValue, -1.6900000000000002, -3.4414E-07, 3.4414E-07, , 
DataValue, -1.7000000000000002, -3.8854E-07, 3.8854E-07, , 
DataValue, -1.7100000000000002, -3.9856E-07, 3.9856E-07, , 
DataValue, -1.72, -4.1832E-07, 4.1832E-07, , 
DataValue, -1.73, -4.1375999999999997E-07, 4.1375999999999997E-07, , 
DataValue, -1.74, -4.2094E-07, 4.2094E-07, , 
DataValue, -1.75, -4.3006E-07, 4.3006E-07, , 
DataValue, -1.76, -4.6259999999999997E-07, 4.6259999999999997E-07, , 
DataValue, -1.77, -5.989E-07, 5.989E-07, , 
DataValue, -1.78, -6.4598E-07, 6.4598E-07, , 
DataValue, -1.79, -7.55E-07, 7.55E-07, , 
DataValue, -1.8, -6.8682E-07, 6.8682E-07, , 
DataValue, -1.81, -7.2674E-07, 7.2674E-07, , 
DataValue, -1.82, -8.445E-07, 8.445E-07, , 
DataValue, -1.83, -8.4736E-07, 8.4736E-07, , 
DataValue, -1.84, -8.381E-07, 8.381E-07, , 
DataValue, -1.85, -7.5442E-07, 7.5442E-07, , 
DataValue, -1.86, -7.0364E-07, 7.0364E-07, , 
DataValue, -1.87, -1.0821E-06, 1.0821E-06, , 
DataValue, -1.8800000000000001, -2.07228E-08, 2.07228E-08, , 
DataValue, -1.8900000000000001, -1.6553999999999997E-08, 1.6553999999999997E-08, , 
DataValue, -1.9000000000000001, -2.13528E-08, 2.13528E-08, , 
DataValue, -1.9100000000000001, -1.63036E-08, 1.63036E-08, , 
DataValue, -1.9200000000000002, -1.67122E-08, 1.67122E-08, , 
DataValue, -1.9300000000000002, -1.52014E-08, 1.52014E-08, , 
DataValue, -1.9400000000000002, -1.3099999999999998E-08, 1.3099999999999998E-08, , 
DataValue, -1.9500000000000002, -1.1633999999999999E-08, 1.1633999999999999E-08, , 
DataValue, -1.9600000000000002, -1.16022E-08, 1.16022E-08, , 
DataValue, -1.9700000000000002, -1.12838E-08, 1.12838E-08, , 
DataValue, -1.9800000000000002, -1.4029599999999999E-08, 1.4029599999999999E-08, , 
DataValue, -1.99, -1.58374E-08, 1.58374E-08, , 
DataValue, -2, -4.6587399999999994E-08, 4.6587399999999994E-08, , 
DataValue, -2, -9.364E-08, 9.364E-08, , 
DataValue, -1.99, -1.0348E-07, 1.0348E-07, , 
DataValue, -1.9800000000000002, -7.6838799999999993E-08, 7.6838799999999993E-08, , 
DataValue, -1.9700000000000002, -7.8364999999999987E-08, 7.8364999999999987E-08, , 
DataValue, -1.9600000000000002, -7.8071799999999988E-08, 7.8071799999999988E-08, , 
DataValue, -1.9500000000000002, -7.7956599999999993E-08, 7.7956599999999993E-08, , 
DataValue, -1.9400000000000002, -7.9197399999999986E-08, 7.9197399999999986E-08, , 
DataValue, -1.9300000000000002, -8.81028E-08, 8.81028E-08, , 
DataValue, -1.9200000000000002, -9.7518999999999988E-08, 9.7518999999999988E-08, , 
DataValue, -1.9100000000000001, -6.3331E-08, 6.3331E-08, , 
DataValue, -1.9000000000000001, -8.69508E-08, 8.69508E-08, , 
DataValue, -1.8900000000000001, -8.2016799999999988E-08, 8.2016799999999988E-08, , 
DataValue, -1.8800000000000001, -7.84168E-08, 7.84168E-08, , 
DataValue, -1.87, -8.7838399999999991E-08, 8.7838399999999991E-08, , 
