
SetupTitle, ExtFET - NEG RESET BE-2.0V
PrimitiveTest, I/V Sweep
TestParameter, Context.MainFrame, B1500A
TestParameter, Channel.UnitType, SMU, SMU, SMU
TestParameter, Channel.Unit, SMU2:HR, SMU4:HR, SMU3:HR
TestParameter, Channel.IName, I_TE, I_BE, I_G
TestParameter, Channel.VName, V_TE, V_BE, V_G
TestParameter, Channel.Mode, V, COMMON, V
TestParameter, Channel.Func, VAR1, CONST, CONST
TestParameter, Channel.Index, 
TestParameter, Channel.Time, 
TestParameter, Measurement.Port.Unit, SMU2:HR, SMU4:HR, SMU3:HR
TestParameter, Measurement.Port.SeriesResistor, NONE, NONE, NONE
TestParameter, Measurement.Port.Filter, ON, ON, ON
TestParameter, Measurement.Port.OutputVoltageComparison, 0, 0, 0
TestParameter, Measurement.Primary.Locus, Double
TestParameter, Measurement.Primary.Scale, LINEAR
TestParameter, Measurement.Primary.Start, 0
TestParameter, Measurement.Primary.Stop, -2
TestParameter, Measurement.Primary.Step, -0.01
TestParameter, Measurement.Primary.Compliance, 0.01
TestParameter, Measurement.Primary.PowerCompliance, 0
TestParameter, Measurement.Aborting.Condition, CONTINUE AT ANY
TestParameter, Measurement.PostOutput.Value, START
TestParameter, Measurement.PostOutput.Retention, OFF
TestParameter, Measurement.Bias.Source, 0, 0, 2
TestParameter, Measurement.Bias.Compliance, 0.01, 0.1, 0.0001
TestParameter, Measurement.Monitor.Unit, SMU2:HR, SMU4:HR, SMU3:HR
TestParameter, Measurement.Monitor.Adc, HR ADC, HR ADC, HR ADC
TestParameter, Measurement.Monitor.Measurement, Compliance Side, Compliance Side, Compliance Side
TestParameter, Measurement.Monitor.RangingMode, LIMITED, LIMITED, LIMITED
TestParameter, Measurement.Monitor.RangeBoundary, 1nA, 1nA, 1nA
TestParameter, Measurement.Monitor.RangeRating, BY FULL RANGE, BY FULL RANGE, BY FULL RANGE
TestParameter, Measurement.Monitor.RangeRatingCoeff, 50, 50, 50
TestParameter, Measurement.Timing.Hold, 0
TestParameter, Measurement.Timing.Delay, 0
TestParameter, Measurement.Adc.HighSpeed.Mode, AUTO
TestParameter, Measurement.Adc.HighSpeed.Coeff, 1
TestParameter, Measurement.Adc.HighResolution.AutoZero, OFF
TestParameter, Measurement.Adc.HighResolution.Mode, AUTO
TestParameter, Measurement.Adc.HighResolution.Coeff, 6
TestParameter, Measurement.WaitTime.Source.Coeff, 1
TestParameter, Measurement.WaitTime.Source.Offset, 0
TestParameter, Measurement.WaitTime.Monitor.Coeff, 1
TestParameter, Measurement.WaitTime.Monitor.Offset, 0
TestParameter, Function.User.Name, absITE
TestParameter, Function.User.Unit, A
TestParameter, Function.User.Definition, abs(I_TE)
TestParameter, Output.Graph.Enabled, true
TestParameter, Output.Graph.AutoScaling, false
TestParameter, Output.Graph.XAxis.Data, V_TE
TestParameter, Output.Graph.XAxis.Scale, Linear
TestParameter, Output.Graph.XAxis.Left, 0
TestParameter, Output.Graph.XAxis.Right, 10
TestParameter, Output.Graph.XAxis.RunTimeAutoScale, true
TestParameter, Output.Graph.YAxis.Data, absITE
TestParameter, Output.Graph.YAxis.Scale, Log
TestParameter, Output.Graph.YAxis.Bottom, 0
TestParameter, Output.Graph.YAxis.Top, 1
TestParameter, Output.Graph.YAxis.Group, 
TestParameter, Output.Graph.YAxis.RunTimeAutoScale, true
TestParameter, Output.List.Data, V1, I2abs
TestParameter, AutoAnalysis.Interpolation, false
TestParameter, AutoAnalysis.Var2StepCount, 1
TestParameter, AutoAnalysis.Var2StepScript, 
TestParameter, AutoAnalysis.Line1.Enabled, false
TestParameter, AutoAnalysis.Line1.Type, 1
TestParameter, AutoAnalysis.Line1.Fix, True
TestParameter, AutoAnalysis.Line1.YAxis, 0
TestParameter, AutoAnalysis.Line1.Point1.Type, 0
TestParameter, AutoAnalysis.Line1.Point1.XY.X, 
TestParameter, AutoAnalysis.Line1.Point1.XY.Y, 
TestParameter, AutoAnalysis.Line1.Point1.Data.Var, 
TestParameter, AutoAnalysis.Line1.Point1.Data.Condition, 
TestParameter, AutoAnalysis.Line1.Point1.Data.Start, false
TestParameter, AutoAnalysis.Line1.Point1.Data.StartVar, 
TestParameter, AutoAnalysis.Line1.Point1.Data.StartCondition, 
TestParameter, AutoAnalysis.Line1.Point2.Type, 0
TestParameter, AutoAnalysis.Line1.Point2.XY.X, 
TestParameter, AutoAnalysis.Line1.Point2.XY.Y, 
TestParameter, AutoAnalysis.Line1.Point2.Data.Var, 
TestParameter, AutoAnalysis.Line1.Point2.Data.Condition, 
TestParameter, AutoAnalysis.Line1.Point2.Data.Start, false
TestParameter, AutoAnalysis.Line1.Point2.Data.StartVar, 
TestParameter, AutoAnalysis.Line1.Point2.Data.StartCondition, 
TestParameter, AutoAnalysis.Line1.GradientExpr, 0
TestParameter, AutoAnalysis.Line2.Enabled, false
TestParameter, AutoAnalysis.Line2.Type, 1
TestParameter, AutoAnalysis.Line2.Fix, True
TestParameter, AutoAnalysis.Line2.YAxis, 0
TestParameter, AutoAnalysis.Line2.Point1.Type, 0
TestParameter, AutoAnalysis.Line2.Point1.XY.X, 
TestParameter, AutoAnalysis.Line2.Point1.XY.Y, 
TestParameter, AutoAnalysis.Line2.Point1.Data.Var, 
TestParameter, AutoAnalysis.Line2.Point1.Data.Condition, 
TestParameter, AutoAnalysis.Line2.Point1.Data.Start, false
TestParameter, AutoAnalysis.Line2.Point1.Data.StartVar, 
TestParameter, AutoAnalysis.Line2.Point1.Data.StartCondition, 
TestParameter, AutoAnalysis.Line2.Point2.Type, 0
TestParameter, AutoAnalysis.Line2.Point2.XY.X, 
TestParameter, AutoAnalysis.Line2.Point2.XY.Y, 
TestParameter, AutoAnalysis.Line2.Point2.Data.Var, 
TestParameter, AutoAnalysis.Line2.Point2.Data.Condition, 
TestParameter, AutoAnalysis.Line2.Point2.Data.Start, false
TestParameter, AutoAnalysis.Line2.Point2.Data.StartVar, 
TestParameter, AutoAnalysis.Line2.Point2.Data.StartCondition, 
TestParameter, AutoAnalysis.Line2.GradientExpr, 0
TestParameter, AutoAnalysis.Marker.Enabled, false
TestParameter, AutoAnalysis.Marker.Data.Var, 
TestParameter, AutoAnalysis.Marker.Data.Condition, 
TestParameter, AutoAnalysis.Marker.Data.Start, false
TestParameter, AutoAnalysis.Marker.Data.StartVar, 
TestParameter, AutoAnalysis.Marker.Data.StartCondition, 
MetaData, TestRecord.EntryPoint, true
MetaData, TestRecord.RecordTime, 04/14/2020 20:32:08
MetaData, TestRecord.TestTarget, InGaAs_1_W_BE_FijiHfO2_NW-G05
MetaData, TestRecord.IterationIndex, 89
MetaData, TestRecord.Preservation, true
MetaData, TestRecord.Flag, 
MetaData, TestRecord.Remarks, 
MetaData, TestRecord.LinkKey, 5942ae6d-1d0b-4263-956a-c3cf3465aca6
MetaData, TestRecord.Parameters, 
Dimension1, 402, 402, 402, 402, 402
Dimension2, 1, 1, 1, 1, 1
DataName, V_TE, I_TE, absITE, V1, I2abs
DataValue, 0, 2.4403000000000004E-10, 2.4403000000000004E-10, , 
DataValue, -0.01, -4.23714E-08, 4.23714E-08, , 
DataValue, -0.02, -8.77834E-08, 8.77834E-08, , 
DataValue, -0.030000000000000002, -1.2942E-07, 1.2942E-07, , 
DataValue, -0.04, -1.8523999999999998E-07, 1.8523999999999998E-07, , 
DataValue, -0.05, -2.2288E-07, 2.2288E-07, , 
DataValue, -0.060000000000000005, -2.7542E-07, 2.7542E-07, , 
DataValue, -0.07, -3.326E-07, 3.326E-07, , 
DataValue, -0.08, -3.6862E-07, 3.6862E-07, , 
DataValue, -0.090000000000000011, -4.2668E-07, 4.2668E-07, , 
DataValue, -0.1, -4.8182E-07, 4.8182E-07, , 
DataValue, -0.11, -5.2308E-07, 5.2308E-07, , 
DataValue, -0.12000000000000001, -5.6146E-07, 5.6146E-07, , 
DataValue, -0.13, -6.1768E-07, 6.1768E-07, , 
DataValue, -0.14, -6.906E-07, 6.906E-07, , 
DataValue, -0.15, -7.533E-07, 7.533E-07, , 
DataValue, -0.16, -8.0744E-07, 8.0744E-07, , 
DataValue, -0.17, -8.7149999999999994E-07, 8.7149999999999994E-07, , 
DataValue, -0.18000000000000002, -9.8166E-07, 9.8166E-07, , 
DataValue, -0.19, -1.057E-06, 1.057E-06, , 
DataValue, -0.2, -1.1190000000000002E-06, 1.1190000000000002E-06, , 
DataValue, -0.21000000000000002, -1.2480000000000002E-06, 1.2480000000000002E-06, , 
DataValue, -0.22, -1.2925000000000001E-06, 1.2925000000000001E-06, , 
DataValue, -0.23, -1.3411000000000002E-06, 1.3411000000000002E-06, , 
DataValue, -0.24000000000000002, -1.4868E-06, 1.4868E-06, , 
DataValue, -0.25, -1.6070000000000002E-06, 1.6070000000000002E-06, , 
DataValue, -0.26, -1.6477000000000001E-06, 1.6477000000000001E-06, , 
DataValue, -0.27, -1.7468000000000002E-06, 1.7468000000000002E-06, , 
DataValue, -0.28, -1.8574000000000002E-06, 1.8574000000000002E-06, , 
DataValue, -0.29000000000000004, -1.9566E-06, 1.9566E-06, , 
DataValue, -0.3, -2.1399E-06, 2.1399E-06, , 
DataValue, -0.31, -2.2650000000000003E-06, 2.2650000000000003E-06, , 
DataValue, -0.32, -2.4153000000000004E-06, 2.4153000000000004E-06, , 
DataValue, -0.33, -2.4450000000000003E-06, 2.4450000000000003E-06, , 
DataValue, -0.34, -2.5614E-06, 2.5614E-06, , 
DataValue, -0.35000000000000003, -2.8124000000000004E-06, 2.8124000000000004E-06, , 
DataValue, -0.36000000000000004, -2.8966000000000004E-06, 2.8966000000000004E-06, , 
DataValue, -0.37, -2.9499000000000003E-06, 2.9499000000000003E-06, , 
DataValue, -0.38, -3.0903000000000003E-06, 3.0903000000000003E-06, , 
DataValue, -0.39, -3.3006000000000002E-06, 3.3006000000000002E-06, , 
DataValue, -0.4, -3.0283000000000003E-06, 3.0283000000000003E-06, , 
DataValue, -0.41000000000000003, -3.7023000000000005E-06, 3.7023000000000005E-06, , 
DataValue, -0.42000000000000004, -3.6752000000000004E-06, 3.6752000000000004E-06, , 
DataValue, -0.43, -3.9588E-06, 3.9588E-06, , 
DataValue, -0.44, -4.1600000000000008E-06, 4.1600000000000008E-06, , 
DataValue, -0.45, -4.4563000000000009E-06, 4.4563000000000009E-06, , 
DataValue, -0.46, -4.5676E-06, 4.5676E-06, , 
DataValue, -0.47000000000000003, -4.8557000000000008E-06, 4.8557000000000008E-06, , 
DataValue, -0.48000000000000004, -5.0465000000000007E-06, 5.0465000000000007E-06, , 
DataValue, -0.49000000000000005, -5.3801E-06, 5.3801E-06, , 
DataValue, -0.5, -5.9603E-06, 5.9603E-06, , 
DataValue, -0.51, -6.1065000000000007E-06, 6.1065000000000007E-06, , 
DataValue, -0.52, -6.1061000000000007E-06, 6.1061000000000007E-06, , 
DataValue, -0.53, -6.2640000000000005E-06, 6.2640000000000005E-06, , 
DataValue, -0.54, -5.9876000000000009E-06, 5.9876000000000009E-06, , 
DataValue, -0.55, -6.5295000000000008E-06, 6.5295000000000008E-06, , 
DataValue, -0.56, -7.0871E-06, 7.0871E-06, , 
DataValue, -0.57000000000000006, -2.7505E-06, 2.7505E-06, , 
DataValue, -0.58000000000000007, -2.7610000000000003E-06, 2.7610000000000003E-06, , 
DataValue, -0.59000000000000008, -1.9507000000000002E-06, 1.9507000000000002E-06, , 
DataValue, -0.6, -3.1601000000000005E-06, 3.1601000000000005E-06, , 
DataValue, -0.61, -1.5153000000000001E-06, 1.5153000000000001E-06, , 
DataValue, -0.62, -3.7884000000000004E-06, 3.7884000000000004E-06, , 
DataValue, -0.63, -2.8157000000000004E-06, 2.8157000000000004E-06, , 
DataValue, -0.64, -1.3128E-07, 1.3128E-07, , 
DataValue, -0.65, -1.3358E-07, 1.3358E-07, , 
DataValue, -0.66, -1.4656E-07, 1.4656E-07, , 
DataValue, -0.67, -1.5981999999999999E-07, 1.5981999999999999E-07, , 
DataValue, -0.68, -1.471E-07, 1.471E-07, , 
DataValue, -0.69000000000000006, -1.6394E-07, 1.6394E-07, , 
DataValue, -0.70000000000000007, -1.6032E-07, 1.6032E-07, , 
DataValue, -0.71000000000000008, -1.6023999999999998E-07, 1.6023999999999998E-07, , 
DataValue, -0.72000000000000008, -1.9982E-07, 1.9982E-07, , 
DataValue, -0.73, -1.9182E-07, 1.9182E-07, , 
DataValue, -0.74, -1.8406E-07, 1.8406E-07, , 
DataValue, -0.75, -2.1133999999999999E-07, 2.1133999999999999E-07, , 
DataValue, -0.76, -2.1856E-07, 2.1856E-07, , 
DataValue, -0.77, -2.2562E-07, 2.2562E-07, , 
DataValue, -0.78, -1.9352E-07, 1.9352E-07, , 
DataValue, -0.79, -2.0692E-07, 2.0692E-07, , 
DataValue, -0.8, -2.1845999999999999E-07, 2.1845999999999999E-07, , 
DataValue, -0.81, -2.306E-07, 2.306E-07, , 
DataValue, -0.82000000000000006, -2.022E-07, 2.022E-07, , 
DataValue, -0.83000000000000007, -2.4552E-07, 2.4552E-07, , 
DataValue, -0.84000000000000008, -2.6318E-07, 2.6318E-07, , 
DataValue, -0.85000000000000009, -2.6856E-07, 2.6856E-07, , 
DataValue, -0.86, -2.6164E-07, 2.6164E-07, , 
DataValue, -0.87, -2.6632E-07, 2.6632E-07, , 
DataValue, -0.88, -2.6666E-07, 2.6666E-07, , 
DataValue, -0.89, -2.7374E-07, 2.7374E-07, , 
DataValue, -0.9, -2.6176E-07, 2.6176E-07, , 
DataValue, -0.91, -1.9945E-06, 1.9945E-06, , 
DataValue, -0.92, -2.2087E-06, 2.2087E-06, , 
DataValue, -0.93, -2.1487000000000003E-06, 2.1487000000000003E-06, , 
DataValue, -0.94000000000000006, -2.2805E-06, 2.2805E-06, , 
DataValue, -0.95000000000000007, -2.3621000000000002E-06, 2.3621000000000002E-06, , 
DataValue, -0.96000000000000008, -2.6191000000000005E-06, 2.6191000000000005E-06, , 
DataValue, -0.97000000000000008, -2.3236E-06, 2.3236E-06, , 
DataValue, -0.98000000000000009, -2.7632E-06, 2.7632E-06, , 
DataValue, -0.9900000000000001, -2.3553E-06, 2.3553E-06, , 
DataValue, -1, -2.6329000000000002E-06, 2.6329000000000002E-06, , 
DataValue, -1.01, -1.6156E-07, 1.6156E-07, , 
DataValue, -1.02, -1.5208E-07, 1.5208E-07, , 
DataValue, -1.03, -1.5504E-07, 1.5504E-07, , 
DataValue, -1.04, -1.5636E-07, 1.5636E-07, , 
DataValue, -1.05, -1.6752E-07, 1.6752E-07, , 
DataValue, -1.06, -1.6762E-07, 1.6762E-07, , 
DataValue, -1.07, -1.7366E-07, 1.7366E-07, , 
DataValue, -1.08, -1.8304E-07, 1.8304E-07, , 
DataValue, -1.09, -1.8726E-07, 1.8726E-07, , 
DataValue, -1.1, -1.9044E-07, 1.9044E-07, , 
DataValue, -1.11, -1.9172E-07, 1.9172E-07, , 
DataValue, -1.12, -1.9235999999999998E-07, 1.9235999999999998E-07, , 
DataValue, -1.1300000000000001, -1.8913999999999999E-07, 1.8913999999999999E-07, , 
DataValue, -1.1400000000000001, -1.9606E-07, 1.9606E-07, , 
DataValue, -1.1500000000000001, -2.1048E-07, 2.1048E-07, , 
DataValue, -1.1600000000000001, -2.2842E-07, 2.2842E-07, , 
DataValue, -1.1700000000000002, -2.2636E-07, 2.2636E-07, , 
DataValue, -1.1800000000000002, -2.381E-07, 2.381E-07, , 
DataValue, -1.19, -2.4502E-07, 2.4502E-07, , 
DataValue, -1.2, -2.6198E-07, 2.6198E-07, , 
DataValue, -1.21, -2.5738E-07, 2.5738E-07, , 
DataValue, -1.22, -2.664E-07, 2.664E-07, , 
DataValue, -1.23, -2.6935999999999997E-07, 2.6935999999999997E-07, , 
DataValue, -1.24, -2.7612E-07, 2.7612E-07, , 
DataValue, -1.25, -2.856E-07, 2.856E-07, , 
DataValue, -1.26, -2.9814E-07, 2.9814E-07, , 
DataValue, -1.27, -3.0546E-07, 3.0546E-07, , 
DataValue, -1.28, -2.6326E-07, 2.6326E-07, , 
DataValue, -1.29, -3.0284E-07, 3.0284E-07, , 
DataValue, -1.3, -2.9136E-07, 2.9136E-07, , 
DataValue, -1.31, -2.9832E-07, 2.9832E-07, , 
DataValue, -1.32, -7.1039999999999993E-08, 7.1039999999999993E-08, , 
DataValue, -1.33, -7.6305199999999992E-08, 7.6305199999999992E-08, , 
DataValue, -1.34, -7.3525999999999993E-08, 7.3525999999999993E-08, , 
DataValue, -1.35, -8.5891E-08, 8.5891E-08, , 
DataValue, -1.36, -3.604E-08, 3.604E-08, , 
DataValue, -1.37, -4.424E-08, 4.424E-08, , 
DataValue, -1.3800000000000001, -8.742E-08, 8.742E-08, , 
DataValue, -1.3900000000000001, -1.4918E-07, 1.4918E-07, , 
DataValue, -1.4000000000000001, -1.4876E-07, 1.4876E-07, , 
DataValue, -1.4100000000000001, -1.4576E-07, 1.4576E-07, , 
DataValue, -1.4200000000000002, -1.5606E-07, 1.5606E-07, , 
DataValue, -1.4300000000000002, -1.451E-07, 1.451E-07, , 
DataValue, -1.4400000000000002, -1.6758E-07, 1.6758E-07, , 
DataValue, -1.4500000000000002, -2.2686E-07, 2.2686E-07, , 
DataValue, -1.46, -2.7452E-07, 2.7452E-07, , 
DataValue, -1.47, -2.6836E-07, 2.6836E-07, , 
DataValue, -1.48, -2.8006E-07, 2.8006E-07, , 
DataValue, -1.49, -2.482E-07, 2.482E-07, , 
DataValue, -1.5, -1.6315999999999999E-07, 1.6315999999999999E-07, , 
DataValue, -1.51, -2.0729999999999998E-07, 2.0729999999999998E-07, , 
DataValue, -1.52, -2.1276E-07, 2.1276E-07, , 
DataValue, -1.53, -1.8452E-07, 1.8452E-07, , 
DataValue, -1.54, -2.0948E-07, 2.0948E-07, , 
DataValue, -1.55, -2.3703999999999998E-07, 2.3703999999999998E-07, , 
DataValue, -1.56, -2.5074E-07, 2.5074E-07, , 
DataValue, -1.57, -4.2822E-07, 4.2822E-07, , 
DataValue, -1.58, -3.3238E-07, 3.3238E-07, , 
DataValue, -1.59, -4.3224E-07, 4.3224E-07, , 
DataValue, -1.6, -4.4116E-07, 4.4116E-07, , 
DataValue, -1.61, -3.8406E-07, 3.8406E-07, , 
DataValue, -1.62, -4.513E-07, 4.513E-07, , 
DataValue, -1.6300000000000001, -8.76938E-08, 8.76938E-08, , 
DataValue, -1.6400000000000001, -8.52404E-08, 8.52404E-08, , 
DataValue, -1.6500000000000001, -8.8152E-08, 8.8152E-08, , 
DataValue, -1.6600000000000001, -9.8402599999999989E-08, 9.8402599999999989E-08, , 
DataValue, -1.6700000000000002, -1.17E-07, 1.17E-07, , 
DataValue, -1.6800000000000002, -1.2332E-07, 1.2332E-07, , 
DataValue, -1.6900000000000002, -1.1092E-07, 1.1092E-07, , 
DataValue, -1.7000000000000002, -1.1618E-07, 1.1618E-07, , 
DataValue, -1.7100000000000002, -1.1341999999999999E-07, 1.1341999999999999E-07, , 
DataValue, -1.72, -1.6854E-07, 1.6854E-07, , 
DataValue, -1.73, -6.0448E-07, 6.0448E-07, , 
DataValue, -1.74, -4.466E-07, 4.466E-07, , 
DataValue, -1.75, -4.44E-07, 4.44E-07, , 
DataValue, -1.76, -4.2116E-07, 4.2116E-07, , 
DataValue, -1.77, -5.1242E-07, 5.1242E-07, , 
DataValue, -1.78, -4.6632E-07, 4.6632E-07, , 
DataValue, -1.79, -4.7284E-07, 4.7284E-07, , 
DataValue, -1.8, -4.7758E-07, 4.7758E-07, , 
DataValue, -1.81, -4.837E-07, 4.837E-07, , 
DataValue, -1.82, -5.6594E-07, 5.6594E-07, , 
DataValue, -1.83, -5.409E-07, 5.409E-07, , 
DataValue, -1.84, -5.4838E-07, 5.4838E-07, , 
DataValue, -1.85, -5.5378E-07, 5.5378E-07, , 
DataValue, -1.86, -5.9592E-07, 5.9592E-07, , 
DataValue, -1.87, -5.9162E-07, 5.9162E-07, , 
DataValue, -1.8800000000000001, -6.0958E-07, 6.0958E-07, , 
DataValue, -1.8900000000000001, -6.197E-07, 6.197E-07, , 
DataValue, -1.9000000000000001, -6.1764E-07, 6.1764E-07, , 
DataValue, -1.9100000000000001, -6.2988E-07, 6.2988E-07, , 
DataValue, -1.9200000000000002, -7.404E-07, 7.404E-07, , 
DataValue, -1.9300000000000002, -2.8952E-07, 2.8952E-07, , 
DataValue, -1.9400000000000002, -3.436E-07, 3.436E-07, , 
DataValue, -1.9500000000000002, -3.1178E-07, 3.1178E-07, , 
DataValue, -1.9600000000000002, -1.4888E-07, 1.4888E-07, , 
DataValue, -1.9700000000000002, -1.7246E-07, 1.7246E-07, , 
DataValue, -1.9800000000000002, -2.342E-07, 2.342E-07, , 
DataValue, -1.99, -3.6084E-07, 3.6084E-07, , 
DataValue, -2, -1.5938E-07, 1.5938E-07, , 
DataValue, -2, -1.7428E-07, 1.7428E-07, , 
DataValue, -1.99, -2.4874399999999997E-08, 2.4874399999999997E-08, , 
DataValue, -1.9800000000000002, -1.4694E-09, 1.4694E-09, , 
DataValue, -1.9700000000000002, -1.198E-09, 1.198E-09, , 
DataValue, -1.9600000000000002, -1.1215E-09, 1.1215E-09, , 
DataValue, -1.9500000000000002, -1.0997E-09, 1.0997E-09, , 
DataValue, -1.9400000000000002, -9.2787E-10, 9.2787E-10, , 
DataValue, -1.9300000000000002, -5.3805E-09, 5.3805E-09, , 
DataValue, -1.9200000000000002, -5.5377E-09, 5.5377E-09, , 
DataValue, -1.9100000000000001, -6.0273E-09, 6.0273E-09, , 
DataValue, -1.9000000000000001, -5.9034E-09, 5.9034E-09, , 
DataValue, -1.8900000000000001, -5.4609E-09, 5.4609E-09, , 
DataValue, -1.8800000000000001, -6.0548E-09, 6.0548E-09, , 
DataValue, -1.87, -5.5074E-09, 5.5074E-09, , 
DataValue, -1.86, -5.8876E-09, 5.8876E-09, , 
DataValue, -1.85, -3.0095E-09, 3.0095E-09, , 
DataValue, -1.84, -3.2211E-09, 3.2211E-09, , 
DataValue, -1.83, -2.7959E-09, 2.7959E-09, , 
DataValue, -1.82, -3.4909E-09, 3.4909E-09, , 
DataValue, -1.81, -3.4058E-09, 3.4058E-09, , 
DataValue, -1.8, -3.69E-09, 3.69E-09, , 
DataValue, -1.79, -3.5353E-09, 3.5353E-09, , 
DataValue, -1.78, -3.7734E-09, 3.7734E-09, , 
DataValue, -1.77, -2.8838E-09, 2.8838E-09, , 
DataValue, -1.76, -1.816E-09, 1.816E-09, , 
DataValue, -1.75, -1.9275E-09, 1.9275E-09, , 
DataValue, -1.74, -1.5176E-09, 1.5176E-09, , 
DataValue, -1.73, -1.8806E-09, 1.8806E-09, , 
DataValue, -1.72, -1.6382E-09, 1.6382E-09, , 
DataValue, -1.7100000000000002, -1.6669E-09, 1.6669E-09, , 
DataValue, -1.7000000000000002, -1.5822E-09, 1.5822E-09, , 
DataValue, -1.6900000000000002, -1.4434E-09, 1.4434E-09, , 
DataValue, -1.6800000000000002, -1.4231E-09, 1.4231E-09, , 
DataValue, -1.6700000000000002, -1.389E-09, 1.389E-09, , 
