
SetupTitle, ExtFET - POS SET - VG-1.52V - TE-3.5 24u
PrimitiveTest, I/V Sweep
TestParameter, Context.MainFrame, B1500A
TestParameter, Channel.UnitType, SMU, SMU, SMU
TestParameter, Channel.Unit, SMU2:HR, SMU4:HR, SMU3:HR
TestParameter, Channel.IName, I_TE, I_BE, I_G
TestParameter, Channel.VName, V_TE, V_BE, V_G
TestParameter, Channel.Mode, V, COMMON, V
TestParameter, Channel.Func, VAR1, CONST, CONST
TestParameter, Channel.Index, 
TestParameter, Channel.Time, 
TestParameter, Measurement.Port.Unit, SMU2:HR, SMU4:HR, SMU3:HR
TestParameter, Measurement.Port.SeriesResistor, NONE, NONE, NONE
TestParameter, Measurement.Port.Filter, ON, ON, ON
TestParameter, Measurement.Port.OutputVoltageComparison, 0, 0, 0
TestParameter, Measurement.Primary.Locus, Double
TestParameter, Measurement.Primary.Scale, LINEAR
TestParameter, Measurement.Primary.Start, 0
TestParameter, Measurement.Primary.Stop, 3.5
TestParameter, Measurement.Primary.Step, 0.01
TestParameter, Measurement.Primary.Compliance, 2.4E-05
TestParameter, Measurement.Primary.PowerCompliance, 0
TestParameter, Measurement.Aborting.Condition, CONTINUE AT ANY
TestParameter, Measurement.PostOutput.Value, START
TestParameter, Measurement.PostOutput.Retention, OFF
TestParameter, Measurement.Bias.Source, 0, 0, 1.52
TestParameter, Measurement.Bias.Compliance, 2.4E-05, 0.1, 0.0001
TestParameter, Measurement.Monitor.Unit, SMU2:HR, SMU4:HR, SMU3:HR
TestParameter, Measurement.Monitor.Adc, HR ADC, HR ADC, HR ADC
TestParameter, Measurement.Monitor.Measurement, Compliance Side, Compliance Side, Compliance Side
TestParameter, Measurement.Monitor.RangingMode, LIMITED, LIMITED, LIMITED
TestParameter, Measurement.Monitor.RangeBoundary, 1nA, 1nA, 1nA
TestParameter, Measurement.Monitor.RangeRating, BY FULL RANGE, BY FULL RANGE, BY FULL RANGE
TestParameter, Measurement.Monitor.RangeRatingCoeff, 50, 50, 50
TestParameter, Measurement.Timing.Hold, 0
TestParameter, Measurement.Timing.Delay, 0
TestParameter, Measurement.Adc.HighSpeed.Mode, AUTO
TestParameter, Measurement.Adc.HighSpeed.Coeff, 1
TestParameter, Measurement.Adc.HighResolution.AutoZero, OFF
TestParameter, Measurement.Adc.HighResolution.Mode, AUTO
TestParameter, Measurement.Adc.HighResolution.Coeff, 6
TestParameter, Measurement.WaitTime.Source.Coeff, 1
TestParameter, Measurement.WaitTime.Source.Offset, 0
TestParameter, Measurement.WaitTime.Monitor.Coeff, 1
TestParameter, Measurement.WaitTime.Monitor.Offset, 0
TestParameter, Function.User.Name, absITE
TestParameter, Function.User.Unit, A
TestParameter, Function.User.Definition, abs(I_TE)
TestParameter, Output.Graph.Enabled, true
TestParameter, Output.Graph.AutoScaling, false
TestParameter, Output.Graph.XAxis.Data, V_TE
TestParameter, Output.Graph.XAxis.Scale, Linear
TestParameter, Output.Graph.XAxis.Left, 0
TestParameter, Output.Graph.XAxis.Right, 10
TestParameter, Output.Graph.XAxis.RunTimeAutoScale, true
TestParameter, Output.Graph.YAxis.Data, absITE
TestParameter, Output.Graph.YAxis.Scale, Log
TestParameter, Output.Graph.YAxis.Bottom, 0
TestParameter, Output.Graph.YAxis.Top, 1
TestParameter, Output.Graph.YAxis.Group, 
TestParameter, Output.Graph.YAxis.RunTimeAutoScale, true
TestParameter, Output.List.Data, V1, I2abs
TestParameter, AutoAnalysis.Interpolation, false
TestParameter, AutoAnalysis.Var2StepCount, 1
TestParameter, AutoAnalysis.Var2StepScript, 
TestParameter, AutoAnalysis.Line1.Enabled, false
TestParameter, AutoAnalysis.Line1.Type, 1
TestParameter, AutoAnalysis.Line1.Fix, True
TestParameter, AutoAnalysis.Line1.YAxis, 0
TestParameter, AutoAnalysis.Line1.Point1.Type, 0
TestParameter, AutoAnalysis.Line1.Point1.XY.X, 
TestParameter, AutoAnalysis.Line1.Point1.XY.Y, 
TestParameter, AutoAnalysis.Line1.Point1.Data.Var, 
TestParameter, AutoAnalysis.Line1.Point1.Data.Condition, 
TestParameter, AutoAnalysis.Line1.Point1.Data.Start, false
TestParameter, AutoAnalysis.Line1.Point1.Data.StartVar, 
TestParameter, AutoAnalysis.Line1.Point1.Data.StartCondition, 
TestParameter, AutoAnalysis.Line1.Point2.Type, 0
TestParameter, AutoAnalysis.Line1.Point2.XY.X, 
TestParameter, AutoAnalysis.Line1.Point2.XY.Y, 
TestParameter, AutoAnalysis.Line1.Point2.Data.Var, 
TestParameter, AutoAnalysis.Line1.Point2.Data.Condition, 
TestParameter, AutoAnalysis.Line1.Point2.Data.Start, false
TestParameter, AutoAnalysis.Line1.Point2.Data.StartVar, 
TestParameter, AutoAnalysis.Line1.Point2.Data.StartCondition, 
TestParameter, AutoAnalysis.Line1.GradientExpr, 0
TestParameter, AutoAnalysis.Line2.Enabled, false
TestParameter, AutoAnalysis.Line2.Type, 1
TestParameter, AutoAnalysis.Line2.Fix, True
TestParameter, AutoAnalysis.Line2.YAxis, 0
TestParameter, AutoAnalysis.Line2.Point1.Type, 0
TestParameter, AutoAnalysis.Line2.Point1.XY.X, 
TestParameter, AutoAnalysis.Line2.Point1.XY.Y, 
TestParameter, AutoAnalysis.Line2.Point1.Data.Var, 
TestParameter, AutoAnalysis.Line2.Point1.Data.Condition, 
TestParameter, AutoAnalysis.Line2.Point1.Data.Start, false
TestParameter, AutoAnalysis.Line2.Point1.Data.StartVar, 
TestParameter, AutoAnalysis.Line2.Point1.Data.StartCondition, 
TestParameter, AutoAnalysis.Line2.Point2.Type, 0
TestParameter, AutoAnalysis.Line2.Point2.XY.X, 
TestParameter, AutoAnalysis.Line2.Point2.XY.Y, 
TestParameter, AutoAnalysis.Line2.Point2.Data.Var, 
TestParameter, AutoAnalysis.Line2.Point2.Data.Condition, 
TestParameter, AutoAnalysis.Line2.Point2.Data.Start, false
TestParameter, AutoAnalysis.Line2.Point2.Data.StartVar, 
TestParameter, AutoAnalysis.Line2.Point2.Data.StartCondition, 
TestParameter, AutoAnalysis.Line2.GradientExpr, 0
TestParameter, AutoAnalysis.Marker.Enabled, false
TestParameter, AutoAnalysis.Marker.Data.Var, 
TestParameter, AutoAnalysis.Marker.Data.Condition, 
TestParameter, AutoAnalysis.Marker.Data.Start, false
TestParameter, AutoAnalysis.Marker.Data.StartVar, 
TestParameter, AutoAnalysis.Marker.Data.StartCondition, 
MetaData, TestRecord.EntryPoint, true
MetaData, TestRecord.RecordTime, 04/14/2020 20:31:21
MetaData, TestRecord.TestTarget, InGaAs_1_W_BE_FijiHfO2_NW-G05
MetaData, TestRecord.IterationIndex, 87
MetaData, TestRecord.Preservation, true
MetaData, TestRecord.Flag, 
MetaData, TestRecord.Remarks, 
MetaData, TestRecord.LinkKey, d60e83e1-0cf7-4184-867b-9c96f3077e74
MetaData, TestRecord.Parameters, 
Dimension1, 702, 702, 702, 702, 702
Dimension2, 1, 1, 1, 1, 1
DataName, V_TE, I_TE, absITE, V1, I2abs
DataValue, 0, 2.0570000000000003E-11, 2.0570000000000003E-11, , 
DataValue, 0.01, 2.07E-11, 2.07E-11, , 
DataValue, 0.02, 5.7000000000000004E-11, 5.7000000000000004E-11, , 
DataValue, 0.03, 3.007E-11, 3.007E-11, , 
DataValue, 0.04, 5.5950000000000005E-11, 5.5950000000000005E-11, , 
DataValue, 0.05, 3.7060000000000006E-11, 3.7060000000000006E-11, , 
DataValue, 0.06, 5.4690000000000007E-11, 5.4690000000000007E-11, , 
DataValue, 0.07, 4.464E-11, 4.464E-11, , 
DataValue, 0.08, 4.9370000000000006E-11, 4.9370000000000006E-11, , 
DataValue, 0.09, 5.15E-11, 5.15E-11, , 
DataValue, 0.1, 4.9900000000000003E-11, 4.9900000000000003E-11, , 
DataValue, 0.11, 6.055E-11, 6.055E-11, , 
DataValue, 0.12, 4.8790000000000007E-11, 4.8790000000000007E-11, , 
DataValue, 0.13, 6.52E-11, 6.52E-11, , 
DataValue, 0.14, 3.365E-11, 3.365E-11, , 
DataValue, 0.15, 5.4970000000000005E-11, 5.4970000000000005E-11, , 
DataValue, 0.16, 3.406E-11, 3.406E-11, , 
DataValue, 0.17, 5.6350000000000004E-11, 5.6350000000000004E-11, , 
DataValue, 0.18, 3.744E-11, 3.744E-11, , 
DataValue, 0.19, 5.6380000000000003E-11, 5.6380000000000003E-11, , 
DataValue, 0.2, 3.566E-11, 3.566E-11, , 
DataValue, 0.21, 5.6610000000000005E-11, 5.6610000000000005E-11, , 
DataValue, 0.22, 3.402E-11, 3.402E-11, , 
DataValue, 0.23, 5.92E-11, 5.92E-11, , 
DataValue, 0.24, 3.9890000000000004E-11, 3.9890000000000004E-11, , 
DataValue, 0.25, 6.057E-11, 6.057E-11, , 
DataValue, 0.26, 3.67E-11, 3.67E-11, , 
DataValue, 0.27, 5.992E-11, 5.992E-11, , 
DataValue, 0.28, 4.108E-11, 4.108E-11, , 
DataValue, 0.29, 6.3510000000000009E-11, 6.3510000000000009E-11, , 
DataValue, 0.3, 7.016E-11, 7.016E-11, , 
DataValue, 0.31, 7.584E-11, 7.584E-11, , 
DataValue, 0.32, 6.925E-11, 6.925E-11, , 
DataValue, 0.33, 7.257E-11, 7.257E-11, , 
DataValue, 0.34, 5.5040000000000005E-11, 5.5040000000000005E-11, , 
DataValue, 0.35000000000000003, 1.1145000000000001E-10, 1.1145000000000001E-10, , 
DataValue, 0.36, 5.8110000000000007E-11, 5.8110000000000007E-11, , 
DataValue, 0.37, 7.7650000000000011E-11, 7.7650000000000011E-11, , 
DataValue, 0.38, 3.624E-11, 3.624E-11, , 
DataValue, 0.39, 7.1170000000000011E-11, 7.1170000000000011E-11, , 
DataValue, 0.4, 3.758E-11, 3.758E-11, , 
DataValue, 0.41000000000000003, 7.295E-11, 7.295E-11, , 
DataValue, 0.42, 3.904E-11, 3.904E-11, , 
DataValue, 0.43, 7.4760000000000009E-11, 7.4760000000000009E-11, , 
DataValue, 0.44, 3.8940000000000003E-11, 3.8940000000000003E-11, , 
DataValue, 0.45, 8.518000000000001E-11, 8.518000000000001E-11, , 
DataValue, 0.46, 4.949E-11, 4.949E-11, , 
DataValue, 0.47000000000000003, 8.522E-11, 8.522E-11, , 
DataValue, 0.48, 5.4350000000000005E-11, 5.4350000000000005E-11, , 
DataValue, 0.49, 8.729E-11, 8.729E-11, , 
DataValue, 0.5, 4.483E-11, 4.483E-11, , 
DataValue, 0.51, 8.043E-11, 8.043E-11, , 
DataValue, 0.52, 4.6780000000000005E-11, 4.6780000000000005E-11, , 
DataValue, 0.53, 1.086E-10, 1.086E-10, , 
DataValue, 0.54, 1.0330000000000001E-10, 1.0330000000000001E-10, , 
DataValue, 0.55, 1.1641000000000002E-10, 1.1641000000000002E-10, , 
DataValue, 0.56, 9.0660000000000013E-11, 9.0660000000000013E-11, , 
DataValue, 0.57000000000000006, 1.3114E-10, 1.3114E-10, , 
DataValue, 0.58, 9.746E-11, 9.746E-11, , 
DataValue, 0.59, 1.3696E-10, 1.3696E-10, , 
DataValue, 0.6, 1.4020000000000002E-10, 1.4020000000000002E-10, , 
DataValue, 0.61, 2.0677000000000003E-10, 2.0677000000000003E-10, , 
DataValue, 0.62, 1.8678000000000003E-10, 1.8678000000000003E-10, , 
DataValue, 0.63, 1.9309E-10, 1.9309E-10, , 
DataValue, 0.64, 1.6831E-10, 1.6831E-10, , 
DataValue, 0.65, 2.2909E-10, 2.2909E-10, , 
DataValue, 0.66, 1.6268E-10, 1.6268E-10, , 
DataValue, 0.67, 2.3559E-10, 2.3559E-10, , 
DataValue, 0.68, 1.9346000000000002E-10, 1.9346000000000002E-10, , 
DataValue, 0.69000000000000006, 2.3168000000000002E-10, 2.3168000000000002E-10, , 
DataValue, 0.70000000000000007, 2.0443E-10, 2.0443E-10, , 
DataValue, 0.71, 1.4874000000000002E-10, 1.4874000000000002E-10, , 
DataValue, 0.72, 9.843E-11, 9.843E-11, , 
DataValue, 0.73, 1.4716E-10, 1.4716E-10, , 
DataValue, 0.74, 1.3486000000000001E-10, 1.3486000000000001E-10, , 
DataValue, 0.75, 1.4375000000000002E-10, 1.4375000000000002E-10, , 
DataValue, 0.76, 1.4080000000000002E-10, 1.4080000000000002E-10, , 
DataValue, 0.77, 1.0890000000000001E-10, 1.0890000000000001E-10, , 
DataValue, 0.78, 1.4977000000000002E-10, 1.4977000000000002E-10, , 
DataValue, 0.79, 1.4253000000000002E-10, 1.4253000000000002E-10, , 
DataValue, 0.8, 1.5801E-10, 1.5801E-10, , 
DataValue, 0.81, 1.4333E-10, 1.4333E-10, , 
DataValue, 0.82000000000000006, 1.6592E-10, 1.6592E-10, , 
DataValue, 0.83000000000000007, 1.4306000000000002E-10, 1.4306000000000002E-10, , 
DataValue, 0.84, 1.7216E-10, 1.7216E-10, , 
DataValue, 0.85, 1.5158E-10, 1.5158E-10, , 
DataValue, 0.86, 1.7217E-10, 1.7217E-10, , 
DataValue, 0.87, 2.8653000000000004E-10, 2.8653000000000004E-10, , 
DataValue, 0.88, 2.8569E-10, 2.8569E-10, , 
DataValue, 0.89, 2.6978E-10, 2.6978E-10, , 
DataValue, 0.9, 2.8019000000000004E-10, 2.8019000000000004E-10, , 
DataValue, 0.91, 4.4769000000000003E-10, 4.4769000000000003E-10, , 
DataValue, 0.92, 5.1406000000000008E-10, 5.1406000000000008E-10, , 
DataValue, 0.93, 5.0098000000000006E-10, 5.0098000000000006E-10, , 
DataValue, 0.94000000000000006, 6.2047E-10, 6.2047E-10, , 
DataValue, 0.95000000000000007, 5.9079000000000009E-10, 5.9079000000000009E-10, , 
DataValue, 0.96, 3.7707E-10, 3.7707E-10, , 
DataValue, 0.97, 4.5547000000000003E-10, 4.5547000000000003E-10, , 
DataValue, 0.98, 3.7758000000000005E-10, 3.7758000000000005E-10, , 
DataValue, 0.99, 4.1286E-10, 4.1286E-10, , 
DataValue, 1, 3.8011000000000004E-10, 3.8011000000000004E-10, , 
DataValue, 1.01, 4.1143000000000005E-10, 4.1143000000000005E-10, , 
DataValue, 1.02, 4.4056000000000003E-10, 4.4056000000000003E-10, , 
DataValue, 1.03, 5.2126E-10, 5.2126E-10, , 
DataValue, 1.04, 1.0994E-09, 1.0994E-09, , 
DataValue, 1.05, 1.2008E-09, 1.2008E-09, , 
DataValue, 1.06, 1.2612E-09, 1.2612E-09, , 
DataValue, 1.07, 1.0634E-09, 1.0634E-09, , 
DataValue, 1.08, 1.1161E-09, 1.1161E-09, , 
DataValue, 1.09, 1.1459E-09, 1.1459E-09, , 
DataValue, 1.1, 4.8453E-09, 4.8453E-09, , 
DataValue, 1.11, 6.0398E-09, 6.0398E-09, , 
DataValue, 1.12, 1.6105E-09, 1.6105E-09, , 
DataValue, 1.1300000000000001, 1.5425E-09, 1.5425E-09, , 
DataValue, 1.1400000000000001, 2.548E-09, 2.548E-09, , 
DataValue, 1.1500000000000001, 6.1667E-10, 6.1667E-10, , 
DataValue, 1.16, 9.8101000000000011E-10, 9.8101000000000011E-10, , 
DataValue, 1.17, 1.4798E-09, 1.4798E-09, , 
DataValue, 1.18, 1.174E-09, 1.174E-09, , 
DataValue, 1.19, 1.1385E-09, 1.1385E-09, , 
DataValue, 1.2, 1.4219E-09, 1.4219E-09, , 
DataValue, 1.21, 1.2674E-09, 1.2674E-09, , 
DataValue, 1.22, 1.2359E-09, 1.2359E-09, , 
DataValue, 1.23, 1.1127E-09, 1.1127E-09, , 
DataValue, 1.24, 1.6347E-09, 1.6347E-09, , 
DataValue, 1.25, 4.13E-09, 4.13E-09, , 
DataValue, 1.26, 2.7214E-09, 2.7214E-09, , 
DataValue, 1.27, 2.6599E-09, 2.6599E-09, , 
DataValue, 1.28, 2.6841E-09, 2.6841E-09, , 
DataValue, 1.29, 2.637E-09, 2.637E-09, , 
DataValue, 1.3, 2.9324E-09, 2.9324E-09, , 
DataValue, 1.31, 2.817E-09, 2.817E-09, , 
DataValue, 1.32, 2.9632E-09, 2.9632E-09, , 
DataValue, 1.33, 3.6715E-09, 3.6715E-09, , 
DataValue, 1.34, 2.5898E-09, 2.5898E-09, , 
DataValue, 1.35, 1.4396E-09, 1.4396E-09, , 
DataValue, 1.36, 6.5302000000000009E-10, 6.5302000000000009E-10, , 
DataValue, 1.37, 1.2874E-09, 1.2874E-09, , 
DataValue, 1.3800000000000001, 1.1664E-09, 1.1664E-09, , 
DataValue, 1.3900000000000001, 1.2132E-09, 1.2132E-09, , 
DataValue, 1.4000000000000001, 1.0229E-09, 1.0229E-09, , 
DataValue, 1.41, 1.4679E-09, 1.4679E-09, , 
DataValue, 1.42, 1.623E-09, 1.623E-09, , 
DataValue, 1.43, 1.4614E-09, 1.4614E-09, , 
DataValue, 1.44, 1.552E-09, 1.552E-09, , 
DataValue, 1.45, 1.5732E-09, 1.5732E-09, , 
DataValue, 1.46, 1.7081E-09, 1.7081E-09, , 
DataValue, 1.47, 1.6131E-09, 1.6131E-09, , 
DataValue, 1.48, 1.6346E-09, 1.6346E-09, , 
DataValue, 1.49, 1.7285E-09, 1.7285E-09, , 
DataValue, 1.5, 1.9951E-09, 1.9951E-09, , 
DataValue, 1.51, 1.896E-09, 1.896E-09, , 
DataValue, 1.52, 2.0425E-09, 2.0425E-09, , 
DataValue, 1.53, 2.2409E-09, 2.2409E-09, , 
DataValue, 1.54, 2.3842E-09, 2.3842E-09, , 
DataValue, 1.55, 2.1393E-09, 2.1393E-09, , 
DataValue, 1.56, 2.5641E-09, 2.5641E-09, , 
DataValue, 1.57, 2.4617E-09, 2.4617E-09, , 
DataValue, 1.58, 2.397E-09, 2.397E-09, , 
DataValue, 1.59, 2.7343E-09, 2.7343E-09, , 
DataValue, 1.6, 2.6281E-09, 2.6281E-09, , 
DataValue, 1.61, 2.2304E-09, 2.2304E-09, , 
DataValue, 1.62, 2.8335E-09, 2.8335E-09, , 
DataValue, 1.6300000000000001, 2.764E-09, 2.764E-09, , 
DataValue, 1.6400000000000001, 2.8791E-09, 2.8791E-09, , 
DataValue, 1.6500000000000001, 3.0261E-09, 3.0261E-09, , 
DataValue, 1.6600000000000001, 3.0733E-09, 3.0733E-09, , 
DataValue, 1.67, 2.9009E-09, 2.9009E-09, , 
DataValue, 1.68, 3.3405E-09, 3.3405E-09, , 
DataValue, 1.69, 3.6443E-09, 3.6443E-09, , 
DataValue, 1.7, 3.5203E-09, 3.5203E-09, , 
DataValue, 1.71, 3.8337E-09, 3.8337E-09, , 
DataValue, 1.72, 3.6218E-09, 3.6218E-09, , 
DataValue, 1.73, 4.1525E-09, 4.1525E-09, , 
DataValue, 1.74, 4.2163E-09, 4.2163E-09, , 
DataValue, 1.75, 4.3555E-09, 4.3555E-09, , 
DataValue, 1.76, 4.6283E-09, 4.6283E-09, , 
DataValue, 1.77, 4.5349E-09, 4.5349E-09, , 
DataValue, 1.78, 4.9427E-09, 4.9427E-09, , 
DataValue, 1.79, 4.8386E-09, 4.8386E-09, , 
DataValue, 1.8, 5.0867E-09, 5.0867E-09, , 
DataValue, 1.81, 5.2235E-09, 5.2235E-09, , 
DataValue, 1.82, 5.3657E-09, 5.3657E-09, , 
DataValue, 1.83, 5.4334E-09, 5.4334E-09, , 
DataValue, 1.84, 6.0121E-09, 6.0121E-09, , 
DataValue, 1.85, 5.8514E-09, 5.8514E-09, , 
DataValue, 1.86, 5.9765E-09, 5.9765E-09, , 
DataValue, 1.87, 5.8095E-09, 5.8095E-09, , 
DataValue, 1.8800000000000001, 6.0053E-09, 6.0053E-09, , 
DataValue, 1.8900000000000001, 6.6262E-09, 6.6262E-09, , 
DataValue, 1.9000000000000001, 6.4024E-09, 6.4024E-09, , 
DataValue, 1.9100000000000001, 6.7191E-09, 6.7191E-09, , 
DataValue, 1.92, 6.0697E-09, 6.0697E-09, , 
DataValue, 1.93, 1.09584E-08, 1.09584E-08, , 
DataValue, 1.94, 1.2185E-08, 1.2185E-08, , 
DataValue, 1.95, 2.0679999999999997E-08, 2.0679999999999997E-08, , 
DataValue, 1.96, 1.7661599999999998E-08, 1.7661599999999998E-08, , 
DataValue, 1.97, 1.53108E-08, 1.53108E-08, , 
DataValue, 1.98, 2.2893399999999997E-08, 2.2893399999999997E-08, , 
DataValue, 1.99, 8.240599999999999E-09, 8.240599999999999E-09, , 
DataValue, 2, 1.1733399999999998E-08, 1.1733399999999998E-08, , 
DataValue, 2.0100000000000002, 6.8172E-09, 6.8172E-09, , 
DataValue, 2.02, 6.8006E-09, 6.8006E-09, , 
DataValue, 2.0300000000000002, 6.2093E-09, 6.2093E-09, , 
DataValue, 2.04, 6.8494E-09, 6.8494E-09, , 
DataValue, 2.05, 8.645E-09, 8.645E-09, , 
DataValue, 2.06, 8.0524E-09, 8.0524E-09, , 
DataValue, 2.07, 6.7252E-09, 6.7252E-09, , 
DataValue, 2.08, 5.8773E-09, 5.8773E-09, , 
DataValue, 2.09, 6.2308E-09, 6.2308E-09, , 
DataValue, 2.1, 5.1099E-09, 5.1099E-09, , 
DataValue, 2.11, 6.6351999999999996E-09, 6.6351999999999996E-09, , 
DataValue, 2.12, 2.2918799999999997E-08, 2.2918799999999997E-08, , 
DataValue, 2.13, 1.0632000000000001E-05, 1.0632000000000001E-05, , 
DataValue, 2.14, 1.1562E-05, 1.1562E-05, , 
DataValue, 2.15, 1.0586E-05, 1.0586E-05, , 
DataValue, 2.16, 1.021E-05, 1.021E-05, , 
DataValue, 2.17, 1.0694E-05, 1.0694E-05, , 
DataValue, 2.18, 9.0408000000000016E-06, 9.0408000000000016E-06, , 
DataValue, 2.19, 8.2577E-06, 8.2577E-06, , 
DataValue, 2.2, 8.0554E-06, 8.0554E-06, , 
DataValue, 2.21, 8.1127000000000011E-06, 8.1127000000000011E-06, , 
DataValue, 2.22, 7.9022E-06, 7.9022E-06, , 
DataValue, 2.23, 7.5558000000000006E-06, 7.5558000000000006E-06, , 
DataValue, 2.24, 8.4012E-06, 8.4012E-06, , 
DataValue, 2.25, 8.6435000000000012E-06, 8.6435000000000012E-06, , 
DataValue, 2.2600000000000002, 8.1044000000000016E-06, 8.1044000000000016E-06, , 
DataValue, 2.27, 8.1393E-06, 8.1393E-06, , 
DataValue, 2.2800000000000002, 7.7498000000000016E-06, 7.7498000000000016E-06, , 
DataValue, 2.29, 8.0847E-06, 8.0847E-06, , 
DataValue, 2.3000000000000003, 7.874700000000001E-06, 7.874700000000001E-06, , 
DataValue, 2.31, 8.6992000000000013E-06, 8.6992000000000013E-06, , 
DataValue, 2.32, 8.5230000000000012E-06, 8.5230000000000012E-06, , 
DataValue, 2.33, 8.1363E-06, 8.1363E-06, , 
DataValue, 2.34, 7.8844E-06, 7.8844E-06, , 
DataValue, 2.35, 7.5060000000000006E-06, 7.5060000000000006E-06, , 
DataValue, 2.36, 7.8097E-06, 7.8097E-06, , 
DataValue, 2.37, 7.220700000000001E-06, 7.220700000000001E-06, , 
DataValue, 2.38, 8.6903E-06, 8.6903E-06, , 
DataValue, 2.39, 8.3597E-06, 8.3597E-06, , 
DataValue, 2.4, 8.5557E-06, 8.5557E-06, , 
DataValue, 2.41, 8.3109E-06, 8.3109E-06, , 
DataValue, 2.42, 7.9536000000000012E-06, 7.9536000000000012E-06, , 
DataValue, 2.43, 7.4619000000000005E-06, 7.4619000000000005E-06, , 
DataValue, 2.44, 7.7667000000000014E-06, 7.7667000000000014E-06, , 
DataValue, 2.45, 7.1408E-06, 7.1408E-06, , 
DataValue, 2.46, 7.0625000000000006E-06, 7.0625000000000006E-06, , 
DataValue, 2.47, 6.9071E-06, 6.9071E-06, , 
DataValue, 2.48, 7.0438000000000011E-06, 7.0438000000000011E-06, , 
DataValue, 2.49, 6.87E-06, 6.87E-06, , 
DataValue, 2.5, 6.7627000000000005E-06, 6.7627000000000005E-06, , 
DataValue, 2.5100000000000002, 7.1771000000000011E-06, 7.1771000000000011E-06, , 
