
SetupTitle, ExtFET - POS SET - VG-1.52V - TE-3.5 24u
PrimitiveTest, I/V Sweep
TestParameter, Context.MainFrame, B1500A
TestParameter, Channel.UnitType, SMU, SMU, SMU
TestParameter, Channel.Unit, SMU2:HR, SMU4:HR, SMU3:HR
TestParameter, Channel.IName, I_TE, I_BE, I_G
TestParameter, Channel.VName, V_TE, V_BE, V_G
TestParameter, Channel.Mode, V, COMMON, V
TestParameter, Channel.Func, VAR1, CONST, CONST
TestParameter, Channel.Index, 
TestParameter, Channel.Time, 
TestParameter, Measurement.Port.Unit, SMU2:HR, SMU4:HR, SMU3:HR
TestParameter, Measurement.Port.SeriesResistor, NONE, NONE, NONE
TestParameter, Measurement.Port.Filter, ON, ON, ON
TestParameter, Measurement.Port.OutputVoltageComparison, 0, 0, 0
TestParameter, Measurement.Primary.Locus, Double
TestParameter, Measurement.Primary.Scale, LINEAR
TestParameter, Measurement.Primary.Start, 0
TestParameter, Measurement.Primary.Stop, 3.5
TestParameter, Measurement.Primary.Step, 0.01
TestParameter, Measurement.Primary.Compliance, 2.4E-05
TestParameter, Measurement.Primary.PowerCompliance, 0
TestParameter, Measurement.Aborting.Condition, CONTINUE AT ANY
TestParameter, Measurement.PostOutput.Value, START
TestParameter, Measurement.PostOutput.Retention, OFF
TestParameter, Measurement.Bias.Source, 0, 0, 1.52
TestParameter, Measurement.Bias.Compliance, 2.4E-05, 0.1, 0.0001
TestParameter, Measurement.Monitor.Unit, SMU2:HR, SMU4:HR, SMU3:HR
TestParameter, Measurement.Monitor.Adc, HR ADC, HR ADC, HR ADC
TestParameter, Measurement.Monitor.Measurement, Compliance Side, Compliance Side, Compliance Side
TestParameter, Measurement.Monitor.RangingMode, LIMITED, LIMITED, LIMITED
TestParameter, Measurement.Monitor.RangeBoundary, 1nA, 1nA, 1nA
TestParameter, Measurement.Monitor.RangeRating, BY FULL RANGE, BY FULL RANGE, BY FULL RANGE
TestParameter, Measurement.Monitor.RangeRatingCoeff, 50, 50, 50
TestParameter, Measurement.Timing.Hold, 0
TestParameter, Measurement.Timing.Delay, 0
TestParameter, Measurement.Adc.HighSpeed.Mode, AUTO
TestParameter, Measurement.Adc.HighSpeed.Coeff, 1
TestParameter, Measurement.Adc.HighResolution.AutoZero, OFF
TestParameter, Measurement.Adc.HighResolution.Mode, AUTO
TestParameter, Measurement.Adc.HighResolution.Coeff, 6
TestParameter, Measurement.WaitTime.Source.Coeff, 1
TestParameter, Measurement.WaitTime.Source.Offset, 0
TestParameter, Measurement.WaitTime.Monitor.Coeff, 1
TestParameter, Measurement.WaitTime.Monitor.Offset, 0
TestParameter, Function.User.Name, absITE
TestParameter, Function.User.Unit, A
TestParameter, Function.User.Definition, abs(I_TE)
TestParameter, Output.Graph.Enabled, true
TestParameter, Output.Graph.AutoScaling, false
TestParameter, Output.Graph.XAxis.Data, V_TE
TestParameter, Output.Graph.XAxis.Scale, Linear
TestParameter, Output.Graph.XAxis.Left, 0
TestParameter, Output.Graph.XAxis.Right, 10
TestParameter, Output.Graph.XAxis.RunTimeAutoScale, true
TestParameter, Output.Graph.YAxis.Data, absITE
TestParameter, Output.Graph.YAxis.Scale, Log
TestParameter, Output.Graph.YAxis.Bottom, 0
TestParameter, Output.Graph.YAxis.Top, 1
TestParameter, Output.Graph.YAxis.Group, 
TestParameter, Output.Graph.YAxis.RunTimeAutoScale, true
TestParameter, Output.List.Data, V1, I2abs
TestParameter, AutoAnalysis.Interpolation, false
TestParameter, AutoAnalysis.Var2StepCount, 1
TestParameter, AutoAnalysis.Var2StepScript, 
TestParameter, AutoAnalysis.Line1.Enabled, false
TestParameter, AutoAnalysis.Line1.Type, 1
TestParameter, AutoAnalysis.Line1.Fix, True
TestParameter, AutoAnalysis.Line1.YAxis, 0
TestParameter, AutoAnalysis.Line1.Point1.Type, 0
TestParameter, AutoAnalysis.Line1.Point1.XY.X, 
TestParameter, AutoAnalysis.Line1.Point1.XY.Y, 
TestParameter, AutoAnalysis.Line1.Point1.Data.Var, 
TestParameter, AutoAnalysis.Line1.Point1.Data.Condition, 
TestParameter, AutoAnalysis.Line1.Point1.Data.Start, false
TestParameter, AutoAnalysis.Line1.Point1.Data.StartVar, 
TestParameter, AutoAnalysis.Line1.Point1.Data.StartCondition, 
TestParameter, AutoAnalysis.Line1.Point2.Type, 0
TestParameter, AutoAnalysis.Line1.Point2.XY.X, 
TestParameter, AutoAnalysis.Line1.Point2.XY.Y, 
TestParameter, AutoAnalysis.Line1.Point2.Data.Var, 
TestParameter, AutoAnalysis.Line1.Point2.Data.Condition, 
TestParameter, AutoAnalysis.Line1.Point2.Data.Start, false
TestParameter, AutoAnalysis.Line1.Point2.Data.StartVar, 
TestParameter, AutoAnalysis.Line1.Point2.Data.StartCondition, 
TestParameter, AutoAnalysis.Line1.GradientExpr, 0
TestParameter, AutoAnalysis.Line2.Enabled, false
TestParameter, AutoAnalysis.Line2.Type, 1
TestParameter, AutoAnalysis.Line2.Fix, True
TestParameter, AutoAnalysis.Line2.YAxis, 0
TestParameter, AutoAnalysis.Line2.Point1.Type, 0
TestParameter, AutoAnalysis.Line2.Point1.XY.X, 
TestParameter, AutoAnalysis.Line2.Point1.XY.Y, 
TestParameter, AutoAnalysis.Line2.Point1.Data.Var, 
TestParameter, AutoAnalysis.Line2.Point1.Data.Condition, 
TestParameter, AutoAnalysis.Line2.Point1.Data.Start, false
TestParameter, AutoAnalysis.Line2.Point1.Data.StartVar, 
TestParameter, AutoAnalysis.Line2.Point1.Data.StartCondition, 
TestParameter, AutoAnalysis.Line2.Point2.Type, 0
TestParameter, AutoAnalysis.Line2.Point2.XY.X, 
TestParameter, AutoAnalysis.Line2.Point2.XY.Y, 
TestParameter, AutoAnalysis.Line2.Point2.Data.Var, 
TestParameter, AutoAnalysis.Line2.Point2.Data.Condition, 
TestParameter, AutoAnalysis.Line2.Point2.Data.Start, false
TestParameter, AutoAnalysis.Line2.Point2.Data.StartVar, 
TestParameter, AutoAnalysis.Line2.Point2.Data.StartCondition, 
TestParameter, AutoAnalysis.Line2.GradientExpr, 0
TestParameter, AutoAnalysis.Marker.Enabled, false
TestParameter, AutoAnalysis.Marker.Data.Var, 
TestParameter, AutoAnalysis.Marker.Data.Condition, 
TestParameter, AutoAnalysis.Marker.Data.Start, false
TestParameter, AutoAnalysis.Marker.Data.StartVar, 
TestParameter, AutoAnalysis.Marker.Data.StartCondition, 
MetaData, TestRecord.EntryPoint, true
MetaData, TestRecord.RecordTime, 04/14/2020 20:30:07
MetaData, TestRecord.TestTarget, InGaAs_1_W_BE_FijiHfO2_NW-G05
MetaData, TestRecord.IterationIndex, 83
MetaData, TestRecord.Preservation, true
MetaData, TestRecord.Flag, 
MetaData, TestRecord.Remarks, 
MetaData, TestRecord.LinkKey, 44aca066-7bdf-4bf4-91eb-d2adff5e3cdd
MetaData, TestRecord.Parameters, 
Dimension1, 702, 702, 702, 702, 702
Dimension2, 1, 1, 1, 1, 1
DataName, V_TE, I_TE, absITE, V1, I2abs
DataValue, 0, 1.98E-12, 1.98E-12, , 
DataValue, 0.01, 7.839E-11, 7.839E-11, , 
DataValue, 0.02, 1.1080000000000001E-10, 1.1080000000000001E-10, , 
DataValue, 0.03, 1.6770000000000003E-10, 1.6770000000000003E-10, , 
DataValue, 0.04, 1.9063000000000002E-10, 1.9063000000000002E-10, , 
DataValue, 0.05, 2.5327E-10, 2.5327E-10, , 
DataValue, 0.06, 2.7447000000000004E-10, 2.7447000000000004E-10, , 
DataValue, 0.07, 3.4607000000000003E-10, 3.4607000000000003E-10, , 
DataValue, 0.08, 3.7478E-10, 3.7478E-10, , 
DataValue, 0.09, 4.3820000000000005E-10, 4.3820000000000005E-10, , 
DataValue, 0.1, 4.8383000000000008E-10, 4.8383000000000008E-10, , 
DataValue, 0.11, 5.7061000000000006E-10, 5.7061000000000006E-10, , 
DataValue, 0.12, 6.0526E-10, 6.0526E-10, , 
DataValue, 0.13, 6.3393E-10, 6.3393E-10, , 
DataValue, 0.14, 7.2498E-10, 7.2498E-10, , 
DataValue, 0.15, 8.4943E-10, 8.4943E-10, , 
DataValue, 0.16, 8.9019000000000011E-10, 8.9019000000000011E-10, , 
DataValue, 0.17, 1.0106E-09, 1.0106E-09, , 
DataValue, 0.18, 1.0241E-09, 1.0241E-09, , 
DataValue, 0.19, 1.1539E-09, 1.1539E-09, , 
DataValue, 0.2, 1.2068E-09, 1.2068E-09, , 
DataValue, 0.21, 1.3248E-09, 1.3248E-09, , 
DataValue, 0.22, 4.1E-09, 4.1E-09, , 
DataValue, 0.23, 4.4125E-09, 4.4125E-09, , 
DataValue, 0.24, 3.7129E-09, 3.7129E-09, , 
DataValue, 0.25, 3.6548E-09, 3.6548E-09, , 
DataValue, 0.26, 3.8572E-09, 3.8572E-09, , 
DataValue, 0.27, 4.4912E-09, 4.4912E-09, , 
DataValue, 0.28, 5.1309E-09, 5.1309E-09, , 
DataValue, 0.29, 6.7728E-09, 6.7728E-09, , 
DataValue, 0.3, 9.2087E-09, 9.2087E-09, , 
DataValue, 0.31, 6.0502E-09, 6.0502E-09, , 
DataValue, 0.32, 6.4616E-09, 6.4616E-09, , 
DataValue, 0.33, 7.5476E-09, 7.5476E-09, , 
DataValue, 0.34, 7.7904E-09, 7.7904E-09, , 
DataValue, 0.35000000000000003, 8.1076E-09, 8.1076E-09, , 
DataValue, 0.36, 8.4148E-09, 8.4148E-09, , 
DataValue, 0.37, 9.2795E-09, 9.2795E-09, , 
DataValue, 0.38, 9.7732E-09, 9.7732E-09, , 
DataValue, 0.39, 9.9207E-09, 9.9207E-09, , 
DataValue, 0.4, 1.0241E-08, 1.0241E-08, , 
DataValue, 0.41000000000000003, 1.07256E-08, 1.07256E-08, , 
DataValue, 0.42, 8.1515E-09, 8.1515E-09, , 
DataValue, 0.43, 1.0772399999999999E-08, 1.0772399999999999E-08, , 
DataValue, 0.44, 1.2271E-08, 1.2271E-08, , 
DataValue, 0.45, 1.2246999999999999E-08, 1.2246999999999999E-08, , 
DataValue, 0.46, 1.3682799999999998E-08, 1.3682799999999998E-08, , 
DataValue, 0.47000000000000003, 1.57918E-08, 1.57918E-08, , 
DataValue, 0.48, 9.5334E-09, 9.5334E-09, , 
DataValue, 0.49, 6.0994E-09, 6.0994E-09, , 
DataValue, 0.5, 8.4367E-09, 8.4367E-09, , 
DataValue, 0.51, 1.2878999999999999E-08, 1.2878999999999999E-08, , 
DataValue, 0.52, 1.3437199999999999E-08, 1.3437199999999999E-08, , 
DataValue, 0.53, 1.2943199999999998E-08, 1.2943199999999998E-08, , 
DataValue, 0.54, 1.3483399999999999E-08, 1.3483399999999999E-08, , 
DataValue, 0.55, 1.60322E-08, 1.60322E-08, , 
DataValue, 0.56, 1.4724799999999999E-08, 1.4724799999999999E-08, , 
DataValue, 0.57000000000000006, 1.4774199999999998E-08, 1.4774199999999998E-08, , 
DataValue, 0.58, 1.50256E-08, 1.50256E-08, , 
DataValue, 0.59, 1.56168E-08, 1.56168E-08, , 
DataValue, 0.6, 1.9073399999999997E-08, 1.9073399999999997E-08, , 
DataValue, 0.61, 1.7644999999999997E-08, 1.7644999999999997E-08, , 
DataValue, 0.62, 1.79492E-08, 1.79492E-08, , 
DataValue, 0.63, 1.91342E-08, 1.91342E-08, , 
DataValue, 0.64, 1.969E-08, 1.969E-08, , 
DataValue, 0.65, 2.0948999999999998E-08, 2.0948999999999998E-08, , 
DataValue, 0.66, 2.3038799999999998E-08, 2.3038799999999998E-08, , 
DataValue, 0.67, 2.3693E-08, 2.3693E-08, , 
DataValue, 0.68, 2.2042399999999998E-08, 2.2042399999999998E-08, , 
DataValue, 0.69000000000000006, 2.2663199999999997E-08, 2.2663199999999997E-08, , 
DataValue, 0.70000000000000007, 2.69818E-08, 2.69818E-08, , 
DataValue, 0.71, 2.4087999999999997E-08, 2.4087999999999997E-08, , 
DataValue, 0.72, 2.4469399999999997E-08, 2.4469399999999997E-08, , 
DataValue, 0.73, 2.57246E-08, 2.57246E-08, , 
DataValue, 0.74, 2.67762E-08, 2.67762E-08, , 
DataValue, 0.75, 3.2296999999999995E-08, 3.2296999999999995E-08, , 
DataValue, 0.76, 3.33286E-08, 3.33286E-08, , 
DataValue, 0.77, 3.48056E-08, 3.48056E-08, , 
DataValue, 0.78, 3.61344E-08, 3.61344E-08, , 
DataValue, 0.79, 3.6303799999999995E-08, 3.6303799999999995E-08, , 
DataValue, 0.8, 3.43076E-08, 3.43076E-08, , 
DataValue, 0.81, 1.1495999999999999E-07, 1.1495999999999999E-07, , 
DataValue, 0.82000000000000006, 1.0755999999999999E-07, 1.0755999999999999E-07, , 
DataValue, 0.83000000000000007, 1.2408E-07, 1.2408E-07, , 
DataValue, 0.84, 2.4682E-07, 2.4682E-07, , 
DataValue, 0.85, 1.974E-08, 1.974E-08, , 
DataValue, 0.86, 3.93206E-08, 3.93206E-08, , 
DataValue, 0.87, 3.87244E-08, 3.87244E-08, , 
DataValue, 0.88, 3.8007E-08, 3.8007E-08, , 
DataValue, 0.89, 3.8728399999999996E-08, 3.8728399999999996E-08, , 
DataValue, 0.9, 3.8569E-08, 3.8569E-08, , 
DataValue, 0.91, 3.712E-08, 3.712E-08, , 
DataValue, 0.92, 3.9432399999999994E-08, 3.9432399999999994E-08, , 
DataValue, 0.93, 4.01194E-08, 4.01194E-08, , 
DataValue, 0.94000000000000006, 4.0636999999999995E-08, 4.0636999999999995E-08, , 
DataValue, 0.95000000000000007, 4.15544E-08, 4.15544E-08, , 
DataValue, 0.96, 1.4789799999999998E-08, 1.4789799999999998E-08, , 
DataValue, 0.97, 1.50338E-08, 1.50338E-08, , 
DataValue, 0.98, 1.46676E-08, 1.46676E-08, , 
DataValue, 0.99, 1.5879E-08, 1.5879E-08, , 
DataValue, 1, 1.61038E-08, 1.61038E-08, , 
DataValue, 1.01, 1.6765599999999998E-08, 1.6765599999999998E-08, , 
DataValue, 1.02, 1.68642E-08, 1.68642E-08, , 
DataValue, 1.03, 1.7724799999999997E-08, 1.7724799999999997E-08, , 
DataValue, 1.04, 1.8170999999999998E-08, 1.8170999999999998E-08, , 
DataValue, 1.05, 1.8076399999999998E-08, 1.8076399999999998E-08, , 
DataValue, 1.06, 1.8445799999999998E-08, 1.8445799999999998E-08, , 
DataValue, 1.07, 1.9092199999999997E-08, 1.9092199999999997E-08, , 
DataValue, 1.08, 1.9126599999999998E-08, 1.9126599999999998E-08, , 
DataValue, 1.09, 2.0081399999999998E-08, 2.0081399999999998E-08, , 
DataValue, 1.1, 1.3974199999999999E-08, 1.3974199999999999E-08, , 
DataValue, 1.11, 2.376E-08, 2.376E-08, , 
DataValue, 1.12, 2.35588E-08, 2.35588E-08, , 
DataValue, 1.1300000000000001, 2.2640199999999997E-08, 2.2640199999999997E-08, , 
DataValue, 1.1400000000000001, 2.3525799999999997E-08, 2.3525799999999997E-08, , 
DataValue, 1.1500000000000001, 2.4864799999999997E-08, 2.4864799999999997E-08, , 
DataValue, 1.16, 2.51646E-08, 2.51646E-08, , 
DataValue, 1.17, 2.66868E-08, 2.66868E-08, , 
DataValue, 1.18, 2.74488E-08, 2.74488E-08, , 
DataValue, 1.19, 2.81696E-08, 2.81696E-08, , 
DataValue, 1.2, 2.7955399999999996E-08, 2.7955399999999996E-08, , 
DataValue, 1.21, 2.8297599999999998E-08, 2.8297599999999998E-08, , 
DataValue, 1.22, 2.9383399999999998E-08, 2.9383399999999998E-08, , 
DataValue, 1.23, 2.9550999999999998E-08, 2.9550999999999998E-08, , 
DataValue, 1.24, 3.09656E-08, 3.09656E-08, , 
DataValue, 1.25, 3.2039E-08, 3.2039E-08, , 
DataValue, 1.26, 3.22014E-08, 3.22014E-08, , 
DataValue, 1.27, 3.3776E-08, 3.3776E-08, , 
DataValue, 1.28, 3.4538399999999996E-08, 3.4538399999999996E-08, , 
DataValue, 1.29, 3.52622E-08, 3.52622E-08, , 
DataValue, 1.3, 3.5474199999999995E-08, 3.5474199999999995E-08, , 
DataValue, 1.31, 3.4874799999999995E-08, 3.4874799999999995E-08, , 
DataValue, 1.32, 3.65736E-08, 3.65736E-08, , 
DataValue, 1.33, 3.8873999999999995E-08, 3.8873999999999995E-08, , 
DataValue, 1.34, 4.03168E-08, 4.03168E-08, , 
DataValue, 1.35, 4.3605E-08, 4.3605E-08, , 
DataValue, 1.36, 4.33306E-08, 4.33306E-08, , 
DataValue, 1.37, 4.39584E-08, 4.39584E-08, , 
DataValue, 1.3800000000000001, 4.40858E-08, 4.40858E-08, , 
DataValue, 1.3900000000000001, 3.62618E-08, 3.62618E-08, , 
DataValue, 1.4000000000000001, 3.8685E-08, 3.8685E-08, , 
DataValue, 1.41, 3.9896199999999993E-08, 3.9896199999999993E-08, , 
DataValue, 1.42, 4.22652E-08, 4.22652E-08, , 
DataValue, 1.43, 4.1743399999999994E-08, 4.1743399999999994E-08, , 
DataValue, 1.44, 3.93364E-08, 3.93364E-08, , 
DataValue, 1.45, 4.32102E-08, 4.32102E-08, , 
DataValue, 1.46, 4.4186799999999993E-08, 4.4186799999999993E-08, , 
DataValue, 1.47, 3.85724E-08, 3.85724E-08, , 
DataValue, 1.48, 5.912700000000001E-06, 5.912700000000001E-06, , 
DataValue, 1.49, 6.479000000000001E-06, 6.479000000000001E-06, , 
DataValue, 1.5, 7.031800000000001E-06, 7.031800000000001E-06, , 
DataValue, 1.51, 5.1662000000000006E-06, 5.1662000000000006E-06, , 
DataValue, 1.52, 6.2375000000000008E-06, 6.2375000000000008E-06, , 
DataValue, 1.53, 8.0929E-06, 8.0929E-06, , 
DataValue, 1.54, 7.9448E-06, 7.9448E-06, , 
DataValue, 1.55, 7.4677000000000005E-06, 7.4677000000000005E-06, , 
DataValue, 1.56, 6.5926000000000011E-06, 6.5926000000000011E-06, , 
DataValue, 1.57, 6.4992E-06, 6.4992E-06, , 
DataValue, 1.58, 6.4281E-06, 6.4281E-06, , 
DataValue, 1.59, 6.2079E-06, 6.2079E-06, , 
DataValue, 1.6, 6.6350000000000008E-06, 6.6350000000000008E-06, , 
DataValue, 1.61, 9.015800000000001E-06, 9.015800000000001E-06, , 
DataValue, 1.62, 8.2986E-06, 8.2986E-06, , 
DataValue, 1.6300000000000001, 7.1285000000000004E-06, 7.1285000000000004E-06, , 
DataValue, 1.6400000000000001, 8.4184E-06, 8.4184E-06, , 
DataValue, 1.6500000000000001, 8.9463000000000011E-06, 8.9463000000000011E-06, , 
DataValue, 1.6600000000000001, 9.5894000000000017E-06, 9.5894000000000017E-06, , 
DataValue, 1.67, 8.0383E-06, 8.0383E-06, , 
DataValue, 1.68, 7.8392000000000011E-06, 7.8392000000000011E-06, , 
DataValue, 1.69, 6.8791000000000008E-06, 6.8791000000000008E-06, , 
DataValue, 1.7, 7.623600000000001E-06, 7.623600000000001E-06, , 
DataValue, 1.71, 7.1505E-06, 7.1505E-06, , 
DataValue, 1.72, 6.9819000000000009E-06, 6.9819000000000009E-06, , 
DataValue, 1.73, 7.054200000000001E-06, 7.054200000000001E-06, , 
DataValue, 1.74, 6.7846000000000011E-06, 6.7846000000000011E-06, , 
DataValue, 1.75, 6.8423000000000005E-06, 6.8423000000000005E-06, , 
DataValue, 1.76, 7.4001000000000005E-06, 7.4001000000000005E-06, , 
DataValue, 1.77, 7.4018000000000009E-06, 7.4018000000000009E-06, , 
DataValue, 1.78, 6.9341000000000011E-06, 6.9341000000000011E-06, , 
DataValue, 1.79, 6.8637000000000009E-06, 6.8637000000000009E-06, , 
DataValue, 1.8, 6.9678000000000004E-06, 6.9678000000000004E-06, , 
DataValue, 1.81, 7.2811000000000005E-06, 7.2811000000000005E-06, , 
DataValue, 1.82, 7.5350000000000007E-06, 7.5350000000000007E-06, , 
DataValue, 1.83, 7.7036E-06, 7.7036E-06, , 
DataValue, 1.84, 7.057300000000001E-06, 7.057300000000001E-06, , 
DataValue, 1.85, 6.9169000000000006E-06, 6.9169000000000006E-06, , 
DataValue, 1.86, 6.662900000000001E-06, 6.662900000000001E-06, , 
DataValue, 1.87, 6.6906000000000008E-06, 6.6906000000000008E-06, , 
DataValue, 1.8800000000000001, 6.4380000000000009E-06, 6.4380000000000009E-06, , 
DataValue, 1.8900000000000001, 6.5183000000000008E-06, 6.5183000000000008E-06, , 
DataValue, 1.9000000000000001, 6.6377000000000008E-06, 6.6377000000000008E-06, , 
DataValue, 1.9100000000000001, 6.3997000000000007E-06, 6.3997000000000007E-06, , 
DataValue, 1.92, 6.6587E-06, 6.6587E-06, , 
DataValue, 1.93, 6.4065E-06, 6.4065E-06, , 
DataValue, 1.94, 6.3406000000000008E-06, 6.3406000000000008E-06, , 
DataValue, 1.95, 5.8849E-06, 5.8849E-06, , 
DataValue, 1.96, 6.405600000000001E-06, 6.405600000000001E-06, , 
DataValue, 1.97, 6.3009000000000009E-06, 6.3009000000000009E-06, , 
DataValue, 1.98, 6.5714E-06, 6.5714E-06, , 
DataValue, 1.99, 5.5276E-06, 5.5276E-06, , 
DataValue, 2, 6.1682000000000005E-06, 6.1682000000000005E-06, , 
DataValue, 2.0100000000000002, 5.3999000000000006E-06, 5.3999000000000006E-06, , 
DataValue, 2.02, 6.0540000000000008E-06, 6.0540000000000008E-06, , 
DataValue, 2.0300000000000002, 6.7762000000000004E-06, 6.7762000000000004E-06, , 
DataValue, 2.04, 6.255E-06, 6.255E-06, , 
DataValue, 2.05, 6.258800000000001E-06, 6.258800000000001E-06, , 
DataValue, 2.06, 6.5158E-06, 6.5158E-06, , 
DataValue, 2.07, 6.6105000000000005E-06, 6.6105000000000005E-06, , 
DataValue, 2.08, 6.5630000000000005E-06, 6.5630000000000005E-06, , 
DataValue, 2.09, 6.4633000000000004E-06, 6.4633000000000004E-06, , 
DataValue, 2.1, 6.7947E-06, 6.7947E-06, , 
DataValue, 2.11, 7.0813000000000011E-06, 7.0813000000000011E-06, , 
DataValue, 2.12, 5.7691E-06, 5.7691E-06, , 
DataValue, 2.13, 5.8726E-06, 5.8726E-06, , 
DataValue, 2.14, 6.1517000000000007E-06, 6.1517000000000007E-06, , 
DataValue, 2.15, 6.2692000000000009E-06, 6.2692000000000009E-06, , 
DataValue, 2.16, 6.3895E-06, 6.3895E-06, , 
DataValue, 2.17, 6.7512000000000007E-06, 6.7512000000000007E-06, , 
DataValue, 2.18, 6.4679E-06, 6.4679E-06, , 
DataValue, 2.19, 6.4917000000000009E-06, 6.4917000000000009E-06, , 
DataValue, 2.2, 6.4282000000000006E-06, 6.4282000000000006E-06, , 
DataValue, 2.21, 6.3661000000000008E-06, 6.3661000000000008E-06, , 
DataValue, 2.22, 6.853700000000001E-06, 6.853700000000001E-06, , 
DataValue, 2.23, 6.7593000000000007E-06, 6.7593000000000007E-06, , 
DataValue, 2.24, 6.9188000000000006E-06, 6.9188000000000006E-06, , 
DataValue, 2.25, 6.7428000000000009E-06, 6.7428000000000009E-06, , 
DataValue, 2.2600000000000002, 6.4576000000000006E-06, 6.4576000000000006E-06, , 
DataValue, 2.27, 6.0456E-06, 6.0456E-06, , 
DataValue, 2.2800000000000002, 5.9475E-06, 5.9475E-06, , 
DataValue, 2.29, 5.9509000000000009E-06, 5.9509000000000009E-06, , 
