
SetupTitle, ExtFET - POS SET - VG-1.52V - TE-3.5 24u
PrimitiveTest, I/V Sweep
TestParameter, Context.MainFrame, B1500A
TestParameter, Channel.UnitType, SMU, SMU, SMU
TestParameter, Channel.Unit, SMU2:HR, SMU4:HR, SMU3:HR
TestParameter, Channel.IName, I_TE, I_BE, I_G
TestParameter, Channel.VName, V_TE, V_BE, V_G
TestParameter, Channel.Mode, V, COMMON, V
TestParameter, Channel.Func, VAR1, CONST, CONST
TestParameter, Channel.Index, 
TestParameter, Channel.Time, 
TestParameter, Measurement.Port.Unit, SMU2:HR, SMU4:HR, SMU3:HR
TestParameter, Measurement.Port.SeriesResistor, NONE, NONE, NONE
TestParameter, Measurement.Port.Filter, ON, ON, ON
TestParameter, Measurement.Port.OutputVoltageComparison, 0, 0, 0
TestParameter, Measurement.Primary.Locus, Double
TestParameter, Measurement.Primary.Scale, LINEAR
TestParameter, Measurement.Primary.Start, 0
TestParameter, Measurement.Primary.Stop, 3.5
TestParameter, Measurement.Primary.Step, 0.01
TestParameter, Measurement.Primary.Compliance, 2.4E-05
TestParameter, Measurement.Primary.PowerCompliance, 0
TestParameter, Measurement.Aborting.Condition, CONTINUE AT ANY
TestParameter, Measurement.PostOutput.Value, START
TestParameter, Measurement.PostOutput.Retention, OFF
TestParameter, Measurement.Bias.Source, 0, 0, 1.52
TestParameter, Measurement.Bias.Compliance, 2.4E-05, 0.1, 0.0001
TestParameter, Measurement.Monitor.Unit, SMU2:HR, SMU4:HR, SMU3:HR
TestParameter, Measurement.Monitor.Adc, HR ADC, HR ADC, HR ADC
TestParameter, Measurement.Monitor.Measurement, Compliance Side, Compliance Side, Compliance Side
TestParameter, Measurement.Monitor.RangingMode, LIMITED, LIMITED, LIMITED
TestParameter, Measurement.Monitor.RangeBoundary, 1nA, 1nA, 1nA
TestParameter, Measurement.Monitor.RangeRating, BY FULL RANGE, BY FULL RANGE, BY FULL RANGE
TestParameter, Measurement.Monitor.RangeRatingCoeff, 50, 50, 50
TestParameter, Measurement.Timing.Hold, 0
TestParameter, Measurement.Timing.Delay, 0
TestParameter, Measurement.Adc.HighSpeed.Mode, AUTO
TestParameter, Measurement.Adc.HighSpeed.Coeff, 1
TestParameter, Measurement.Adc.HighResolution.AutoZero, OFF
TestParameter, Measurement.Adc.HighResolution.Mode, AUTO
TestParameter, Measurement.Adc.HighResolution.Coeff, 6
TestParameter, Measurement.WaitTime.Source.Coeff, 1
TestParameter, Measurement.WaitTime.Source.Offset, 0
TestParameter, Measurement.WaitTime.Monitor.Coeff, 1
TestParameter, Measurement.WaitTime.Monitor.Offset, 0
TestParameter, Function.User.Name, absITE
TestParameter, Function.User.Unit, A
TestParameter, Function.User.Definition, abs(I_TE)
TestParameter, Output.Graph.Enabled, true
TestParameter, Output.Graph.AutoScaling, false
TestParameter, Output.Graph.XAxis.Data, V_TE
TestParameter, Output.Graph.XAxis.Scale, Linear
TestParameter, Output.Graph.XAxis.Left, 0
TestParameter, Output.Graph.XAxis.Right, 10
TestParameter, Output.Graph.XAxis.RunTimeAutoScale, true
TestParameter, Output.Graph.YAxis.Data, absITE
TestParameter, Output.Graph.YAxis.Scale, Log
TestParameter, Output.Graph.YAxis.Bottom, 0
TestParameter, Output.Graph.YAxis.Top, 1
TestParameter, Output.Graph.YAxis.Group, 
TestParameter, Output.Graph.YAxis.RunTimeAutoScale, true
TestParameter, Output.List.Data, V1, I2abs
TestParameter, AutoAnalysis.Interpolation, false
TestParameter, AutoAnalysis.Var2StepCount, 1
TestParameter, AutoAnalysis.Var2StepScript, 
TestParameter, AutoAnalysis.Line1.Enabled, false
TestParameter, AutoAnalysis.Line1.Type, 1
TestParameter, AutoAnalysis.Line1.Fix, True
TestParameter, AutoAnalysis.Line1.YAxis, 0
TestParameter, AutoAnalysis.Line1.Point1.Type, 0
TestParameter, AutoAnalysis.Line1.Point1.XY.X, 
TestParameter, AutoAnalysis.Line1.Point1.XY.Y, 
TestParameter, AutoAnalysis.Line1.Point1.Data.Var, 
TestParameter, AutoAnalysis.Line1.Point1.Data.Condition, 
TestParameter, AutoAnalysis.Line1.Point1.Data.Start, false
TestParameter, AutoAnalysis.Line1.Point1.Data.StartVar, 
TestParameter, AutoAnalysis.Line1.Point1.Data.StartCondition, 
TestParameter, AutoAnalysis.Line1.Point2.Type, 0
TestParameter, AutoAnalysis.Line1.Point2.XY.X, 
TestParameter, AutoAnalysis.Line1.Point2.XY.Y, 
TestParameter, AutoAnalysis.Line1.Point2.Data.Var, 
TestParameter, AutoAnalysis.Line1.Point2.Data.Condition, 
TestParameter, AutoAnalysis.Line1.Point2.Data.Start, false
TestParameter, AutoAnalysis.Line1.Point2.Data.StartVar, 
TestParameter, AutoAnalysis.Line1.Point2.Data.StartCondition, 
TestParameter, AutoAnalysis.Line1.GradientExpr, 0
TestParameter, AutoAnalysis.Line2.Enabled, false
TestParameter, AutoAnalysis.Line2.Type, 1
TestParameter, AutoAnalysis.Line2.Fix, True
TestParameter, AutoAnalysis.Line2.YAxis, 0
TestParameter, AutoAnalysis.Line2.Point1.Type, 0
TestParameter, AutoAnalysis.Line2.Point1.XY.X, 
TestParameter, AutoAnalysis.Line2.Point1.XY.Y, 
TestParameter, AutoAnalysis.Line2.Point1.Data.Var, 
TestParameter, AutoAnalysis.Line2.Point1.Data.Condition, 
TestParameter, AutoAnalysis.Line2.Point1.Data.Start, false
TestParameter, AutoAnalysis.Line2.Point1.Data.StartVar, 
TestParameter, AutoAnalysis.Line2.Point1.Data.StartCondition, 
TestParameter, AutoAnalysis.Line2.Point2.Type, 0
TestParameter, AutoAnalysis.Line2.Point2.XY.X, 
TestParameter, AutoAnalysis.Line2.Point2.XY.Y, 
TestParameter, AutoAnalysis.Line2.Point2.Data.Var, 
TestParameter, AutoAnalysis.Line2.Point2.Data.Condition, 
TestParameter, AutoAnalysis.Line2.Point2.Data.Start, false
TestParameter, AutoAnalysis.Line2.Point2.Data.StartVar, 
TestParameter, AutoAnalysis.Line2.Point2.Data.StartCondition, 
TestParameter, AutoAnalysis.Line2.GradientExpr, 0
TestParameter, AutoAnalysis.Marker.Enabled, false
TestParameter, AutoAnalysis.Marker.Data.Var, 
TestParameter, AutoAnalysis.Marker.Data.Condition, 
TestParameter, AutoAnalysis.Marker.Data.Start, false
TestParameter, AutoAnalysis.Marker.Data.StartVar, 
TestParameter, AutoAnalysis.Marker.Data.StartCondition, 
MetaData, TestRecord.EntryPoint, true
MetaData, TestRecord.RecordTime, 04/14/2020 20:29:53
MetaData, TestRecord.TestTarget, InGaAs_1_W_BE_FijiHfO2_NW-G05
MetaData, TestRecord.IterationIndex, 82
MetaData, TestRecord.Preservation, true
MetaData, TestRecord.Flag, 
MetaData, TestRecord.Remarks, 
MetaData, TestRecord.LinkKey, b94e9fd3-df8e-4870-ab9b-3e75d738b715
MetaData, TestRecord.Parameters, 
Dimension1, 702, 702, 702, 702, 702
Dimension2, 1, 1, 1, 1, 1
DataName, V_TE, I_TE, absITE, V1, I2abs
DataValue, 0, -8.01E-12, 8.01E-12, , 
DataValue, 0.01, 1.5342000000000002E-10, 1.5342000000000002E-10, , 
DataValue, 0.02, 2.2122E-10, 2.2122E-10, , 
DataValue, 0.03, 6.5602000000000008E-10, 6.5602000000000008E-10, , 
DataValue, 0.04, 8.5542E-10, 8.5542E-10, , 
DataValue, 0.05, 1.0266E-09, 1.0266E-09, , 
DataValue, 0.06, 6.1533000000000009E-10, 6.1533000000000009E-10, , 
DataValue, 0.07, 1.4219E-09, 1.4219E-09, , 
DataValue, 0.08, 1.8347E-09, 1.8347E-09, , 
DataValue, 0.09, 1.4106E-09, 1.4106E-09, , 
DataValue, 0.1, 1.2856E-09, 1.2856E-09, , 
DataValue, 0.11, 2.1283E-09, 2.1283E-09, , 
DataValue, 0.12, 1.7177E-09, 1.7177E-09, , 
DataValue, 0.13, 2.2094E-09, 2.2094E-09, , 
DataValue, 0.14, 2.308E-09, 2.308E-09, , 
DataValue, 0.15, 3.6937E-09, 3.6937E-09, , 
DataValue, 0.16, 3.0432E-09, 3.0432E-09, , 
DataValue, 0.17, 5.1964999999999996E-09, 5.1964999999999996E-09, , 
DataValue, 0.18, 5.5136E-09, 5.5136E-09, , 
DataValue, 0.19, 2.5348E-09, 2.5348E-09, , 
DataValue, 0.2, 6.5297E-09, 6.5297E-09, , 
DataValue, 0.21, 6.2666E-09, 6.2666E-09, , 
DataValue, 0.22, 8.2614E-09, 8.2614E-09, , 
DataValue, 0.23, 9.0005E-09, 9.0005E-09, , 
DataValue, 0.24, 1.01625E-08, 1.01625E-08, , 
DataValue, 0.25, 9.9548E-09, 9.9548E-09, , 
DataValue, 0.26, 1.2144799999999998E-08, 1.2144799999999998E-08, , 
DataValue, 0.27, 1.2604799999999999E-08, 1.2604799999999999E-08, , 
DataValue, 0.28, 1.6431E-08, 1.6431E-08, , 
DataValue, 0.29, 1.69224E-08, 1.69224E-08, , 
DataValue, 0.3, 1.4679999999999998E-08, 1.4679999999999998E-08, , 
DataValue, 0.31, 1.6465399999999997E-08, 1.6465399999999997E-08, , 
DataValue, 0.32, 1.72218E-08, 1.72218E-08, , 
DataValue, 0.33, 1.9283399999999997E-08, 1.9283399999999997E-08, , 
DataValue, 0.34, 2.0092399999999997E-08, 2.0092399999999997E-08, , 
DataValue, 0.35000000000000003, 2.1225399999999998E-08, 2.1225399999999998E-08, , 
DataValue, 0.36, 2.1599999999999998E-08, 2.1599999999999998E-08, , 
DataValue, 0.37, 2.2546E-08, 2.2546E-08, , 
DataValue, 0.38, 1.9957399999999996E-08, 1.9957399999999996E-08, , 
DataValue, 0.39, 2.0311E-08, 2.0311E-08, , 
DataValue, 0.4, 2.35798E-08, 2.35798E-08, , 
DataValue, 0.41000000000000003, 2.9353999999999996E-08, 2.9353999999999996E-08, , 
DataValue, 0.42, 2.9353199999999996E-08, 2.9353199999999996E-08, , 
DataValue, 0.43, 3.2688999999999996E-08, 3.2688999999999996E-08, , 
DataValue, 0.44, 3.15184E-08, 3.15184E-08, , 
DataValue, 0.45, 3.35338E-08, 3.35338E-08, , 
DataValue, 0.46, 3.51468E-08, 3.51468E-08, , 
DataValue, 0.47000000000000003, 3.50256E-08, 3.50256E-08, , 
DataValue, 0.48, 3.67366E-08, 3.67366E-08, , 
DataValue, 0.49, 3.8477399999999996E-08, 3.8477399999999996E-08, , 
DataValue, 0.5, 4.00374E-08, 4.00374E-08, , 
DataValue, 0.51, 3.92302E-08, 3.92302E-08, , 
DataValue, 0.52, 4.53424E-08, 4.53424E-08, , 
DataValue, 0.53, 4.5014199999999993E-08, 4.5014199999999993E-08, , 
DataValue, 0.54, 4.63602E-08, 4.63602E-08, , 
DataValue, 0.55, 4.7525E-08, 4.7525E-08, , 
DataValue, 0.56, 4.65356E-08, 4.65356E-08, , 
DataValue, 0.57000000000000006, 5.2319599999999993E-08, 5.2319599999999993E-08, , 
DataValue, 0.58, 4.8595999999999994E-08, 4.8595999999999994E-08, , 
DataValue, 0.59, 4.8710199999999995E-08, 4.8710199999999995E-08, , 
DataValue, 0.6, 5.3197599999999996E-08, 5.3197599999999996E-08, , 
DataValue, 0.61, 5.0589599999999997E-08, 5.0589599999999997E-08, , 
DataValue, 0.62, 5.7973799999999996E-08, 5.7973799999999996E-08, , 
DataValue, 0.63, 6.2649399999999989E-08, 6.2649399999999989E-08, , 
DataValue, 0.64, 6.2561999999999988E-08, 6.2561999999999988E-08, , 
DataValue, 0.65, 6.6950999999999989E-08, 6.6950999999999989E-08, , 
DataValue, 0.66, 6.6958E-08, 6.6958E-08, , 
DataValue, 0.67, 6.7479999999999993E-08, 6.7479999999999993E-08, , 
DataValue, 0.68, 7.22922E-08, 7.22922E-08, , 
DataValue, 0.69000000000000006, 7.44028E-08, 7.44028E-08, , 
DataValue, 0.70000000000000007, 7.8908E-08, 7.8908E-08, , 
DataValue, 0.71, 7.8669799999999992E-08, 7.8669799999999992E-08, , 
DataValue, 0.72, 8.0268999999999989E-08, 8.0268999999999989E-08, , 
DataValue, 0.73, 7.7026199999999989E-08, 7.7026199999999989E-08, , 
DataValue, 0.74, 7.56794E-08, 7.56794E-08, , 
DataValue, 0.75, 8.1105E-08, 8.1105E-08, , 
DataValue, 0.76, 8.5026399999999992E-08, 8.5026399999999992E-08, , 
DataValue, 0.77, 8.31274E-08, 8.31274E-08, , 
DataValue, 0.78, 9.2928E-08, 9.2928E-08, , 
DataValue, 0.79, 9.0799999999999993E-08, 9.0799999999999993E-08, , 
DataValue, 0.8, 4.7856599999999995E-08, 4.7856599999999995E-08, , 
DataValue, 0.81, 4.1435999999999995E-08, 4.1435999999999995E-08, , 
DataValue, 0.82000000000000006, 3.67114E-08, 3.67114E-08, , 
DataValue, 0.83000000000000007, 4.1651399999999995E-08, 4.1651399999999995E-08, , 
DataValue, 0.84, 4.8384799999999995E-08, 4.8384799999999995E-08, , 
DataValue, 0.85, 4.9935399999999992E-08, 4.9935399999999992E-08, , 
DataValue, 0.86, 5.3904999999999992E-08, 5.3904999999999992E-08, , 
DataValue, 0.87, 5.6316599999999992E-08, 5.6316599999999992E-08, , 
DataValue, 0.88, 5.7494999999999993E-08, 5.7494999999999993E-08, , 
DataValue, 0.89, 5.7145599999999993E-08, 5.7145599999999993E-08, , 
DataValue, 0.9, 5.99254E-08, 5.99254E-08, , 
DataValue, 0.91, 5.8322199999999995E-08, 5.8322199999999995E-08, , 
DataValue, 0.92, 6.4375399999999988E-08, 6.4375399999999988E-08, , 
DataValue, 0.93, 5.2103399999999995E-08, 5.2103399999999995E-08, , 
DataValue, 0.94000000000000006, 5.2683799999999993E-08, 5.2683799999999993E-08, , 
DataValue, 0.95000000000000007, 5.1273399999999994E-08, 5.1273399999999994E-08, , 
DataValue, 0.96, 5.0807399999999995E-08, 5.0807399999999995E-08, , 
DataValue, 0.97, 5.6793199999999995E-08, 5.6793199999999995E-08, , 
DataValue, 0.98, 5.8619599999999996E-08, 5.8619599999999996E-08, , 
DataValue, 0.99, 5.8572599999999996E-08, 5.8572599999999996E-08, , 
DataValue, 1, 5.5287199999999995E-08, 5.5287199999999995E-08, , 
DataValue, 1.01, 6.43964E-08, 6.43964E-08, , 
DataValue, 1.02, 5.973899999999999E-08, 5.973899999999999E-08, , 
DataValue, 1.03, 6.34332E-08, 6.34332E-08, , 
DataValue, 1.04, 6.7777599999999991E-08, 6.7777599999999991E-08, , 
DataValue, 1.05, 4.6856599999999992E-08, 4.6856599999999992E-08, , 
DataValue, 1.06, 4.8494799999999994E-08, 4.8494799999999994E-08, , 
DataValue, 1.07, 4.538E-08, 4.538E-08, , 
DataValue, 1.08, 3.73644E-08, 3.73644E-08, , 
DataValue, 1.09, 3.55298E-08, 3.55298E-08, , 
DataValue, 1.1, 3.6395199999999994E-08, 3.6395199999999994E-08, , 
DataValue, 1.11, 1.38E-07, 1.38E-07, , 
DataValue, 1.12, 1.327E-07, 1.327E-07, , 
DataValue, 1.1300000000000001, 1.3402E-07, 1.3402E-07, , 
DataValue, 1.1400000000000001, 1.367E-07, 1.367E-07, , 
DataValue, 1.1500000000000001, 1.3593999999999999E-07, 1.3593999999999999E-07, , 
DataValue, 1.16, 1.4142E-07, 1.4142E-07, , 
DataValue, 1.17, 1.405E-07, 1.405E-07, , 
DataValue, 1.18, 1.4574E-07, 1.4574E-07, , 
DataValue, 1.19, 1.7556E-07, 1.7556E-07, , 
DataValue, 1.2, 3.0144E-07, 3.0144E-07, , 
DataValue, 1.21, 3.0966E-07, 3.0966E-07, , 
DataValue, 1.22, 3.5056E-07, 3.5056E-07, , 
DataValue, 1.23, 3.6492E-07, 3.6492E-07, , 
DataValue, 1.24, 3.5916E-07, 3.5916E-07, , 
DataValue, 1.25, 3.8156E-07, 3.8156E-07, , 
DataValue, 1.26, 4.0479999999999997E-07, 4.0479999999999997E-07, , 
DataValue, 1.27, 4.0826E-07, 4.0826E-07, , 
DataValue, 1.28, 4.3509999999999997E-07, 4.3509999999999997E-07, , 
DataValue, 1.29, 4.4642E-07, 4.4642E-07, , 
DataValue, 1.3, 6.3226E-07, 6.3226E-07, , 
DataValue, 1.31, 4.5422E-07, 4.5422E-07, , 
DataValue, 1.32, 2.4936E-07, 2.4936E-07, , 
DataValue, 1.33, 4.6511999999999997E-07, 4.6511999999999997E-07, , 
DataValue, 1.34, 3.7659999999999997E-07, 3.7659999999999997E-07, , 
DataValue, 1.35, 3.1842E-07, 3.1842E-07, , 
DataValue, 1.36, 7.1446999999999991E-08, 7.1446999999999991E-08, , 
DataValue, 1.37, 4.836E-08, 4.836E-08, , 
DataValue, 1.3800000000000001, 2.702E-08, 2.702E-08, , 
DataValue, 1.3900000000000001, 4.4343599999999995E-08, 4.4343599999999995E-08, , 
DataValue, 1.4000000000000001, 4.42804E-08, 4.42804E-08, , 
DataValue, 1.41, 4.4199199999999995E-08, 4.4199199999999995E-08, , 
DataValue, 1.42, 4.6722399999999995E-08, 4.6722399999999995E-08, , 
DataValue, 1.43, 4.6699999999999995E-08, 4.6699999999999995E-08, , 
DataValue, 1.44, 4.6565399999999996E-08, 4.6565399999999996E-08, , 
DataValue, 1.45, 5.0176199999999996E-08, 5.0176199999999996E-08, , 
DataValue, 1.46, 5.1208799999999995E-08, 5.1208799999999995E-08, , 
DataValue, 1.47, 4.8839999999999993E-08, 4.8839999999999993E-08, , 
DataValue, 1.48, 5.7016399999999994E-08, 5.7016399999999994E-08, , 
DataValue, 1.49, 6.11174E-08, 6.11174E-08, , 
DataValue, 1.5, 6.06876E-08, 6.06876E-08, , 
DataValue, 1.51, 5.6814799999999992E-08, 5.6814799999999992E-08, , 
DataValue, 1.52, 4.57576E-08, 4.57576E-08, , 
DataValue, 1.53, 2.6095199999999997E-08, 2.6095199999999997E-08, , 
DataValue, 1.54, 3.4875399999999995E-08, 3.4875399999999995E-08, , 
DataValue, 1.55, 2.8696599999999997E-08, 2.8696599999999997E-08, , 
DataValue, 1.56, 3.02144E-08, 3.02144E-08, , 
DataValue, 1.57, 3.0098599999999995E-08, 3.0098599999999995E-08, , 
DataValue, 1.58, 2.9510799999999998E-08, 2.9510799999999998E-08, , 
DataValue, 1.59, 3.30092E-08, 3.30092E-08, , 
DataValue, 1.6, 3.2819E-08, 3.2819E-08, , 
DataValue, 1.61, 4.20472E-08, 4.20472E-08, , 
DataValue, 1.62, 4.3279999999999994E-08, 4.3279999999999994E-08, , 
DataValue, 1.6300000000000001, 4.3084799999999994E-08, 4.3084799999999994E-08, , 
DataValue, 1.6400000000000001, 4.3309599999999994E-08, 4.3309599999999994E-08, , 
DataValue, 1.6500000000000001, 4.3789599999999995E-08, 4.3789599999999995E-08, , 
DataValue, 1.6600000000000001, 5.2010399999999996E-08, 5.2010399999999996E-08, , 
DataValue, 1.67, 4.05766E-08, 4.05766E-08, , 
DataValue, 1.68, 4.1081599999999995E-08, 4.1081599999999995E-08, , 
DataValue, 1.69, 4.0530399999999995E-08, 4.0530399999999995E-08, , 
DataValue, 1.7, 4.4890399999999995E-08, 4.4890399999999995E-08, , 
DataValue, 1.71, 3.89836E-08, 3.89836E-08, , 
DataValue, 1.72, 3.78762E-08, 3.78762E-08, , 
DataValue, 1.73, 2.6027599999999998E-08, 2.6027599999999998E-08, , 
DataValue, 1.74, 2.79998E-08, 2.79998E-08, , 
DataValue, 1.75, 2.83574E-08, 2.83574E-08, , 
DataValue, 1.76, 2.1253E-08, 2.1253E-08, , 
DataValue, 1.77, 1.85622E-08, 1.85622E-08, , 
DataValue, 1.78, 2.8653E-08, 2.8653E-08, , 
DataValue, 1.79, 2.8968399999999997E-08, 2.8968399999999997E-08, , 
DataValue, 1.8, 2.2327199999999996E-08, 2.2327199999999996E-08, , 
DataValue, 1.81, 2.38084E-08, 2.38084E-08, , 
DataValue, 1.82, 2.5563E-08, 2.5563E-08, , 
DataValue, 1.83, 2.6132999999999997E-08, 2.6132999999999997E-08, , 
DataValue, 1.84, 2.71822E-08, 2.71822E-08, , 
DataValue, 1.85, 2.6955599999999998E-08, 2.6955599999999998E-08, , 
DataValue, 1.86, 2.7110399999999998E-08, 2.7110399999999998E-08, , 
DataValue, 1.87, 2.68968E-08, 2.68968E-08, , 
DataValue, 1.8800000000000001, 2.79812E-08, 2.79812E-08, , 
DataValue, 1.8900000000000001, 2.9342599999999998E-08, 2.9342599999999998E-08, , 
DataValue, 1.9000000000000001, 4.9170000000000005E-06, 4.9170000000000005E-06, , 
DataValue, 1.9100000000000001, 4.4784E-06, 4.4784E-06, , 
DataValue, 1.92, 6.2265000000000004E-06, 6.2265000000000004E-06, , 
DataValue, 1.93, 6.4500000000000009E-06, 6.4500000000000009E-06, , 
DataValue, 1.94, 6.385500000000001E-06, 6.385500000000001E-06, , 
DataValue, 1.95, 6.944900000000001E-06, 6.944900000000001E-06, , 
DataValue, 1.96, 6.622300000000001E-06, 6.622300000000001E-06, , 
DataValue, 1.97, 6.780700000000001E-06, 6.780700000000001E-06, , 
DataValue, 1.98, 6.997400000000001E-06, 6.997400000000001E-06, , 
DataValue, 1.99, 6.0960000000000006E-06, 6.0960000000000006E-06, , 
DataValue, 2, 6.1982E-06, 6.1982E-06, , 
DataValue, 2.0100000000000002, 5.6999E-06, 5.6999E-06, , 
DataValue, 2.02, 6.643200000000001E-06, 6.643200000000001E-06, , 
DataValue, 2.0300000000000002, 6.806600000000001E-06, 6.806600000000001E-06, , 
DataValue, 2.04, 6.6638000000000005E-06, 6.6638000000000005E-06, , 
DataValue, 2.05, 6.5834E-06, 6.5834E-06, , 
DataValue, 2.06, 6.687200000000001E-06, 6.687200000000001E-06, , 
DataValue, 2.07, 6.5529E-06, 6.5529E-06, , 
DataValue, 2.08, 6.744000000000001E-06, 6.744000000000001E-06, , 
DataValue, 2.09, 6.5933000000000009E-06, 6.5933000000000009E-06, , 
DataValue, 2.1, 6.442E-06, 6.442E-06, , 
DataValue, 2.11, 6.8396000000000006E-06, 6.8396000000000006E-06, , 
DataValue, 2.12, 6.9378000000000007E-06, 6.9378000000000007E-06, , 
DataValue, 2.13, 6.5288000000000009E-06, 6.5288000000000009E-06, , 
DataValue, 2.14, 6.7197000000000011E-06, 6.7197000000000011E-06, , 
DataValue, 2.15, 6.7458000000000007E-06, 6.7458000000000007E-06, , 
DataValue, 2.16, 6.4546000000000008E-06, 6.4546000000000008E-06, , 
DataValue, 2.17, 7.3414000000000006E-06, 7.3414000000000006E-06, , 
DataValue, 2.18, 6.4408E-06, 6.4408E-06, , 
DataValue, 2.19, 7.2111000000000011E-06, 7.2111000000000011E-06, , 
DataValue, 2.2, 7.325400000000001E-06, 7.325400000000001E-06, , 
DataValue, 2.21, 6.9698000000000006E-06, 6.9698000000000006E-06, , 
DataValue, 2.22, 6.7867000000000006E-06, 6.7867000000000006E-06, , 
DataValue, 2.23, 6.7945000000000008E-06, 6.7945000000000008E-06, , 
DataValue, 2.24, 7.933400000000001E-06, 7.933400000000001E-06, , 
DataValue, 2.25, 7.0875E-06, 7.0875E-06, , 
