
SetupTitle, ExtFET - POS SET - VG-1.52V - TE-3.5 24u
PrimitiveTest, I/V Sweep
TestParameter, Context.MainFrame, B1500A
TestParameter, Channel.UnitType, SMU, SMU, SMU
TestParameter, Channel.Unit, SMU2:HR, SMU4:HR, SMU3:HR
TestParameter, Channel.IName, I_TE, I_BE, I_G
TestParameter, Channel.VName, V_TE, V_BE, V_G
TestParameter, Channel.Mode, V, COMMON, V
TestParameter, Channel.Func, VAR1, CONST, CONST
TestParameter, Channel.Index, 
TestParameter, Channel.Time, 
TestParameter, Measurement.Port.Unit, SMU2:HR, SMU4:HR, SMU3:HR
TestParameter, Measurement.Port.SeriesResistor, NONE, NONE, NONE
TestParameter, Measurement.Port.Filter, ON, ON, ON
TestParameter, Measurement.Port.OutputVoltageComparison, 0, 0, 0
TestParameter, Measurement.Primary.Locus, Double
TestParameter, Measurement.Primary.Scale, LINEAR
TestParameter, Measurement.Primary.Start, 0
TestParameter, Measurement.Primary.Stop, 3.5
TestParameter, Measurement.Primary.Step, 0.01
TestParameter, Measurement.Primary.Compliance, 2.4E-05
TestParameter, Measurement.Primary.PowerCompliance, 0
TestParameter, Measurement.Aborting.Condition, CONTINUE AT ANY
TestParameter, Measurement.PostOutput.Value, START
TestParameter, Measurement.PostOutput.Retention, OFF
TestParameter, Measurement.Bias.Source, 0, 0, 1.52
TestParameter, Measurement.Bias.Compliance, 2.4E-05, 0.1, 0.0001
TestParameter, Measurement.Monitor.Unit, SMU2:HR, SMU4:HR, SMU3:HR
TestParameter, Measurement.Monitor.Adc, HR ADC, HR ADC, HR ADC
TestParameter, Measurement.Monitor.Measurement, Compliance Side, Compliance Side, Compliance Side
TestParameter, Measurement.Monitor.RangingMode, LIMITED, LIMITED, LIMITED
TestParameter, Measurement.Monitor.RangeBoundary, 1nA, 1nA, 1nA
TestParameter, Measurement.Monitor.RangeRating, BY FULL RANGE, BY FULL RANGE, BY FULL RANGE
TestParameter, Measurement.Monitor.RangeRatingCoeff, 50, 50, 50
TestParameter, Measurement.Timing.Hold, 0
TestParameter, Measurement.Timing.Delay, 0
TestParameter, Measurement.Adc.HighSpeed.Mode, AUTO
TestParameter, Measurement.Adc.HighSpeed.Coeff, 1
TestParameter, Measurement.Adc.HighResolution.AutoZero, OFF
TestParameter, Measurement.Adc.HighResolution.Mode, AUTO
TestParameter, Measurement.Adc.HighResolution.Coeff, 6
TestParameter, Measurement.WaitTime.Source.Coeff, 1
TestParameter, Measurement.WaitTime.Source.Offset, 0
TestParameter, Measurement.WaitTime.Monitor.Coeff, 1
TestParameter, Measurement.WaitTime.Monitor.Offset, 0
TestParameter, Function.User.Name, absITE
TestParameter, Function.User.Unit, A
TestParameter, Function.User.Definition, abs(I_TE)
TestParameter, Output.Graph.Enabled, true
TestParameter, Output.Graph.AutoScaling, false
TestParameter, Output.Graph.XAxis.Data, V_TE
TestParameter, Output.Graph.XAxis.Scale, Linear
TestParameter, Output.Graph.XAxis.Left, 0
TestParameter, Output.Graph.XAxis.Right, 10
TestParameter, Output.Graph.XAxis.RunTimeAutoScale, true
TestParameter, Output.Graph.YAxis.Data, absITE
TestParameter, Output.Graph.YAxis.Scale, Log
TestParameter, Output.Graph.YAxis.Bottom, 0
TestParameter, Output.Graph.YAxis.Top, 1
TestParameter, Output.Graph.YAxis.Group, 
TestParameter, Output.Graph.YAxis.RunTimeAutoScale, true
TestParameter, Output.List.Data, V1, I2abs
TestParameter, AutoAnalysis.Interpolation, false
TestParameter, AutoAnalysis.Var2StepCount, 1
TestParameter, AutoAnalysis.Var2StepScript, 
TestParameter, AutoAnalysis.Line1.Enabled, false
TestParameter, AutoAnalysis.Line1.Type, 1
TestParameter, AutoAnalysis.Line1.Fix, True
TestParameter, AutoAnalysis.Line1.YAxis, 0
TestParameter, AutoAnalysis.Line1.Point1.Type, 0
TestParameter, AutoAnalysis.Line1.Point1.XY.X, 
TestParameter, AutoAnalysis.Line1.Point1.XY.Y, 
TestParameter, AutoAnalysis.Line1.Point1.Data.Var, 
TestParameter, AutoAnalysis.Line1.Point1.Data.Condition, 
TestParameter, AutoAnalysis.Line1.Point1.Data.Start, false
TestParameter, AutoAnalysis.Line1.Point1.Data.StartVar, 
TestParameter, AutoAnalysis.Line1.Point1.Data.StartCondition, 
TestParameter, AutoAnalysis.Line1.Point2.Type, 0
TestParameter, AutoAnalysis.Line1.Point2.XY.X, 
TestParameter, AutoAnalysis.Line1.Point2.XY.Y, 
TestParameter, AutoAnalysis.Line1.Point2.Data.Var, 
TestParameter, AutoAnalysis.Line1.Point2.Data.Condition, 
TestParameter, AutoAnalysis.Line1.Point2.Data.Start, false
TestParameter, AutoAnalysis.Line1.Point2.Data.StartVar, 
TestParameter, AutoAnalysis.Line1.Point2.Data.StartCondition, 
TestParameter, AutoAnalysis.Line1.GradientExpr, 0
TestParameter, AutoAnalysis.Line2.Enabled, false
TestParameter, AutoAnalysis.Line2.Type, 1
TestParameter, AutoAnalysis.Line2.Fix, True
TestParameter, AutoAnalysis.Line2.YAxis, 0
TestParameter, AutoAnalysis.Line2.Point1.Type, 0
TestParameter, AutoAnalysis.Line2.Point1.XY.X, 
TestParameter, AutoAnalysis.Line2.Point1.XY.Y, 
TestParameter, AutoAnalysis.Line2.Point1.Data.Var, 
TestParameter, AutoAnalysis.Line2.Point1.Data.Condition, 
TestParameter, AutoAnalysis.Line2.Point1.Data.Start, false
TestParameter, AutoAnalysis.Line2.Point1.Data.StartVar, 
TestParameter, AutoAnalysis.Line2.Point1.Data.StartCondition, 
TestParameter, AutoAnalysis.Line2.Point2.Type, 0
TestParameter, AutoAnalysis.Line2.Point2.XY.X, 
TestParameter, AutoAnalysis.Line2.Point2.XY.Y, 
TestParameter, AutoAnalysis.Line2.Point2.Data.Var, 
TestParameter, AutoAnalysis.Line2.Point2.Data.Condition, 
TestParameter, AutoAnalysis.Line2.Point2.Data.Start, false
TestParameter, AutoAnalysis.Line2.Point2.Data.StartVar, 
TestParameter, AutoAnalysis.Line2.Point2.Data.StartCondition, 
TestParameter, AutoAnalysis.Line2.GradientExpr, 0
TestParameter, AutoAnalysis.Marker.Enabled, false
TestParameter, AutoAnalysis.Marker.Data.Var, 
TestParameter, AutoAnalysis.Marker.Data.Condition, 
TestParameter, AutoAnalysis.Marker.Data.Start, false
TestParameter, AutoAnalysis.Marker.Data.StartVar, 
TestParameter, AutoAnalysis.Marker.Data.StartCondition, 
MetaData, TestRecord.EntryPoint, true
MetaData, TestRecord.RecordTime, 04/14/2020 20:30:44
MetaData, TestRecord.TestTarget, InGaAs_1_W_BE_FijiHfO2_NW-G05
MetaData, TestRecord.IterationIndex, 85
MetaData, TestRecord.Preservation, true
MetaData, TestRecord.Flag, 
MetaData, TestRecord.Remarks, 
MetaData, TestRecord.LinkKey, 264beb53-a1c7-47d8-91d3-6781260465cd
MetaData, TestRecord.Parameters, 
Dimension1, 702, 702, 702, 702, 702
Dimension2, 1, 1, 1, 1, 1
DataName, V_TE, I_TE, absITE, V1, I2abs
DataValue, 0, -7.65E-12, 7.65E-12, , 
DataValue, 0.01, 2.6083E-10, 2.6083E-10, , 
DataValue, 0.02, 4.9100000000000006E-10, 4.9100000000000006E-10, , 
DataValue, 0.03, 7.781200000000001E-10, 7.781200000000001E-10, , 
DataValue, 0.04, 1.0283E-09, 1.0283E-09, , 
DataValue, 0.05, 1.3362E-09, 1.3362E-09, , 
DataValue, 0.06, 1.6727E-09, 1.6727E-09, , 
DataValue, 0.07, 1.9827E-09, 1.9827E-09, , 
DataValue, 0.08, 2.3622E-09, 2.3622E-09, , 
DataValue, 0.09, 2.7011E-09, 2.7011E-09, , 
DataValue, 0.1, 3.1846E-09, 3.1846E-09, , 
DataValue, 0.11, 3.6605E-09, 3.6605E-09, , 
DataValue, 0.12, 4.2239E-09, 4.2239E-09, , 
DataValue, 0.13, 4.8716E-09, 4.8716E-09, , 
DataValue, 0.14, 5.7087E-09, 5.7087E-09, , 
DataValue, 0.15, 7.5583E-09, 7.5583E-09, , 
DataValue, 0.16, 7.5116E-09, 7.5116E-09, , 
DataValue, 0.17, 8.8237E-09, 8.8237E-09, , 
DataValue, 0.18, 1.04614E-08, 1.04614E-08, , 
DataValue, 0.19, 1.1717399999999998E-08, 1.1717399999999998E-08, , 
DataValue, 0.2, 1.1817199999999998E-08, 1.1817199999999998E-08, , 
DataValue, 0.21, 1.02222E-08, 1.02222E-08, , 
DataValue, 0.22, 1.2544799999999998E-08, 1.2544799999999998E-08, , 
DataValue, 0.23, 1.2611399999999998E-08, 1.2611399999999998E-08, , 
DataValue, 0.24, 1.4280199999999999E-08, 1.4280199999999999E-08, , 
DataValue, 0.25, 1.603E-08, 1.603E-08, , 
DataValue, 0.26, 2.2744999999999996E-08, 2.2744999999999996E-08, , 
DataValue, 0.27, 2.6095199999999997E-08, 2.6095199999999997E-08, , 
DataValue, 0.28, 2.8331799999999998E-08, 2.8331799999999998E-08, , 
DataValue, 0.29, 3.12954E-08, 3.12954E-08, , 
DataValue, 0.3, 1.3184999999999999E-08, 1.3184999999999999E-08, , 
DataValue, 0.31, 1.0399199999999999E-08, 1.0399199999999999E-08, , 
DataValue, 0.32, 6.7579E-09, 6.7579E-09, , 
DataValue, 0.33, 1.8149199999999997E-08, 1.8149199999999997E-08, , 
DataValue, 0.34, 2.2362999999999996E-08, 2.2362999999999996E-08, , 
DataValue, 0.35000000000000003, 2.1138199999999998E-08, 2.1138199999999998E-08, , 
DataValue, 0.36, 2.3034199999999997E-08, 2.3034199999999997E-08, , 
DataValue, 0.37, 1.618E-08, 1.618E-08, , 
DataValue, 0.38, 1.4763399999999998E-08, 1.4763399999999998E-08, , 
DataValue, 0.39, 1.6636599999999997E-08, 1.6636599999999997E-08, , 
DataValue, 0.4, 2.7690999999999996E-08, 2.7690999999999996E-08, , 
DataValue, 0.41000000000000003, 2.2972199999999996E-08, 2.2972199999999996E-08, , 
DataValue, 0.42, 1.8446E-08, 1.8446E-08, , 
DataValue, 0.43, 2.0197399999999997E-08, 2.0197399999999997E-08, , 
DataValue, 0.44, 2.2559799999999997E-08, 2.2559799999999997E-08, , 
DataValue, 0.45, 2.12284E-08, 2.12284E-08, , 
DataValue, 0.46, 2.3183999999999998E-08, 2.3183999999999998E-08, , 
DataValue, 0.47000000000000003, 1.1099399999999999E-08, 1.1099399999999999E-08, , 
DataValue, 0.48, 1.1649199999999998E-08, 1.1649199999999998E-08, , 
DataValue, 0.49, 1.2087199999999999E-08, 1.2087199999999999E-08, , 
DataValue, 0.5, 1.2236199999999999E-08, 1.2236199999999999E-08, , 
DataValue, 0.51, 1.2662799999999998E-08, 1.2662799999999998E-08, , 
DataValue, 0.52, 1.3183399999999998E-08, 1.3183399999999998E-08, , 
DataValue, 0.53, 1.3471399999999999E-08, 1.3471399999999999E-08, , 
DataValue, 0.54, 1.3862999999999998E-08, 1.3862999999999998E-08, , 
DataValue, 0.55, 1.4752799999999999E-08, 1.4752799999999999E-08, , 
DataValue, 0.56, 1.4569399999999998E-08, 1.4569399999999998E-08, , 
DataValue, 0.57000000000000006, 1.53158E-08, 1.53158E-08, , 
DataValue, 0.58, 1.49174E-08, 1.49174E-08, , 
DataValue, 0.59, 1.5491399999999998E-08, 1.5491399999999998E-08, , 
DataValue, 0.6, 1.5421999999999997E-08, 1.5421999999999997E-08, , 
DataValue, 0.61, 1.67868E-08, 1.67868E-08, , 
DataValue, 0.62, 2.08756E-08, 2.08756E-08, , 
DataValue, 0.63, 2.26288E-08, 2.26288E-08, , 
DataValue, 0.64, 2.2475599999999997E-08, 2.2475599999999997E-08, , 
DataValue, 0.65, 2.2274399999999997E-08, 2.2274399999999997E-08, , 
DataValue, 0.66, 2.60754E-08, 2.60754E-08, , 
DataValue, 0.67, 3.0101999999999994E-08, 3.0101999999999994E-08, , 
DataValue, 0.68, 3.0085399999999996E-08, 3.0085399999999996E-08, , 
DataValue, 0.69000000000000006, 2.82076E-08, 2.82076E-08, , 
DataValue, 0.70000000000000007, 2.8096999999999997E-08, 2.8096999999999997E-08, , 
DataValue, 0.71, 3.01766E-08, 3.01766E-08, , 
DataValue, 0.72, 3.07492E-08, 3.07492E-08, , 
DataValue, 0.73, 3.14502E-08, 3.14502E-08, , 
DataValue, 0.74, 3.3551999999999995E-08, 3.3551999999999995E-08, , 
DataValue, 0.75, 3.4635E-08, 3.4635E-08, , 
DataValue, 0.76, 3.7133E-08, 3.7133E-08, , 
DataValue, 0.77, 3.5469199999999996E-08, 3.5469199999999996E-08, , 
DataValue, 0.78, 4.0872599999999996E-08, 4.0872599999999996E-08, , 
DataValue, 0.79, 4.6351599999999995E-08, 4.6351599999999995E-08, , 
DataValue, 0.8, 4.7858199999999995E-08, 4.7858199999999995E-08, , 
DataValue, 0.81, 3.5035999999999997E-07, 3.5035999999999997E-07, , 
DataValue, 0.82000000000000006, 1.6296E-07, 1.6296E-07, , 
DataValue, 0.83000000000000007, 5.5061799999999996E-08, 5.5061799999999996E-08, , 
DataValue, 0.84, 5.7648199999999992E-08, 5.7648199999999992E-08, , 
DataValue, 0.85, 6.45442E-08, 6.45442E-08, , 
DataValue, 0.86, 8.7617799999999987E-08, 8.7617799999999987E-08, , 
DataValue, 0.87, 9.1486799999999993E-08, 9.1486799999999993E-08, , 
DataValue, 0.88, 9.45938E-08, 9.45938E-08, , 
DataValue, 0.89, 8.198E-08, 8.198E-08, , 
DataValue, 0.9, 1.0004E-07, 1.0004E-07, , 
DataValue, 0.91, 8.1563799999999991E-08, 8.1563799999999991E-08, , 
DataValue, 0.92, 8.37464E-08, 8.37464E-08, , 
DataValue, 0.93, 9.5164199999999989E-08, 9.5164199999999989E-08, , 
DataValue, 0.94000000000000006, 9.02966E-08, 9.02966E-08, , 
DataValue, 0.95000000000000007, 1.0890579999999999E-07, 1.0890579999999999E-07, , 
DataValue, 0.96, 5.86228E-08, 5.86228E-08, , 
DataValue, 0.97, 4.2552199999999994E-08, 4.2552199999999994E-08, , 
DataValue, 0.98, 4.5135399999999995E-08, 4.5135399999999995E-08, , 
DataValue, 0.99, 4.50368E-08, 4.50368E-08, , 
DataValue, 1, 4.69508E-08, 4.69508E-08, , 
DataValue, 1.01, 4.72362E-08, 4.72362E-08, , 
DataValue, 1.02, 4.8836199999999992E-08, 4.8836199999999992E-08, , 
DataValue, 1.03, 5.0391399999999993E-08, 5.0391399999999993E-08, , 
DataValue, 1.04, 5.2292199999999994E-08, 5.2292199999999994E-08, , 
DataValue, 1.05, 3.882E-08, 3.882E-08, , 
DataValue, 1.06, 1.648E-08, 1.648E-08, , 
DataValue, 1.07, 3.6913599999999994E-08, 3.6913599999999994E-08, , 
DataValue, 1.08, 1.19168E-08, 1.19168E-08, , 
DataValue, 1.09, 1.29878E-08, 1.29878E-08, , 
DataValue, 1.1, 1.3100399999999998E-08, 1.3100399999999998E-08, , 
DataValue, 1.11, 1.3111599999999998E-08, 1.3111599999999998E-08, , 
DataValue, 1.12, 1.332E-08, 1.332E-08, , 
DataValue, 1.1300000000000001, 1.3531599999999998E-08, 1.3531599999999998E-08, , 
DataValue, 1.1400000000000001, 1.32246E-08, 1.32246E-08, , 
DataValue, 1.1500000000000001, 1.3220999999999998E-08, 1.3220999999999998E-08, , 
DataValue, 1.16, 1.2579399999999998E-08, 1.2579399999999998E-08, , 
DataValue, 1.17, 1.2954399999999998E-08, 1.2954399999999998E-08, , 
DataValue, 1.18, 1.4668199999999999E-08, 1.4668199999999999E-08, , 
DataValue, 1.19, 1.56176E-08, 1.56176E-08, , 
DataValue, 1.2, 1.3481999999999998E-08, 1.3481999999999998E-08, , 
DataValue, 1.21, 1.25514E-08, 1.25514E-08, , 
DataValue, 1.22, 1.8774799999999997E-08, 1.8774799999999997E-08, , 
DataValue, 1.23, 1.75234E-08, 1.75234E-08, , 
DataValue, 1.24, 2.22548E-08, 2.22548E-08, , 
DataValue, 1.25, 2.2513799999999998E-08, 2.2513799999999998E-08, , 
DataValue, 1.26, 2.1942999999999997E-08, 2.1942999999999997E-08, , 
DataValue, 1.27, 2.5901599999999997E-08, 2.5901599999999997E-08, , 
DataValue, 1.28, 2.4890999999999998E-08, 2.4890999999999998E-08, , 
DataValue, 1.29, 2.8690799999999998E-08, 2.8690799999999998E-08, , 
DataValue, 1.3, 2.68544E-08, 2.68544E-08, , 
DataValue, 1.31, 2.52174E-08, 2.52174E-08, , 
DataValue, 1.32, 2.5222399999999998E-08, 2.5222399999999998E-08, , 
DataValue, 1.33, 1.8640799999999997E-08, 1.8640799999999997E-08, , 
DataValue, 1.34, 1.8149999999999997E-08, 1.8149999999999997E-08, , 
DataValue, 1.35, 2.16888E-08, 2.16888E-08, , 
DataValue, 1.36, 2.3229E-08, 2.3229E-08, , 
DataValue, 1.37, 1.9812399999999997E-08, 1.9812399999999997E-08, , 
DataValue, 1.3800000000000001, 5.0199E-09, 5.0199E-09, , 
DataValue, 1.3900000000000001, 3.25866E-08, 3.25866E-08, , 
DataValue, 1.4000000000000001, 3.3175799999999995E-08, 3.3175799999999995E-08, , 
DataValue, 1.41, 3.7199999999999996E-08, 3.7199999999999996E-08, , 
DataValue, 1.42, 3.2677999999999997E-08, 3.2677999999999997E-08, , 
DataValue, 1.43, 3.7244999999999994E-08, 3.7244999999999994E-08, , 
DataValue, 1.44, 3.8682999999999996E-08, 3.8682999999999996E-08, , 
DataValue, 1.45, 3.7576E-08, 3.7576E-08, , 
DataValue, 1.46, 4.5855199999999994E-08, 4.5855199999999994E-08, , 
DataValue, 1.47, 5.0364999999999995E-08, 5.0364999999999995E-08, , 
DataValue, 1.48, 5.0200799999999996E-08, 5.0200799999999996E-08, , 
DataValue, 1.49, 5.2040199999999992E-08, 5.2040199999999992E-08, , 
DataValue, 1.5, 5.0298399999999993E-08, 5.0298399999999993E-08, , 
DataValue, 1.51, 5.2862399999999996E-08, 5.2862399999999996E-08, , 
DataValue, 1.52, 5.4111999999999995E-08, 5.4111999999999995E-08, , 
DataValue, 1.53, 5.1316599999999994E-08, 5.1316599999999994E-08, , 
DataValue, 1.54, 5.7621999999999991E-08, 5.7621999999999991E-08, , 
DataValue, 1.55, 5.6794599999999992E-08, 5.6794599999999992E-08, , 
DataValue, 1.56, 5.9433199999999991E-08, 5.9433199999999991E-08, , 
DataValue, 1.57, 6.04744E-08, 6.04744E-08, , 
DataValue, 1.58, 6.0746199999999991E-08, 6.0746199999999991E-08, , 
DataValue, 1.59, 6.20636E-08, 6.20636E-08, , 
DataValue, 1.6, 6.2949999999999991E-08, 6.2949999999999991E-08, , 
DataValue, 1.61, 6.4984E-08, 6.4984E-08, , 
DataValue, 1.62, 6.43536E-08, 6.43536E-08, , 
DataValue, 1.6300000000000001, 6.8272199999999988E-08, 6.8272199999999988E-08, , 
DataValue, 1.6400000000000001, 6.8795999999999989E-08, 6.8795999999999989E-08, , 
DataValue, 1.6500000000000001, 7.44904E-08, 7.44904E-08, , 
DataValue, 1.6600000000000001, 7.2410599999999991E-08, 7.2410599999999991E-08, , 
DataValue, 1.67, 1.0054E-05, 1.0054E-05, , 
DataValue, 1.68, 9.4536E-06, 9.4536E-06, , 
DataValue, 1.69, 9.5206000000000016E-06, 9.5206000000000016E-06, , 
DataValue, 1.7, 9.2874E-06, 9.2874E-06, , 
DataValue, 1.71, 9.5457E-06, 9.5457E-06, , 
DataValue, 1.72, 9.4691E-06, 9.4691E-06, , 
DataValue, 1.73, 9.3354E-06, 9.3354E-06, , 
DataValue, 1.74, 9.0455000000000017E-06, 9.0455000000000017E-06, , 
DataValue, 1.75, 8.9108000000000011E-06, 8.9108000000000011E-06, , 
DataValue, 1.76, 8.7057E-06, 8.7057E-06, , 
DataValue, 1.77, 9.556600000000001E-06, 9.556600000000001E-06, , 
DataValue, 1.78, 9.2832000000000012E-06, 9.2832000000000012E-06, , 
DataValue, 1.79, 8.990300000000001E-06, 8.990300000000001E-06, , 
DataValue, 1.8, 9.2331000000000014E-06, 9.2331000000000014E-06, , 
DataValue, 1.81, 9.1344E-06, 9.1344E-06, , 
DataValue, 1.82, 1.02317E-05, 1.02317E-05, , 
DataValue, 1.83, 9.7454000000000016E-06, 9.7454000000000016E-06, , 
DataValue, 1.84, 9.4416000000000012E-06, 9.4416000000000012E-06, , 
DataValue, 1.85, 9.0887000000000016E-06, 9.0887000000000016E-06, , 
DataValue, 1.86, 9.2164E-06, 9.2164E-06, , 
DataValue, 1.87, 9.0463E-06, 9.0463E-06, , 
DataValue, 1.8800000000000001, 9.0726E-06, 9.0726E-06, , 
DataValue, 1.8900000000000001, 9.3625E-06, 9.3625E-06, , 
DataValue, 1.9000000000000001, 9.4681000000000017E-06, 9.4681000000000017E-06, , 
DataValue, 1.9100000000000001, 9.4385000000000012E-06, 9.4385000000000012E-06, , 
DataValue, 1.92, 9.4543E-06, 9.4543E-06, , 
DataValue, 1.93, 9.6854E-06, 9.6854E-06, , 
DataValue, 1.94, 9.6652E-06, 9.6652E-06, , 
DataValue, 1.95, 9.374E-06, 9.374E-06, , 
DataValue, 1.96, 9.3394E-06, 9.3394E-06, , 
DataValue, 1.97, 9.8441000000000012E-06, 9.8441000000000012E-06, , 
DataValue, 1.98, 9.5086E-06, 9.5086E-06, , 
DataValue, 1.99, 9.7151000000000012E-06, 9.7151000000000012E-06, , 
DataValue, 2, 9.6529E-06, 9.6529E-06, , 
DataValue, 2.0100000000000002, 9.9470000000000015E-06, 9.9470000000000015E-06, , 
DataValue, 2.02, 9.912000000000001E-06, 9.912000000000001E-06, , 
DataValue, 2.0300000000000002, 9.5542E-06, 9.5542E-06, , 
DataValue, 2.04, 9.8553E-06, 9.8553E-06, , 
DataValue, 2.05, 9.113E-06, 9.113E-06, , 
DataValue, 2.06, 8.9461E-06, 8.9461E-06, , 
DataValue, 2.07, 9.0489E-06, 9.0489E-06, , 
DataValue, 2.08, 9.0457E-06, 9.0457E-06, , 
DataValue, 2.09, 8.8725E-06, 8.8725E-06, , 
DataValue, 2.1, 8.9221E-06, 8.9221E-06, , 
DataValue, 2.11, 9.3112000000000016E-06, 9.3112000000000016E-06, , 
DataValue, 2.12, 9.858700000000001E-06, 9.858700000000001E-06, , 
DataValue, 2.13, 9.4757000000000014E-06, 9.4757000000000014E-06, , 
DataValue, 2.14, 9.9252000000000011E-06, 9.9252000000000011E-06, , 
DataValue, 2.15, 9.3050000000000015E-06, 9.3050000000000015E-06, , 
DataValue, 2.16, 9.6526000000000014E-06, 9.6526000000000014E-06, , 
DataValue, 2.17, 9.6170000000000013E-06, 9.6170000000000013E-06, , 
DataValue, 2.18, 8.0820000000000016E-06, 8.0820000000000016E-06, , 
DataValue, 2.19, 8.8544000000000011E-06, 8.8544000000000011E-06, , 
DataValue, 2.2, 9.2472E-06, 9.2472E-06, , 
DataValue, 2.21, 8.4907000000000016E-06, 8.4907000000000016E-06, , 
DataValue, 2.22, 8.4941E-06, 8.4941E-06, , 
DataValue, 2.23, 8.712E-06, 8.712E-06, , 
DataValue, 2.24, 8.1755000000000016E-06, 8.1755000000000016E-06, , 
