
SetupTitle, ExtFET - POS SET - VG-1.52V - TE-3.5 24u
PrimitiveTest, I/V Sweep
TestParameter, Context.MainFrame, B1500A
TestParameter, Channel.UnitType, SMU, SMU, SMU
TestParameter, Channel.Unit, SMU2:HR, SMU4:HR, SMU3:HR
TestParameter, Channel.IName, I_TE, I_BE, I_G
TestParameter, Channel.VName, V_TE, V_BE, V_G
TestParameter, Channel.Mode, V, COMMON, V
TestParameter, Channel.Func, VAR1, CONST, CONST
TestParameter, Channel.Index, 
TestParameter, Channel.Time, 
TestParameter, Measurement.Port.Unit, SMU2:HR, SMU4:HR, SMU3:HR
TestParameter, Measurement.Port.SeriesResistor, NONE, NONE, NONE
TestParameter, Measurement.Port.Filter, ON, ON, ON
TestParameter, Measurement.Port.OutputVoltageComparison, 0, 0, 0
TestParameter, Measurement.Primary.Locus, Double
TestParameter, Measurement.Primary.Scale, LINEAR
TestParameter, Measurement.Primary.Start, 0
TestParameter, Measurement.Primary.Stop, 3.5
TestParameter, Measurement.Primary.Step, 0.01
TestParameter, Measurement.Primary.Compliance, 2.4E-05
TestParameter, Measurement.Primary.PowerCompliance, 0
TestParameter, Measurement.Aborting.Condition, CONTINUE AT ANY
TestParameter, Measurement.PostOutput.Value, START
TestParameter, Measurement.PostOutput.Retention, OFF
TestParameter, Measurement.Bias.Source, 0, 0, 1.52
TestParameter, Measurement.Bias.Compliance, 2.4E-05, 0.1, 0.0001
TestParameter, Measurement.Monitor.Unit, SMU2:HR, SMU4:HR, SMU3:HR
TestParameter, Measurement.Monitor.Adc, HR ADC, HR ADC, HR ADC
TestParameter, Measurement.Monitor.Measurement, Compliance Side, Compliance Side, Compliance Side
TestParameter, Measurement.Monitor.RangingMode, LIMITED, LIMITED, LIMITED
TestParameter, Measurement.Monitor.RangeBoundary, 1nA, 1nA, 1nA
TestParameter, Measurement.Monitor.RangeRating, BY FULL RANGE, BY FULL RANGE, BY FULL RANGE
TestParameter, Measurement.Monitor.RangeRatingCoeff, 50, 50, 50
TestParameter, Measurement.Timing.Hold, 0
TestParameter, Measurement.Timing.Delay, 0
TestParameter, Measurement.Adc.HighSpeed.Mode, AUTO
TestParameter, Measurement.Adc.HighSpeed.Coeff, 1
TestParameter, Measurement.Adc.HighResolution.AutoZero, OFF
TestParameter, Measurement.Adc.HighResolution.Mode, AUTO
TestParameter, Measurement.Adc.HighResolution.Coeff, 6
TestParameter, Measurement.WaitTime.Source.Coeff, 1
TestParameter, Measurement.WaitTime.Source.Offset, 0
TestParameter, Measurement.WaitTime.Monitor.Coeff, 1
TestParameter, Measurement.WaitTime.Monitor.Offset, 0
TestParameter, Function.User.Name, absITE
TestParameter, Function.User.Unit, A
TestParameter, Function.User.Definition, abs(I_TE)
TestParameter, Output.Graph.Enabled, true
TestParameter, Output.Graph.AutoScaling, false
TestParameter, Output.Graph.XAxis.Data, V_TE
TestParameter, Output.Graph.XAxis.Scale, Linear
TestParameter, Output.Graph.XAxis.Left, 0
TestParameter, Output.Graph.XAxis.Right, 10
TestParameter, Output.Graph.XAxis.RunTimeAutoScale, true
TestParameter, Output.Graph.YAxis.Data, absITE
TestParameter, Output.Graph.YAxis.Scale, Log
TestParameter, Output.Graph.YAxis.Bottom, 0
TestParameter, Output.Graph.YAxis.Top, 1
TestParameter, Output.Graph.YAxis.Group, 
TestParameter, Output.Graph.YAxis.RunTimeAutoScale, true
TestParameter, Output.List.Data, V1, I2abs
TestParameter, AutoAnalysis.Interpolation, false
TestParameter, AutoAnalysis.Var2StepCount, 1
TestParameter, AutoAnalysis.Var2StepScript, 
TestParameter, AutoAnalysis.Line1.Enabled, false
TestParameter, AutoAnalysis.Line1.Type, 1
TestParameter, AutoAnalysis.Line1.Fix, True
TestParameter, AutoAnalysis.Line1.YAxis, 0
TestParameter, AutoAnalysis.Line1.Point1.Type, 0
TestParameter, AutoAnalysis.Line1.Point1.XY.X, 
TestParameter, AutoAnalysis.Line1.Point1.XY.Y, 
TestParameter, AutoAnalysis.Line1.Point1.Data.Var, 
TestParameter, AutoAnalysis.Line1.Point1.Data.Condition, 
TestParameter, AutoAnalysis.Line1.Point1.Data.Start, false
TestParameter, AutoAnalysis.Line1.Point1.Data.StartVar, 
TestParameter, AutoAnalysis.Line1.Point1.Data.StartCondition, 
TestParameter, AutoAnalysis.Line1.Point2.Type, 0
TestParameter, AutoAnalysis.Line1.Point2.XY.X, 
TestParameter, AutoAnalysis.Line1.Point2.XY.Y, 
TestParameter, AutoAnalysis.Line1.Point2.Data.Var, 
TestParameter, AutoAnalysis.Line1.Point2.Data.Condition, 
TestParameter, AutoAnalysis.Line1.Point2.Data.Start, false
TestParameter, AutoAnalysis.Line1.Point2.Data.StartVar, 
TestParameter, AutoAnalysis.Line1.Point2.Data.StartCondition, 
TestParameter, AutoAnalysis.Line1.GradientExpr, 0
TestParameter, AutoAnalysis.Line2.Enabled, false
TestParameter, AutoAnalysis.Line2.Type, 1
TestParameter, AutoAnalysis.Line2.Fix, True
TestParameter, AutoAnalysis.Line2.YAxis, 0
TestParameter, AutoAnalysis.Line2.Point1.Type, 0
TestParameter, AutoAnalysis.Line2.Point1.XY.X, 
TestParameter, AutoAnalysis.Line2.Point1.XY.Y, 
TestParameter, AutoAnalysis.Line2.Point1.Data.Var, 
TestParameter, AutoAnalysis.Line2.Point1.Data.Condition, 
TestParameter, AutoAnalysis.Line2.Point1.Data.Start, false
TestParameter, AutoAnalysis.Line2.Point1.Data.StartVar, 
TestParameter, AutoAnalysis.Line2.Point1.Data.StartCondition, 
TestParameter, AutoAnalysis.Line2.Point2.Type, 0
TestParameter, AutoAnalysis.Line2.Point2.XY.X, 
TestParameter, AutoAnalysis.Line2.Point2.XY.Y, 
TestParameter, AutoAnalysis.Line2.Point2.Data.Var, 
TestParameter, AutoAnalysis.Line2.Point2.Data.Condition, 
TestParameter, AutoAnalysis.Line2.Point2.Data.Start, false
TestParameter, AutoAnalysis.Line2.Point2.Data.StartVar, 
TestParameter, AutoAnalysis.Line2.Point2.Data.StartCondition, 
TestParameter, AutoAnalysis.Line2.GradientExpr, 0
TestParameter, AutoAnalysis.Marker.Enabled, false
TestParameter, AutoAnalysis.Marker.Data.Var, 
TestParameter, AutoAnalysis.Marker.Data.Condition, 
TestParameter, AutoAnalysis.Marker.Data.Start, false
TestParameter, AutoAnalysis.Marker.Data.StartVar, 
TestParameter, AutoAnalysis.Marker.Data.StartCondition, 
MetaData, TestRecord.EntryPoint, true
MetaData, TestRecord.RecordTime, 04/14/2020 20:31:00
MetaData, TestRecord.TestTarget, InGaAs_1_W_BE_FijiHfO2_NW-G05
MetaData, TestRecord.IterationIndex, 86
MetaData, TestRecord.Preservation, true
MetaData, TestRecord.Flag, 
MetaData, TestRecord.Remarks, 
MetaData, TestRecord.LinkKey, 2bc41198-5d96-4e93-b03c-c2852a72aa19
MetaData, TestRecord.Parameters, 
Dimension1, 702, 702, 702, 702, 702
Dimension2, 1, 1, 1, 1, 1
DataName, V_TE, I_TE, absITE, V1, I2abs
DataValue, 0, -9.13E-12, 9.13E-12, , 
DataValue, 0.01, 4.7180000000000005E-11, 4.7180000000000005E-11, , 
DataValue, 0.02, 3.098E-11, 3.098E-11, , 
DataValue, 0.03, 5.4400000000000007E-11, 5.4400000000000007E-11, , 
DataValue, 0.04, 2.9050000000000002E-11, 2.9050000000000002E-11, , 
DataValue, 0.05, 5.364E-11, 5.364E-11, , 
DataValue, 0.06, 3.041E-11, 3.041E-11, , 
DataValue, 0.07, 5.284E-11, 5.284E-11, , 
DataValue, 0.08, 3.219E-11, 3.219E-11, , 
DataValue, 0.09, 5.412E-11, 5.412E-11, , 
DataValue, 0.1, 2.8850000000000002E-11, 2.8850000000000002E-11, , 
DataValue, 0.11, 5.915000000000001E-11, 5.915000000000001E-11, , 
DataValue, 0.12, 2.724E-11, 2.724E-11, , 
DataValue, 0.13, 6.275E-11, 6.275E-11, , 
DataValue, 0.14, 2.5E-11, 2.5E-11, , 
DataValue, 0.15, 6.4010000000000007E-11, 6.4010000000000007E-11, , 
DataValue, 0.16, 2.8850000000000002E-11, 2.8850000000000002E-11, , 
DataValue, 0.17, 6.485E-11, 6.485E-11, , 
DataValue, 0.18, 2.969E-11, 2.969E-11, , 
DataValue, 0.19, 6.5720000000000007E-11, 6.5720000000000007E-11, , 
DataValue, 0.2, 2.9630000000000005E-11, 2.9630000000000005E-11, , 
DataValue, 0.21, 6.6740000000000007E-11, 6.6740000000000007E-11, , 
DataValue, 0.22, 3.3420000000000006E-11, 3.3420000000000006E-11, , 
DataValue, 0.23, 6.826E-11, 6.826E-11, , 
DataValue, 0.24, 3.5710000000000005E-11, 3.5710000000000005E-11, , 
DataValue, 0.25, 6.9520000000000009E-11, 6.9520000000000009E-11, , 
DataValue, 0.26, 3.792E-11, 3.792E-11, , 
DataValue, 0.27, 7.1390000000000011E-11, 7.1390000000000011E-11, , 
DataValue, 0.28, 4.0360000000000003E-11, 4.0360000000000003E-11, , 
DataValue, 0.29, 7.42E-11, 7.42E-11, , 
DataValue, 0.3, 3.9560000000000003E-11, 3.9560000000000003E-11, , 
DataValue, 0.31, 7.656E-11, 7.656E-11, , 
DataValue, 0.32, 4.464E-11, 4.464E-11, , 
DataValue, 0.33, 8.0270000000000011E-11, 8.0270000000000011E-11, , 
DataValue, 0.34, 4.9080000000000007E-11, 4.9080000000000007E-11, , 
DataValue, 0.35000000000000003, 8.8440000000000007E-11, 8.8440000000000007E-11, , 
DataValue, 0.36, 5.5200000000000007E-11, 5.5200000000000007E-11, , 
DataValue, 0.37, 9.8720000000000009E-11, 9.8720000000000009E-11, , 
DataValue, 0.38, 5.4980000000000007E-11, 5.4980000000000007E-11, , 
DataValue, 0.39, 9.5470000000000007E-11, 9.5470000000000007E-11, , 
DataValue, 0.4, 4.792E-11, 4.792E-11, , 
DataValue, 0.41000000000000003, 9.3180000000000008E-11, 9.3180000000000008E-11, , 
DataValue, 0.42, 6.0090000000000009E-11, 6.0090000000000009E-11, , 
DataValue, 0.43, 9.7800000000000014E-11, 9.7800000000000014E-11, , 
DataValue, 0.44, 6.541000000000001E-11, 6.541000000000001E-11, , 
DataValue, 0.45, 9.308E-11, 9.308E-11, , 
DataValue, 0.46, 7.1230000000000009E-11, 7.1230000000000009E-11, , 
DataValue, 0.47000000000000003, 1.0242000000000001E-10, 1.0242000000000001E-10, , 
DataValue, 0.48, 9.1470000000000008E-11, 9.1470000000000008E-11, , 
DataValue, 0.49, 9.0110000000000012E-11, 9.0110000000000012E-11, , 
DataValue, 0.5, 1.0501000000000001E-10, 1.0501000000000001E-10, , 
DataValue, 0.51, 1.0369E-10, 1.0369E-10, , 
DataValue, 0.52, 1.2333E-10, 1.2333E-10, , 
DataValue, 0.53, 1.1975E-10, 1.1975E-10, , 
DataValue, 0.54, 1.2931000000000002E-10, 1.2931000000000002E-10, , 
DataValue, 0.55, 1.1942E-10, 1.1942E-10, , 
DataValue, 0.56, 2.3476E-10, 2.3476E-10, , 
DataValue, 0.57000000000000006, 2.0076000000000001E-10, 2.0076000000000001E-10, , 
DataValue, 0.58, 2.3551E-10, 2.3551E-10, , 
DataValue, 0.59, 2.4065000000000004E-10, 2.4065000000000004E-10, , 
DataValue, 0.6, 1.7356000000000002E-10, 1.7356000000000002E-10, , 
DataValue, 0.61, 2.5482E-10, 2.5482E-10, , 
DataValue, 0.62, 2.9644E-10, 2.9644E-10, , 
DataValue, 0.63, 2.6554E-10, 2.6554E-10, , 
DataValue, 0.64, 3.017E-10, 3.017E-10, , 
DataValue, 0.65, 2.8803000000000004E-10, 2.8803000000000004E-10, , 
DataValue, 0.66, 4.7278E-09, 4.7278E-09, , 
DataValue, 0.67, 4.5078E-09, 4.5078E-09, , 
DataValue, 0.68, 4.4141E-09, 4.4141E-09, , 
DataValue, 0.69000000000000006, 4.8125E-09, 4.8125E-09, , 
DataValue, 0.70000000000000007, 5.6779E-09, 5.6779E-09, , 
DataValue, 0.71, 5.092E-09, 5.092E-09, , 
DataValue, 0.72, 4.8546E-09, 4.8546E-09, , 
DataValue, 0.73, 5.2557E-09, 5.2557E-09, , 
DataValue, 0.74, 6.0634E-09, 6.0634E-09, , 
DataValue, 0.75, 5.7209E-09, 5.7209E-09, , 
DataValue, 0.76, 6.1002E-09, 6.1002E-09, , 
DataValue, 0.77, 5.5322E-09, 5.5322E-09, , 
DataValue, 0.78, 6.6732E-09, 6.6732E-09, , 
DataValue, 0.79, 5.8934E-09, 5.8934E-09, , 
DataValue, 0.8, 7.4887E-09, 7.4887E-09, , 
DataValue, 0.81, 6.1503E-09, 6.1503E-09, , 
DataValue, 0.82000000000000006, 7.187E-09, 7.187E-09, , 
DataValue, 0.83000000000000007, 7.4963E-09, 7.4963E-09, , 
DataValue, 0.84, 7.4226E-09, 7.4226E-09, , 
DataValue, 0.85, 7.667E-09, 7.667E-09, , 
DataValue, 0.86, 7.995E-09, 7.995E-09, , 
DataValue, 0.87, 7.7863E-09, 7.7863E-09, , 
DataValue, 0.88, 8.5065E-09, 8.5065E-09, , 
DataValue, 0.89, 8.2336E-09, 8.2336E-09, , 
DataValue, 0.9, 8.5789E-09, 8.5789E-09, , 
DataValue, 0.91, 8.919E-09, 8.919E-09, , 
DataValue, 0.92, 8.8507E-09, 8.8507E-09, , 
DataValue, 0.93, 8.936E-09, 8.936E-09, , 
DataValue, 0.94000000000000006, 9.1896E-09, 9.1896E-09, , 
DataValue, 0.95000000000000007, 9.306E-09, 9.306E-09, , 
DataValue, 0.96, 9.8659E-09, 9.8659E-09, , 
DataValue, 0.97, 9.5817E-09, 9.5817E-09, , 
DataValue, 0.98, 8.9937E-09, 8.9937E-09, , 
DataValue, 0.99, 1.00709E-08, 1.00709E-08, , 
DataValue, 1, 7.9598E-09, 7.9598E-09, , 
DataValue, 1.01, 1.01195E-08, 1.01195E-08, , 
DataValue, 1.02, 1.0969E-08, 1.0969E-08, , 
DataValue, 1.03, 9.5883E-09, 9.5883E-09, , 
DataValue, 1.04, 1.0275699999999999E-08, 1.0275699999999999E-08, , 
DataValue, 1.05, 1.02541E-08, 1.02541E-08, , 
DataValue, 1.06, 1.03376E-08, 1.03376E-08, , 
DataValue, 1.07, 8.5804E-09, 8.5804E-09, , 
DataValue, 1.08, 8.5842E-09, 8.5842E-09, , 
DataValue, 1.09, 1.15732E-08, 1.15732E-08, , 
DataValue, 1.1, 1.1837799999999999E-08, 1.1837799999999999E-08, , 
DataValue, 1.11, 1.1137199999999998E-08, 1.1137199999999998E-08, , 
DataValue, 1.12, 1.2045599999999999E-08, 1.2045599999999999E-08, , 
DataValue, 1.1300000000000001, 1.1686799999999998E-08, 1.1686799999999998E-08, , 
DataValue, 1.1400000000000001, 1.1821999999999998E-08, 1.1821999999999998E-08, , 
DataValue, 1.1500000000000001, 1.24706E-08, 1.24706E-08, , 
DataValue, 1.16, 1.3298599999999999E-08, 1.3298599999999999E-08, , 
DataValue, 1.17, 1.37944E-08, 1.37944E-08, , 
DataValue, 1.18, 1.35888E-08, 1.35888E-08, , 
DataValue, 1.19, 1.3622E-08, 1.3622E-08, , 
DataValue, 1.2, 8.6355999999999986E-09, 8.6355999999999986E-09, , 
DataValue, 1.21, 3.26708E-08, 3.26708E-08, , 
DataValue, 1.22, 2.6775599999999996E-08, 2.6775599999999996E-08, , 
DataValue, 1.23, 2.0225599999999997E-08, 2.0225599999999997E-08, , 
DataValue, 1.24, 2.0764399999999998E-08, 2.0764399999999998E-08, , 
DataValue, 1.25, 2.3226199999999997E-08, 2.3226199999999997E-08, , 
DataValue, 1.26, 2.0759799999999998E-08, 2.0759799999999998E-08, , 
DataValue, 1.27, 2.196E-08, 2.196E-08, , 
DataValue, 1.28, 2.16286E-08, 2.16286E-08, , 
DataValue, 1.29, 2.29504E-08, 2.29504E-08, , 
DataValue, 1.3, 2.2502399999999997E-08, 2.2502399999999997E-08, , 
DataValue, 1.31, 2.1937199999999997E-08, 2.1937199999999997E-08, , 
DataValue, 1.32, 2.2689E-08, 2.2689E-08, , 
DataValue, 1.33, 2.29542E-08, 2.29542E-08, , 
DataValue, 1.34, 2.3030999999999996E-08, 2.3030999999999996E-08, , 
DataValue, 1.35, 1.9701999999999997E-08, 1.9701999999999997E-08, , 
DataValue, 1.36, 2.2405999999999998E-07, 2.2405999999999998E-07, , 
DataValue, 1.37, 3.10838E-08, 3.10838E-08, , 
DataValue, 1.3800000000000001, 2.8929599999999997E-08, 2.8929599999999997E-08, , 
DataValue, 1.3900000000000001, 3.88174E-08, 3.88174E-08, , 
DataValue, 1.4000000000000001, 2.115E-07, 2.115E-07, , 
DataValue, 1.41, 4.3676E-07, 4.3676E-07, , 
DataValue, 1.42, 2.7554E-07, 2.7554E-07, , 
DataValue, 1.43, 3.4172E-07, 3.4172E-07, , 
DataValue, 1.44, 3.1361999999999997E-07, 3.1361999999999997E-07, , 
DataValue, 1.45, 6.0134000000000007E-06, 6.0134000000000007E-06, , 
DataValue, 1.46, 6.1856000000000005E-06, 6.1856000000000005E-06, , 
DataValue, 1.47, 7.3315000000000009E-06, 7.3315000000000009E-06, , 
DataValue, 1.48, 5.5496E-06, 5.5496E-06, , 
DataValue, 1.49, 7.5428000000000009E-06, 7.5428000000000009E-06, , 
DataValue, 1.5, 7.7711000000000009E-06, 7.7711000000000009E-06, , 
DataValue, 1.51, 8.3929E-06, 8.3929E-06, , 
DataValue, 1.52, 7.0843000000000009E-06, 7.0843000000000009E-06, , 
DataValue, 1.53, 7.3164000000000008E-06, 7.3164000000000008E-06, , 
DataValue, 1.54, 8.0496E-06, 8.0496E-06, , 
DataValue, 1.55, 6.7855000000000005E-06, 6.7855000000000005E-06, , 
DataValue, 1.56, 7.0129000000000011E-06, 7.0129000000000011E-06, , 
DataValue, 1.57, 6.5872000000000011E-06, 6.5872000000000011E-06, , 
DataValue, 1.58, 6.6960000000000008E-06, 6.6960000000000008E-06, , 
DataValue, 1.59, 6.1649000000000009E-06, 6.1649000000000009E-06, , 
DataValue, 1.6, 6.8692000000000011E-06, 6.8692000000000011E-06, , 
DataValue, 1.61, 6.9447000000000006E-06, 6.9447000000000006E-06, , 
DataValue, 1.62, 6.9353E-06, 6.9353E-06, , 
DataValue, 1.6300000000000001, 6.5789000000000007E-06, 6.5789000000000007E-06, , 
DataValue, 1.6400000000000001, 6.9359000000000008E-06, 6.9359000000000008E-06, , 
DataValue, 1.6500000000000001, 6.7871000000000006E-06, 6.7871000000000006E-06, , 
DataValue, 1.6600000000000001, 6.5467E-06, 6.5467E-06, , 
DataValue, 1.67, 7.0550000000000011E-06, 7.0550000000000011E-06, , 
DataValue, 1.68, 6.7771000000000007E-06, 6.7771000000000007E-06, , 
DataValue, 1.69, 6.893500000000001E-06, 6.893500000000001E-06, , 
DataValue, 1.7, 7.3583E-06, 7.3583E-06, , 
DataValue, 1.71, 7.3888000000000012E-06, 7.3888000000000012E-06, , 
DataValue, 1.72, 7.4827E-06, 7.4827E-06, , 
DataValue, 1.73, 6.9286000000000009E-06, 6.9286000000000009E-06, , 
DataValue, 1.74, 7.110600000000001E-06, 7.110600000000001E-06, , 
DataValue, 1.75, 7.178600000000001E-06, 7.178600000000001E-06, , 
DataValue, 1.76, 8.0128E-06, 8.0128E-06, , 
DataValue, 1.77, 7.1380000000000009E-06, 7.1380000000000009E-06, , 
DataValue, 1.78, 7.2807000000000004E-06, 7.2807000000000004E-06, , 
DataValue, 1.79, 7.1431000000000011E-06, 7.1431000000000011E-06, , 
DataValue, 1.8, 7.866E-06, 7.866E-06, , 
DataValue, 1.81, 7.1383000000000008E-06, 7.1383000000000008E-06, , 
DataValue, 1.82, 7.1074000000000008E-06, 7.1074000000000008E-06, , 
DataValue, 1.83, 7.1170000000000006E-06, 7.1170000000000006E-06, , 
DataValue, 1.84, 7.319600000000001E-06, 7.319600000000001E-06, , 
DataValue, 1.85, 7.1885000000000007E-06, 7.1885000000000007E-06, , 
DataValue, 1.86, 7.8931E-06, 7.8931E-06, , 
DataValue, 1.87, 7.1027000000000006E-06, 7.1027000000000006E-06, , 
DataValue, 1.8800000000000001, 7.538600000000001E-06, 7.538600000000001E-06, , 
DataValue, 1.8900000000000001, 7.4222000000000007E-06, 7.4222000000000007E-06, , 
DataValue, 1.9000000000000001, 7.8679000000000014E-06, 7.8679000000000014E-06, , 
DataValue, 1.9100000000000001, 7.6961E-06, 7.6961E-06, , 
DataValue, 1.92, 6.2895000000000005E-06, 6.2895000000000005E-06, , 
DataValue, 1.93, 6.7462000000000007E-06, 6.7462000000000007E-06, , 
DataValue, 1.94, 7.4485000000000008E-06, 7.4485000000000008E-06, , 
DataValue, 1.95, 7.1618000000000006E-06, 7.1618000000000006E-06, , 
DataValue, 1.96, 8.1287E-06, 8.1287E-06, , 
DataValue, 1.97, 7.9745000000000013E-06, 7.9745000000000013E-06, , 
DataValue, 1.98, 7.8452E-06, 7.8452E-06, , 
DataValue, 1.99, 7.6531000000000013E-06, 7.6531000000000013E-06, , 
DataValue, 2, 7.2738000000000006E-06, 7.2738000000000006E-06, , 
DataValue, 2.0100000000000002, 6.437300000000001E-06, 6.437300000000001E-06, , 
DataValue, 2.02, 7.0880000000000006E-06, 7.0880000000000006E-06, , 
DataValue, 2.0300000000000002, 7.4305000000000011E-06, 7.4305000000000011E-06, , 
DataValue, 2.04, 7.3342000000000009E-06, 7.3342000000000009E-06, , 
DataValue, 2.05, 7.2528000000000011E-06, 7.2528000000000011E-06, , 
DataValue, 2.06, 7.4000000000000011E-06, 7.4000000000000011E-06, , 
DataValue, 2.07, 7.5442000000000005E-06, 7.5442000000000005E-06, , 
DataValue, 2.08, 8.3897E-06, 8.3897E-06, , 
DataValue, 2.09, 9.3246E-06, 9.3246E-06, , 
DataValue, 2.1, 9.49E-06, 9.49E-06, , 
DataValue, 2.11, 7.6135000000000009E-06, 7.6135000000000009E-06, , 
DataValue, 2.12, 8.1297000000000011E-06, 8.1297000000000011E-06, , 
DataValue, 2.13, 8.393100000000001E-06, 8.393100000000001E-06, , 
DataValue, 2.14, 7.4311000000000007E-06, 7.4311000000000007E-06, , 
DataValue, 2.15, 7.852E-06, 7.852E-06, , 
DataValue, 2.16, 7.4664000000000011E-06, 7.4664000000000011E-06, , 
DataValue, 2.17, 7.271300000000001E-06, 7.271300000000001E-06, , 
DataValue, 2.18, 7.1790000000000011E-06, 7.1790000000000011E-06, , 
DataValue, 2.19, 7.1259000000000007E-06, 7.1259000000000007E-06, , 
DataValue, 2.2, 7.4836000000000007E-06, 7.4836000000000007E-06, , 
DataValue, 2.21, 7.4930000000000009E-06, 7.4930000000000009E-06, , 
DataValue, 2.22, 7.8595000000000016E-06, 7.8595000000000016E-06, , 
DataValue, 2.23, 7.4415000000000007E-06, 7.4415000000000007E-06, , 
DataValue, 2.24, 7.566800000000001E-06, 7.566800000000001E-06, , 
DataValue, 2.25, 7.6065000000000008E-06, 7.6065000000000008E-06, , 
DataValue, 2.2600000000000002, 7.8334E-06, 7.8334E-06, , 
DataValue, 2.27, 7.3075000000000008E-06, 7.3075000000000008E-06, , 
