
SetupTitle, ExtFET - POS SET - VG-1.52V - TE-3.5 24u
PrimitiveTest, I/V Sweep
TestParameter, Context.MainFrame, B1500A
TestParameter, Channel.UnitType, SMU, SMU, SMU
TestParameter, Channel.Unit, SMU2:HR, SMU4:HR, SMU3:HR
TestParameter, Channel.IName, I_TE, I_BE, I_G
TestParameter, Channel.VName, V_TE, V_BE, V_G
TestParameter, Channel.Mode, V, COMMON, V
TestParameter, Channel.Func, VAR1, CONST, CONST
TestParameter, Channel.Index, 
TestParameter, Channel.Time, 
TestParameter, Measurement.Port.Unit, SMU2:HR, SMU4:HR, SMU3:HR
TestParameter, Measurement.Port.SeriesResistor, NONE, NONE, NONE
TestParameter, Measurement.Port.Filter, ON, ON, ON
TestParameter, Measurement.Port.OutputVoltageComparison, 0, 0, 0
TestParameter, Measurement.Primary.Locus, Double
TestParameter, Measurement.Primary.Scale, LINEAR
TestParameter, Measurement.Primary.Start, 0
TestParameter, Measurement.Primary.Stop, 3.5
TestParameter, Measurement.Primary.Step, 0.01
TestParameter, Measurement.Primary.Compliance, 2.4E-05
TestParameter, Measurement.Primary.PowerCompliance, 0
TestParameter, Measurement.Aborting.Condition, CONTINUE AT ANY
TestParameter, Measurement.PostOutput.Value, START
TestParameter, Measurement.PostOutput.Retention, OFF
TestParameter, Measurement.Bias.Source, 0, 0, 1.52
TestParameter, Measurement.Bias.Compliance, 2.4E-05, 0.1, 0.0001
TestParameter, Measurement.Monitor.Unit, SMU2:HR, SMU4:HR, SMU3:HR
TestParameter, Measurement.Monitor.Adc, HR ADC, HR ADC, HR ADC
TestParameter, Measurement.Monitor.Measurement, Compliance Side, Compliance Side, Compliance Side
TestParameter, Measurement.Monitor.RangingMode, LIMITED, LIMITED, LIMITED
TestParameter, Measurement.Monitor.RangeBoundary, 1nA, 1nA, 1nA
TestParameter, Measurement.Monitor.RangeRating, BY FULL RANGE, BY FULL RANGE, BY FULL RANGE
TestParameter, Measurement.Monitor.RangeRatingCoeff, 50, 50, 50
TestParameter, Measurement.Timing.Hold, 0
TestParameter, Measurement.Timing.Delay, 0
TestParameter, Measurement.Adc.HighSpeed.Mode, AUTO
TestParameter, Measurement.Adc.HighSpeed.Coeff, 1
TestParameter, Measurement.Adc.HighResolution.AutoZero, OFF
TestParameter, Measurement.Adc.HighResolution.Mode, AUTO
TestParameter, Measurement.Adc.HighResolution.Coeff, 6
TestParameter, Measurement.WaitTime.Source.Coeff, 1
TestParameter, Measurement.WaitTime.Source.Offset, 0
TestParameter, Measurement.WaitTime.Monitor.Coeff, 1
TestParameter, Measurement.WaitTime.Monitor.Offset, 0
TestParameter, Function.User.Name, absITE
TestParameter, Function.User.Unit, A
TestParameter, Function.User.Definition, abs(I_TE)
TestParameter, Output.Graph.Enabled, true
TestParameter, Output.Graph.AutoScaling, false
TestParameter, Output.Graph.XAxis.Data, V_TE
TestParameter, Output.Graph.XAxis.Scale, Linear
TestParameter, Output.Graph.XAxis.Left, 0
TestParameter, Output.Graph.XAxis.Right, 10
TestParameter, Output.Graph.XAxis.RunTimeAutoScale, true
TestParameter, Output.Graph.YAxis.Data, absITE
TestParameter, Output.Graph.YAxis.Scale, Log
TestParameter, Output.Graph.YAxis.Bottom, 0
TestParameter, Output.Graph.YAxis.Top, 1
TestParameter, Output.Graph.YAxis.Group, 
TestParameter, Output.Graph.YAxis.RunTimeAutoScale, true
TestParameter, Output.List.Data, V1, I2abs
TestParameter, AutoAnalysis.Interpolation, false
TestParameter, AutoAnalysis.Var2StepCount, 1
TestParameter, AutoAnalysis.Var2StepScript, 
TestParameter, AutoAnalysis.Line1.Enabled, false
TestParameter, AutoAnalysis.Line1.Type, 1
TestParameter, AutoAnalysis.Line1.Fix, True
TestParameter, AutoAnalysis.Line1.YAxis, 0
TestParameter, AutoAnalysis.Line1.Point1.Type, 0
TestParameter, AutoAnalysis.Line1.Point1.XY.X, 
TestParameter, AutoAnalysis.Line1.Point1.XY.Y, 
TestParameter, AutoAnalysis.Line1.Point1.Data.Var, 
TestParameter, AutoAnalysis.Line1.Point1.Data.Condition, 
TestParameter, AutoAnalysis.Line1.Point1.Data.Start, false
TestParameter, AutoAnalysis.Line1.Point1.Data.StartVar, 
TestParameter, AutoAnalysis.Line1.Point1.Data.StartCondition, 
TestParameter, AutoAnalysis.Line1.Point2.Type, 0
TestParameter, AutoAnalysis.Line1.Point2.XY.X, 
TestParameter, AutoAnalysis.Line1.Point2.XY.Y, 
TestParameter, AutoAnalysis.Line1.Point2.Data.Var, 
TestParameter, AutoAnalysis.Line1.Point2.Data.Condition, 
TestParameter, AutoAnalysis.Line1.Point2.Data.Start, false
TestParameter, AutoAnalysis.Line1.Point2.Data.StartVar, 
TestParameter, AutoAnalysis.Line1.Point2.Data.StartCondition, 
TestParameter, AutoAnalysis.Line1.GradientExpr, 0
TestParameter, AutoAnalysis.Line2.Enabled, false
TestParameter, AutoAnalysis.Line2.Type, 1
TestParameter, AutoAnalysis.Line2.Fix, True
TestParameter, AutoAnalysis.Line2.YAxis, 0
TestParameter, AutoAnalysis.Line2.Point1.Type, 0
TestParameter, AutoAnalysis.Line2.Point1.XY.X, 
TestParameter, AutoAnalysis.Line2.Point1.XY.Y, 
TestParameter, AutoAnalysis.Line2.Point1.Data.Var, 
TestParameter, AutoAnalysis.Line2.Point1.Data.Condition, 
TestParameter, AutoAnalysis.Line2.Point1.Data.Start, false
TestParameter, AutoAnalysis.Line2.Point1.Data.StartVar, 
TestParameter, AutoAnalysis.Line2.Point1.Data.StartCondition, 
TestParameter, AutoAnalysis.Line2.Point2.Type, 0
TestParameter, AutoAnalysis.Line2.Point2.XY.X, 
TestParameter, AutoAnalysis.Line2.Point2.XY.Y, 
TestParameter, AutoAnalysis.Line2.Point2.Data.Var, 
TestParameter, AutoAnalysis.Line2.Point2.Data.Condition, 
TestParameter, AutoAnalysis.Line2.Point2.Data.Start, false
TestParameter, AutoAnalysis.Line2.Point2.Data.StartVar, 
TestParameter, AutoAnalysis.Line2.Point2.Data.StartCondition, 
TestParameter, AutoAnalysis.Line2.GradientExpr, 0
TestParameter, AutoAnalysis.Marker.Enabled, false
TestParameter, AutoAnalysis.Marker.Data.Var, 
TestParameter, AutoAnalysis.Marker.Data.Condition, 
TestParameter, AutoAnalysis.Marker.Data.Start, false
TestParameter, AutoAnalysis.Marker.Data.StartVar, 
TestParameter, AutoAnalysis.Marker.Data.StartCondition, 
MetaData, TestRecord.EntryPoint, true
MetaData, TestRecord.RecordTime, 04/14/2020 20:29:39
MetaData, TestRecord.TestTarget, InGaAs_1_W_BE_FijiHfO2_NW-G05
MetaData, TestRecord.IterationIndex, 81
MetaData, TestRecord.Preservation, true
MetaData, TestRecord.Flag, 
MetaData, TestRecord.Remarks, 
MetaData, TestRecord.LinkKey, 888c3347-fbd0-4f4f-b95e-f3ef26f0370b
MetaData, TestRecord.Parameters, 
Dimension1, 702, 702, 702, 702, 702
Dimension2, 1, 1, 1, 1, 1
DataName, V_TE, I_TE, absITE, V1, I2abs
DataValue, 0, -3.1900000000000003E-12, 3.1900000000000003E-12, , 
DataValue, 0.01, 5.6470000000000006E-11, 5.6470000000000006E-11, , 
DataValue, 0.02, 5.8060000000000004E-11, 5.8060000000000004E-11, , 
DataValue, 0.03, 9.2190000000000007E-11, 9.2190000000000007E-11, , 
DataValue, 0.04, 8.6620000000000007E-11, 8.6620000000000007E-11, , 
DataValue, 0.05, 1.2243E-10, 1.2243E-10, , 
DataValue, 0.06, 1.1645000000000002E-10, 1.1645000000000002E-10, , 
DataValue, 0.07, 8.6150000000000008E-11, 8.6150000000000008E-11, , 
DataValue, 0.08, 1.4995E-10, 1.4995E-10, , 
DataValue, 0.09, 1.6403E-10, 1.6403E-10, , 
DataValue, 0.1, 1.4213E-10, 1.4213E-10, , 
DataValue, 0.11, 1.7281000000000002E-10, 1.7281000000000002E-10, , 
DataValue, 0.12, 1.7601000000000002E-10, 1.7601000000000002E-10, , 
DataValue, 0.13, 3.9964000000000003E-10, 3.9964000000000003E-10, , 
DataValue, 0.14, 2.0087000000000003E-10, 2.0087000000000003E-10, , 
DataValue, 0.15, 4.2444000000000004E-10, 4.2444000000000004E-10, , 
DataValue, 0.16, 4.6039000000000005E-10, 4.6039000000000005E-10, , 
DataValue, 0.17, 5.5969000000000006E-10, 5.5969000000000006E-10, , 
DataValue, 0.18, 4.9663000000000007E-10, 4.9663000000000007E-10, , 
DataValue, 0.19, 5.5110000000000009E-10, 5.5110000000000009E-10, , 
DataValue, 0.2, 5.6695000000000009E-10, 5.6695000000000009E-10, , 
DataValue, 0.21, 6.7802E-10, 6.7802E-10, , 
DataValue, 0.22, 6.7518E-10, 6.7518E-10, , 
DataValue, 0.23, 7.1188E-10, 7.1188E-10, , 
DataValue, 0.24, 9.825E-10, 9.825E-10, , 
DataValue, 0.25, 1.6176E-09, 1.6176E-09, , 
DataValue, 0.26, 1.4069E-09, 1.4069E-09, , 
DataValue, 0.27, 1.6593E-09, 1.6593E-09, , 
DataValue, 0.28, 1.7517E-09, 1.7517E-09, , 
DataValue, 0.29, 2.1716E-09, 2.1716E-09, , 
DataValue, 0.3, 2.085E-09, 2.085E-09, , 
DataValue, 0.31, 2.45E-09, 2.45E-09, , 
DataValue, 0.32, 2.8454E-09, 2.8454E-09, , 
DataValue, 0.33, 3.3042E-09, 3.3042E-09, , 
DataValue, 0.34, 2.6289E-09, 2.6289E-09, , 
DataValue, 0.35000000000000003, 3.2161E-09, 3.2161E-09, , 
DataValue, 0.36, 3.7077E-09, 3.7077E-09, , 
DataValue, 0.37, 3.9834E-09, 3.9834E-09, , 
DataValue, 0.38, 4.0254E-09, 4.0254E-09, , 
DataValue, 0.39, 3.5916E-09, 3.5916E-09, , 
DataValue, 0.4, 4.3534E-09, 4.3534E-09, , 
DataValue, 0.41000000000000003, 4.2898E-09, 4.2898E-09, , 
DataValue, 0.42, 3.6395E-09, 3.6395E-09, , 
DataValue, 0.43, 3.5739E-09, 3.5739E-09, , 
DataValue, 0.44, 5.0878E-09, 5.0878E-09, , 
DataValue, 0.45, 5.8379999999999991E-09, 5.8379999999999991E-09, , 
DataValue, 0.46, 8.0635999999999985E-09, 8.0635999999999985E-09, , 
DataValue, 0.47000000000000003, 6.0235E-09, 6.0235E-09, , 
DataValue, 0.48, 5.3311999999999991E-09, 5.3311999999999991E-09, , 
DataValue, 0.49, 7.0858E-09, 7.0858E-09, , 
DataValue, 0.5, 7.2605999999999995E-09, 7.2605999999999995E-09, , 
DataValue, 0.51, 9.4216E-09, 9.4216E-09, , 
DataValue, 0.52, 8.4721999999999989E-09, 8.4721999999999989E-09, , 
DataValue, 0.53, 1.4274599999999999E-08, 1.4274599999999999E-08, , 
DataValue, 0.54, 1.2935399999999998E-08, 1.2935399999999998E-08, , 
DataValue, 0.55, 1.1659999999999998E-08, 1.1659999999999998E-08, , 
DataValue, 0.56, 1.7096199999999997E-08, 1.7096199999999997E-08, , 
DataValue, 0.57000000000000006, 1.02724E-08, 1.02724E-08, , 
DataValue, 0.58, 1.09594E-08, 1.09594E-08, , 
DataValue, 0.59, 1.1028E-08, 1.1028E-08, , 
DataValue, 0.6, 1.1694799999999999E-08, 1.1694799999999999E-08, , 
DataValue, 0.61, 1.3042599999999998E-08, 1.3042599999999998E-08, , 
DataValue, 0.62, 1.51082E-08, 1.51082E-08, , 
DataValue, 0.63, 2.8732999999999997E-08, 2.8732999999999997E-08, , 
DataValue, 0.64, 2.4668199999999997E-08, 2.4668199999999997E-08, , 
DataValue, 0.65, 1.3578999999999999E-08, 1.3578999999999999E-08, , 
DataValue, 0.66, 1.5626999999999998E-08, 1.5626999999999998E-08, , 
DataValue, 0.67, 1.6498E-08, 1.6498E-08, , 
DataValue, 0.68, 1.60956E-08, 1.60956E-08, , 
DataValue, 0.69000000000000006, 1.5914E-08, 1.5914E-08, , 
DataValue, 0.70000000000000007, 1.6787799999999997E-08, 1.6787799999999997E-08, , 
DataValue, 0.71, 1.69052E-08, 1.69052E-08, , 
DataValue, 0.72, 1.6596E-08, 1.6596E-08, , 
DataValue, 0.73, 1.8993799999999997E-08, 1.8993799999999997E-08, , 
DataValue, 0.74, 1.9725999999999997E-08, 1.9725999999999997E-08, , 
DataValue, 0.75, 2.0146199999999998E-08, 2.0146199999999998E-08, , 
DataValue, 0.76, 2.0702199999999997E-08, 2.0702199999999997E-08, , 
DataValue, 0.77, 2.1172E-08, 2.1172E-08, , 
DataValue, 0.78, 2.1158199999999998E-08, 2.1158199999999998E-08, , 
DataValue, 0.79, 2.1062799999999997E-08, 2.1062799999999997E-08, , 
DataValue, 0.8, 2.2049399999999996E-08, 2.2049399999999996E-08, , 
DataValue, 0.81, 2.2437799999999998E-08, 2.2437799999999998E-08, , 
DataValue, 0.82000000000000006, 2.3717999999999998E-08, 2.3717999999999998E-08, , 
DataValue, 0.83000000000000007, 2.4746599999999998E-08, 2.4746599999999998E-08, , 
DataValue, 0.84, 2.5236E-08, 2.5236E-08, , 
DataValue, 0.85, 2.18676E-08, 2.18676E-08, , 
DataValue, 0.86, 2.6126399999999997E-08, 2.6126399999999997E-08, , 
DataValue, 0.87, 2.6285199999999998E-08, 2.6285199999999998E-08, , 
DataValue, 0.88, 2.7107999999999997E-08, 2.7107999999999997E-08, , 
DataValue, 0.89, 2.7780599999999997E-08, 2.7780599999999997E-08, , 
DataValue, 0.9, 2.8927599999999998E-08, 2.8927599999999998E-08, , 
DataValue, 0.91, 2.81094E-08, 2.81094E-08, , 
DataValue, 0.92, 2.9321399999999997E-08, 2.9321399999999997E-08, , 
DataValue, 0.93, 2.5788399999999998E-08, 2.5788399999999998E-08, , 
DataValue, 0.94000000000000006, 2.69692E-08, 2.69692E-08, , 
DataValue, 0.95000000000000007, 3.05594E-08, 3.05594E-08, , 
DataValue, 0.96, 3.2821999999999994E-08, 3.2821999999999994E-08, , 
DataValue, 0.97, 3.2570999999999994E-08, 3.2570999999999994E-08, , 
DataValue, 0.98, 3.38466E-08, 3.38466E-08, , 
DataValue, 0.99, 3.4577799999999996E-08, 3.4577799999999996E-08, , 
DataValue, 1, 4.76694E-08, 4.76694E-08, , 
DataValue, 1.01, 2.4352E-08, 2.4352E-08, , 
DataValue, 1.02, 4.474E-08, 4.474E-08, , 
DataValue, 1.03, 5.69248E-08, 5.69248E-08, , 
DataValue, 1.04, 3.87874E-08, 3.87874E-08, , 
DataValue, 1.05, 2.69542E-08, 2.69542E-08, , 
DataValue, 1.06, 9.2689999999999985E-09, 9.2689999999999985E-09, , 
DataValue, 1.07, 1.1407599999999999E-08, 1.1407599999999999E-08, , 
DataValue, 1.08, 1.00508E-08, 1.00508E-08, , 
DataValue, 1.09, 1.0224599999999999E-08, 1.0224599999999999E-08, , 
DataValue, 1.1, 1.0376199999999999E-08, 1.0376199999999999E-08, , 
DataValue, 1.11, 1.06582E-08, 1.06582E-08, , 
DataValue, 1.12, 1.1055799999999999E-08, 1.1055799999999999E-08, , 
DataValue, 1.1300000000000001, 1.53218E-08, 1.53218E-08, , 
DataValue, 1.1400000000000001, 3.76466E-08, 3.76466E-08, , 
DataValue, 1.1500000000000001, 3.9084999999999996E-08, 3.9084999999999996E-08, , 
DataValue, 1.16, 3.9654999999999993E-08, 3.9654999999999993E-08, , 
DataValue, 1.17, 4.0507999999999995E-08, 4.0507999999999995E-08, , 
DataValue, 1.18, 4.0456999999999996E-08, 4.0456999999999996E-08, , 
DataValue, 1.19, 4.12958E-08, 4.12958E-08, , 
DataValue, 1.2, 4.27738E-08, 4.27738E-08, , 
DataValue, 1.21, 4.4667999999999993E-08, 4.4667999999999993E-08, , 
DataValue, 1.22, 4.5940599999999992E-08, 4.5940599999999992E-08, , 
DataValue, 1.23, 4.77398E-08, 4.77398E-08, , 
DataValue, 1.24, 4.934E-08, 4.934E-08, , 
DataValue, 1.25, 5.0532199999999996E-08, 5.0532199999999996E-08, , 
DataValue, 1.26, 5.2042599999999996E-08, 5.2042599999999996E-08, , 
DataValue, 1.27, 5.3167599999999995E-08, 5.3167599999999995E-08, , 
DataValue, 1.28, 5.3912999999999994E-08, 5.3912999999999994E-08, , 
DataValue, 1.29, 5.4979599999999992E-08, 5.4979599999999992E-08, , 
DataValue, 1.3, 5.2097399999999995E-08, 5.2097399999999995E-08, , 
DataValue, 1.31, 5.8124399999999993E-08, 5.8124399999999993E-08, , 
DataValue, 1.32, 3.6758799999999994E-08, 3.6758799999999994E-08, , 
DataValue, 1.33, 3.83236E-08, 3.83236E-08, , 
DataValue, 1.34, 3.67848E-08, 3.67848E-08, , 
DataValue, 1.35, 3.7131799999999994E-08, 3.7131799999999994E-08, , 
DataValue, 1.36, 3.8477999999999996E-08, 3.8477999999999996E-08, , 
DataValue, 1.37, 3.8300999999999993E-08, 3.8300999999999993E-08, , 
DataValue, 1.3800000000000001, 3.9265599999999994E-08, 3.9265599999999994E-08, , 
DataValue, 1.3900000000000001, 3.9931199999999993E-08, 3.9931199999999993E-08, , 
DataValue, 1.4000000000000001, 4.4329999999999994E-08, 4.4329999999999994E-08, , 
DataValue, 1.41, 3.89574E-08, 3.89574E-08, , 
DataValue, 1.42, 3.8199599999999996E-08, 3.8199599999999996E-08, , 
DataValue, 1.43, 3.8948799999999996E-08, 3.8948799999999996E-08, , 
DataValue, 1.44, 4.1666799999999994E-08, 4.1666799999999994E-08, , 
DataValue, 1.45, 4.02918E-08, 4.02918E-08, , 
DataValue, 1.46, 4.1867399999999995E-08, 4.1867399999999995E-08, , 
DataValue, 1.47, 4.15538E-08, 4.15538E-08, , 
DataValue, 1.48, 4.3667799999999993E-08, 4.3667799999999993E-08, , 
DataValue, 1.49, 4.34038E-08, 4.34038E-08, , 
DataValue, 1.5, 4.4299399999999994E-08, 4.4299399999999994E-08, , 
DataValue, 1.51, 4.5035799999999996E-08, 4.5035799999999996E-08, , 
DataValue, 1.52, 4.06456E-08, 4.06456E-08, , 
DataValue, 1.53, 4.0963999999999995E-08, 4.0963999999999995E-08, , 
DataValue, 1.54, 5.3435199999999993E-08, 5.3435199999999993E-08, , 
DataValue, 1.55, 4.8088599999999993E-08, 4.8088599999999993E-08, , 
DataValue, 1.56, 4.84688E-08, 4.84688E-08, , 
DataValue, 1.57, 5.2899599999999995E-08, 5.2899599999999995E-08, , 
DataValue, 1.58, 5.3624199999999995E-08, 5.3624199999999995E-08, , 
DataValue, 1.59, 5.5275599999999996E-08, 5.5275599999999996E-08, , 
DataValue, 1.6, 5.7668799999999994E-08, 5.7668799999999994E-08, , 
DataValue, 1.61, 5.5015599999999993E-08, 5.5015599999999993E-08, , 
DataValue, 1.62, 6.01858E-08, 6.01858E-08, , 
DataValue, 1.6300000000000001, 8.30036E-08, 8.30036E-08, , 
DataValue, 1.6400000000000001, 8.3744999999999987E-08, 8.3744999999999987E-08, , 
DataValue, 1.6500000000000001, 3.7076399999999996E-08, 3.7076399999999996E-08, , 
DataValue, 1.6600000000000001, 5.6499999999999996E-08, 5.6499999999999996E-08, , 
DataValue, 1.67, 7.32576E-08, 7.32576E-08, , 
DataValue, 1.68, 1.0728679999999999E-07, 1.0728679999999999E-07, , 
DataValue, 1.69, 2.2174E-06, 2.2174E-06, , 
DataValue, 1.7, 5.1652E-06, 5.1652E-06, , 
DataValue, 1.71, 4.6374000000000007E-06, 4.6374000000000007E-06, , 
DataValue, 1.72, 4.6869000000000008E-06, 4.6869000000000008E-06, , 
DataValue, 1.73, 4.5088000000000008E-06, 4.5088000000000008E-06, , 
DataValue, 1.74, 4.4474000000000008E-06, 4.4474000000000008E-06, , 
DataValue, 1.75, 4.2003E-06, 4.2003E-06, , 
DataValue, 1.76, 4.9398000000000005E-06, 4.9398000000000005E-06, , 
DataValue, 1.77, 4.4214000000000006E-06, 4.4214000000000006E-06, , 
DataValue, 1.78, 4.3769E-06, 4.3769E-06, , 
DataValue, 1.79, 4.1315E-06, 4.1315E-06, , 
DataValue, 1.8, 4.1658000000000008E-06, 4.1658000000000008E-06, , 
DataValue, 1.81, 4.3789000000000005E-06, 4.3789000000000005E-06, , 
DataValue, 1.82, 4.6318E-06, 4.6318E-06, , 
DataValue, 1.83, 4.8196E-06, 4.8196E-06, , 
DataValue, 1.84, 5.0596000000000007E-06, 5.0596000000000007E-06, , 
DataValue, 1.85, 1.9651E-06, 1.9651E-06, , 
DataValue, 1.86, 5.9869E-06, 5.9869E-06, , 
DataValue, 1.87, 4.765E-06, 4.765E-06, , 
DataValue, 1.8800000000000001, 3.7370000000000004E-06, 3.7370000000000004E-06, , 
DataValue, 1.8900000000000001, 4.6974E-06, 4.6974E-06, , 
DataValue, 1.9000000000000001, 5.1117000000000005E-06, 5.1117000000000005E-06, , 
DataValue, 1.9100000000000001, 4.9739000000000008E-06, 4.9739000000000008E-06, , 
DataValue, 1.92, 5.105E-06, 5.105E-06, , 
DataValue, 1.93, 5.1178E-06, 5.1178E-06, , 
DataValue, 1.94, 5.7047000000000006E-06, 5.7047000000000006E-06, , 
DataValue, 1.95, 5.3873000000000009E-06, 5.3873000000000009E-06, , 
DataValue, 1.96, 4.8382000000000005E-06, 4.8382000000000005E-06, , 
DataValue, 1.97, 5.1838E-06, 5.1838E-06, , 
DataValue, 1.98, 5.1828000000000006E-06, 5.1828000000000006E-06, , 
DataValue, 1.99, 5.7873000000000005E-06, 5.7873000000000005E-06, , 
DataValue, 2, 4.8228000000000006E-06, 4.8228000000000006E-06, , 
DataValue, 2.0100000000000002, 4.7998E-06, 4.7998E-06, , 
DataValue, 2.02, 4.7164E-06, 4.7164E-06, , 
DataValue, 2.0300000000000002, 4.5596E-06, 4.5596E-06, , 
DataValue, 2.04, 5.0076E-06, 5.0076E-06, , 
DataValue, 2.05, 6.1716E-06, 6.1716E-06, , 
DataValue, 2.06, 6.798100000000001E-06, 6.798100000000001E-06, , 
DataValue, 2.07, 6.1131000000000008E-06, 6.1131000000000008E-06, , 
DataValue, 2.08, 5.0615000000000006E-06, 5.0615000000000006E-06, , 
DataValue, 2.09, 5.8513E-06, 5.8513E-06, , 
DataValue, 2.1, 4.5036E-06, 4.5036E-06, , 
DataValue, 2.11, 4.077E-06, 4.077E-06, , 
DataValue, 2.12, 4.2696000000000006E-06, 4.2696000000000006E-06, , 
DataValue, 2.13, 4.4564E-06, 4.4564E-06, , 
DataValue, 2.14, 5.5431E-06, 5.5431E-06, , 
DataValue, 2.15, 5.2981E-06, 5.2981E-06, , 
DataValue, 2.16, 6.4660000000000004E-06, 6.4660000000000004E-06, , 
DataValue, 2.17, 6.3425000000000007E-06, 6.3425000000000007E-06, , 
DataValue, 2.18, 5.9387E-06, 5.9387E-06, , 
DataValue, 2.19, 5.6594E-06, 5.6594E-06, , 
DataValue, 2.2, 5.4504E-06, 5.4504E-06, , 
DataValue, 2.21, 5.1551000000000008E-06, 5.1551000000000008E-06, , 
DataValue, 2.22, 5.1645E-06, 5.1645E-06, , 
DataValue, 2.23, 4.5116E-06, 4.5116E-06, , 
DataValue, 2.24, 5.1794000000000008E-06, 5.1794000000000008E-06, , 
