
SetupTitle, ExtFET - POS SET - VG-1.52V - TE-3.5 24u
PrimitiveTest, I/V Sweep
TestParameter, Context.MainFrame, B1500A
TestParameter, Channel.UnitType, SMU, SMU, SMU
TestParameter, Channel.Unit, SMU2:HR, SMU4:HR, SMU3:HR
TestParameter, Channel.IName, I_TE, I_BE, I_G
TestParameter, Channel.VName, V_TE, V_BE, V_G
TestParameter, Channel.Mode, V, COMMON, V
TestParameter, Channel.Func, VAR1, CONST, CONST
TestParameter, Channel.Index, 
TestParameter, Channel.Time, 
TestParameter, Measurement.Port.Unit, SMU2:HR, SMU4:HR, SMU3:HR
TestParameter, Measurement.Port.SeriesResistor, NONE, NONE, NONE
TestParameter, Measurement.Port.Filter, ON, ON, ON
TestParameter, Measurement.Port.OutputVoltageComparison, 0, 0, 0
TestParameter, Measurement.Primary.Locus, Double
TestParameter, Measurement.Primary.Scale, LINEAR
TestParameter, Measurement.Primary.Start, 0
TestParameter, Measurement.Primary.Stop, 3.5
TestParameter, Measurement.Primary.Step, 0.01
TestParameter, Measurement.Primary.Compliance, 2.4E-05
TestParameter, Measurement.Primary.PowerCompliance, 0
TestParameter, Measurement.Aborting.Condition, CONTINUE AT ANY
TestParameter, Measurement.PostOutput.Value, START
TestParameter, Measurement.PostOutput.Retention, OFF
TestParameter, Measurement.Bias.Source, 0, 0, 1.52
TestParameter, Measurement.Bias.Compliance, 2.4E-05, 0.1, 0.0001
TestParameter, Measurement.Monitor.Unit, SMU2:HR, SMU4:HR, SMU3:HR
TestParameter, Measurement.Monitor.Adc, HR ADC, HR ADC, HR ADC
TestParameter, Measurement.Monitor.Measurement, Compliance Side, Compliance Side, Compliance Side
TestParameter, Measurement.Monitor.RangingMode, LIMITED, LIMITED, LIMITED
TestParameter, Measurement.Monitor.RangeBoundary, 1nA, 1nA, 1nA
TestParameter, Measurement.Monitor.RangeRating, BY FULL RANGE, BY FULL RANGE, BY FULL RANGE
TestParameter, Measurement.Monitor.RangeRatingCoeff, 50, 50, 50
TestParameter, Measurement.Timing.Hold, 0
TestParameter, Measurement.Timing.Delay, 0
TestParameter, Measurement.Adc.HighSpeed.Mode, AUTO
TestParameter, Measurement.Adc.HighSpeed.Coeff, 1
TestParameter, Measurement.Adc.HighResolution.AutoZero, OFF
TestParameter, Measurement.Adc.HighResolution.Mode, AUTO
TestParameter, Measurement.Adc.HighResolution.Coeff, 6
TestParameter, Measurement.WaitTime.Source.Coeff, 1
TestParameter, Measurement.WaitTime.Source.Offset, 0
TestParameter, Measurement.WaitTime.Monitor.Coeff, 1
TestParameter, Measurement.WaitTime.Monitor.Offset, 0
TestParameter, Function.User.Name, absITE
TestParameter, Function.User.Unit, A
TestParameter, Function.User.Definition, abs(I_TE)
TestParameter, Output.Graph.Enabled, true
TestParameter, Output.Graph.AutoScaling, false
TestParameter, Output.Graph.XAxis.Data, V_TE
TestParameter, Output.Graph.XAxis.Scale, Linear
TestParameter, Output.Graph.XAxis.Left, 0
TestParameter, Output.Graph.XAxis.Right, 10
TestParameter, Output.Graph.XAxis.RunTimeAutoScale, true
TestParameter, Output.Graph.YAxis.Data, absITE
TestParameter, Output.Graph.YAxis.Scale, Log
TestParameter, Output.Graph.YAxis.Bottom, 0
TestParameter, Output.Graph.YAxis.Top, 1
TestParameter, Output.Graph.YAxis.Group, 
TestParameter, Output.Graph.YAxis.RunTimeAutoScale, true
TestParameter, Output.List.Data, V1, I2abs
TestParameter, AutoAnalysis.Interpolation, false
TestParameter, AutoAnalysis.Var2StepCount, 1
TestParameter, AutoAnalysis.Var2StepScript, 
TestParameter, AutoAnalysis.Line1.Enabled, false
TestParameter, AutoAnalysis.Line1.Type, 1
TestParameter, AutoAnalysis.Line1.Fix, True
TestParameter, AutoAnalysis.Line1.YAxis, 0
TestParameter, AutoAnalysis.Line1.Point1.Type, 0
TestParameter, AutoAnalysis.Line1.Point1.XY.X, 
TestParameter, AutoAnalysis.Line1.Point1.XY.Y, 
TestParameter, AutoAnalysis.Line1.Point1.Data.Var, 
TestParameter, AutoAnalysis.Line1.Point1.Data.Condition, 
TestParameter, AutoAnalysis.Line1.Point1.Data.Start, false
TestParameter, AutoAnalysis.Line1.Point1.Data.StartVar, 
TestParameter, AutoAnalysis.Line1.Point1.Data.StartCondition, 
TestParameter, AutoAnalysis.Line1.Point2.Type, 0
TestParameter, AutoAnalysis.Line1.Point2.XY.X, 
TestParameter, AutoAnalysis.Line1.Point2.XY.Y, 
TestParameter, AutoAnalysis.Line1.Point2.Data.Var, 
TestParameter, AutoAnalysis.Line1.Point2.Data.Condition, 
TestParameter, AutoAnalysis.Line1.Point2.Data.Start, false
TestParameter, AutoAnalysis.Line1.Point2.Data.StartVar, 
TestParameter, AutoAnalysis.Line1.Point2.Data.StartCondition, 
TestParameter, AutoAnalysis.Line1.GradientExpr, 0
TestParameter, AutoAnalysis.Line2.Enabled, false
TestParameter, AutoAnalysis.Line2.Type, 1
TestParameter, AutoAnalysis.Line2.Fix, True
TestParameter, AutoAnalysis.Line2.YAxis, 0
TestParameter, AutoAnalysis.Line2.Point1.Type, 0
TestParameter, AutoAnalysis.Line2.Point1.XY.X, 
TestParameter, AutoAnalysis.Line2.Point1.XY.Y, 
TestParameter, AutoAnalysis.Line2.Point1.Data.Var, 
TestParameter, AutoAnalysis.Line2.Point1.Data.Condition, 
TestParameter, AutoAnalysis.Line2.Point1.Data.Start, false
TestParameter, AutoAnalysis.Line2.Point1.Data.StartVar, 
TestParameter, AutoAnalysis.Line2.Point1.Data.StartCondition, 
TestParameter, AutoAnalysis.Line2.Point2.Type, 0
TestParameter, AutoAnalysis.Line2.Point2.XY.X, 
TestParameter, AutoAnalysis.Line2.Point2.XY.Y, 
TestParameter, AutoAnalysis.Line2.Point2.Data.Var, 
TestParameter, AutoAnalysis.Line2.Point2.Data.Condition, 
TestParameter, AutoAnalysis.Line2.Point2.Data.Start, false
TestParameter, AutoAnalysis.Line2.Point2.Data.StartVar, 
TestParameter, AutoAnalysis.Line2.Point2.Data.StartCondition, 
TestParameter, AutoAnalysis.Line2.GradientExpr, 0
TestParameter, AutoAnalysis.Marker.Enabled, false
TestParameter, AutoAnalysis.Marker.Data.Var, 
TestParameter, AutoAnalysis.Marker.Data.Condition, 
TestParameter, AutoAnalysis.Marker.Data.Start, false
TestParameter, AutoAnalysis.Marker.Data.StartVar, 
TestParameter, AutoAnalysis.Marker.Data.StartCondition, 
MetaData, TestRecord.EntryPoint, true
MetaData, TestRecord.RecordTime, 04/14/2020 20:31:58
MetaData, TestRecord.TestTarget, InGaAs_1_W_BE_FijiHfO2_NW-G05
MetaData, TestRecord.IterationIndex, 89
MetaData, TestRecord.Preservation, true
MetaData, TestRecord.Flag, 
MetaData, TestRecord.Remarks, 
MetaData, TestRecord.LinkKey, 4973ba3e-5185-4595-9bf8-1f02c608da89
MetaData, TestRecord.Parameters, 
Dimension1, 702, 702, 702, 702, 702
Dimension2, 1, 1, 1, 1, 1
DataName, V_TE, I_TE, absITE, V1, I2abs
DataValue, 0, 1.0840000000000002E-11, 1.0840000000000002E-11, , 
DataValue, 0.01, 3.539E-11, 3.539E-11, , 
DataValue, 0.02, 7.745E-11, 7.745E-11, , 
DataValue, 0.03, 8.154000000000001E-11, 8.154000000000001E-11, , 
DataValue, 0.04, 1.0371000000000001E-10, 1.0371000000000001E-10, , 
DataValue, 0.05, 7.3520000000000008E-11, 7.3520000000000008E-11, , 
DataValue, 0.06, 1.1504000000000001E-10, 1.1504000000000001E-10, , 
DataValue, 0.07, 9.9300000000000009E-11, 9.9300000000000009E-11, , 
DataValue, 0.08, 1.4662E-10, 1.4662E-10, , 
DataValue, 0.09, 1.3016000000000002E-10, 1.3016000000000002E-10, , 
DataValue, 0.1, 2.0858000000000002E-10, 2.0858000000000002E-10, , 
DataValue, 0.11, 5.2790000000000006E-11, 5.2790000000000006E-11, , 
DataValue, 0.12, 7.329E-11, 7.329E-11, , 
DataValue, 0.13, 2.9328000000000005E-10, 2.9328000000000005E-10, , 
DataValue, 0.14, 3.9823000000000003E-10, 3.9823000000000003E-10, , 
DataValue, 0.15, 4.3865000000000003E-10, 4.3865000000000003E-10, , 
DataValue, 0.16, 7.637E-11, 7.637E-11, , 
DataValue, 0.17, 4.1210000000000006E-11, 4.1210000000000006E-11, , 
DataValue, 0.18, 8.0580000000000008E-11, 8.0580000000000008E-11, , 
DataValue, 0.19, 4.6150000000000003E-11, 4.6150000000000003E-11, , 
DataValue, 0.2, 8.2870000000000007E-11, 8.2870000000000007E-11, , 
DataValue, 0.21, 5.4800000000000007E-11, 5.4800000000000007E-11, , 
DataValue, 0.22, 1.0146E-10, 1.0146E-10, , 
DataValue, 0.23, 9.9900000000000012E-11, 9.9900000000000012E-11, , 
DataValue, 0.24, 1.3716000000000002E-10, 1.3716000000000002E-10, , 
DataValue, 0.25, 1.2441000000000001E-10, 1.2441000000000001E-10, , 
DataValue, 0.26, 1.5145E-10, 1.5145E-10, , 
DataValue, 0.27, 1.0615E-10, 1.0615E-10, , 
DataValue, 0.28, 2.2563000000000003E-10, 2.2563000000000003E-10, , 
DataValue, 0.29, 1.849E-10, 1.849E-10, , 
DataValue, 0.3, 2.8908E-10, 2.8908E-10, , 
DataValue, 0.31, 3.5224E-10, 3.5224E-10, , 
DataValue, 0.32, 3.6462000000000003E-10, 3.6462000000000003E-10, , 
DataValue, 0.33, 4.5392E-10, 4.5392E-10, , 
DataValue, 0.34, 5.2256E-10, 5.2256E-10, , 
DataValue, 0.35000000000000003, 6.327600000000001E-10, 6.327600000000001E-10, , 
DataValue, 0.36, 6.8234E-10, 6.8234E-10, , 
DataValue, 0.37, 6.7383E-10, 6.7383E-10, , 
DataValue, 0.38, 6.0315E-10, 6.0315E-10, , 
DataValue, 0.39, 1.0347E-09, 1.0347E-09, , 
DataValue, 0.4, 1.0106E-09, 1.0106E-09, , 
DataValue, 0.41000000000000003, 1.1134E-09, 1.1134E-09, , 
DataValue, 0.42, 1.4212E-09, 1.4212E-09, , 
DataValue, 0.43, 1.1026E-09, 1.1026E-09, , 
DataValue, 0.44, 1.4941E-09, 1.4941E-09, , 
DataValue, 0.45, 1.8493E-09, 1.8493E-09, , 
DataValue, 0.46, 1.348E-09, 1.348E-09, , 
DataValue, 0.47000000000000003, 1.8368E-09, 1.8368E-09, , 
DataValue, 0.48, 1.777E-09, 1.777E-09, , 
DataValue, 0.49, 2.0607E-09, 2.0607E-09, , 
DataValue, 0.5, 1.6303E-09, 1.6303E-09, , 
DataValue, 0.51, 1.8103E-09, 1.8103E-09, , 
DataValue, 0.52, 1.9468E-09, 1.9468E-09, , 
DataValue, 0.53, 2.1586E-09, 2.1586E-09, , 
DataValue, 0.54, 2.6702E-09, 2.6702E-09, , 
DataValue, 0.55, 2.8436E-09, 2.8436E-09, , 
DataValue, 0.56, 3.518E-09, 3.518E-09, , 
DataValue, 0.57000000000000006, 2.6782E-09, 2.6782E-09, , 
DataValue, 0.58, 2.8761E-09, 2.8761E-09, , 
DataValue, 0.59, 3.7358E-09, 3.7358E-09, , 
DataValue, 0.6, 3.9175E-09, 3.9175E-09, , 
DataValue, 0.61, 3.9775E-09, 3.9775E-09, , 
DataValue, 0.62, 4.2534E-09, 4.2534E-09, , 
DataValue, 0.63, 3.6255E-09, 3.6255E-09, , 
DataValue, 0.64, 3.3646E-09, 3.3646E-09, , 
DataValue, 0.65, 3.8676E-09, 3.8676E-09, , 
DataValue, 0.66, 3.8877E-09, 3.8877E-09, , 
DataValue, 0.67, 4.4553E-09, 4.4553E-09, , 
DataValue, 0.68, 5.3339E-09, 5.3339E-09, , 
DataValue, 0.69000000000000006, 5.7095E-09, 5.7095E-09, , 
DataValue, 0.70000000000000007, 5.843E-09, 5.843E-09, , 
DataValue, 0.71, 6.0692E-09, 6.0692E-09, , 
DataValue, 0.72, 6.1732E-09, 6.1732E-09, , 
DataValue, 0.73, 4.6822E-09, 4.6822E-09, , 
DataValue, 0.74, 4.7882E-09, 4.7882E-09, , 
DataValue, 0.75, 2.5348E-09, 2.5348E-09, , 
DataValue, 0.76, 4.7993E-10, 4.7993E-10, , 
DataValue, 0.77, 5.5847E-10, 5.5847E-10, , 
DataValue, 0.78, 3.8146E-09, 3.8146E-09, , 
DataValue, 0.79, 1.4904E-09, 1.4904E-09, , 
DataValue, 0.8, 1.4767E-09, 1.4767E-09, , 
DataValue, 0.81, 2.6259E-09, 2.6259E-09, , 
DataValue, 0.82000000000000006, 4.0989E-09, 4.0989E-09, , 
DataValue, 0.83000000000000007, 8.7754E-09, 8.7754E-09, , 
DataValue, 0.84, 9.4614E-09, 9.4614E-09, , 
DataValue, 0.85, 9.6579E-09, 9.6579E-09, , 
DataValue, 0.86, 9.8983E-09, 9.8983E-09, , 
DataValue, 0.87, 1.02565E-08, 1.02565E-08, , 
DataValue, 0.88, 1.07811E-08, 1.07811E-08, , 
DataValue, 0.89, 1.12823E-08, 1.12823E-08, , 
DataValue, 0.9, 6.6001E-09, 6.6001E-09, , 
DataValue, 0.91, 7.3491E-09, 7.3491E-09, , 
DataValue, 0.92, 7.3946E-09, 7.3946E-09, , 
DataValue, 0.93, 8.328E-09, 8.328E-09, , 
DataValue, 0.94000000000000006, 6.8642E-09, 6.8642E-09, , 
DataValue, 0.95000000000000007, 2.5147E-09, 2.5147E-09, , 
DataValue, 0.96, 1.7089E-09, 1.7089E-09, , 
DataValue, 0.97, 1.7276E-09, 1.7276E-09, , 
DataValue, 0.98, 1.7816E-09, 1.7816E-09, , 
DataValue, 0.99, 1.8892E-09, 1.8892E-09, , 
DataValue, 1, 2.0335E-09, 2.0335E-09, , 
DataValue, 1.01, 1.9914E-09, 1.9914E-09, , 
DataValue, 1.02, 2.0803E-09, 2.0803E-09, , 
DataValue, 1.03, 2.8693E-09, 2.8693E-09, , 
DataValue, 1.04, 2.8877E-09, 2.8877E-09, , 
DataValue, 1.05, 2.7349E-09, 2.7349E-09, , 
DataValue, 1.06, 2.8192E-09, 2.8192E-09, , 
DataValue, 1.07, 1.6399E-09, 1.6399E-09, , 
DataValue, 1.08, 1.5327E-09, 1.5327E-09, , 
DataValue, 1.09, 1.8214E-09, 1.8214E-09, , 
DataValue, 1.1, 1.8213E-09, 1.8213E-09, , 
DataValue, 1.11, 1.8937E-09, 1.8937E-09, , 
DataValue, 1.12, 1.8258E-09, 1.8258E-09, , 
DataValue, 1.1300000000000001, 1.6482E-09, 1.6482E-09, , 
DataValue, 1.1400000000000001, 1.7311E-09, 1.7311E-09, , 
DataValue, 1.1500000000000001, 1.9919E-09, 1.9919E-09, , 
DataValue, 1.16, 2.0833E-09, 2.0833E-09, , 
DataValue, 1.17, 1.8306E-09, 1.8306E-09, , 
DataValue, 1.18, 1.8894E-09, 1.8894E-09, , 
DataValue, 1.19, 2.1964E-09, 2.1964E-09, , 
DataValue, 1.2, 5.136E-09, 5.136E-09, , 
DataValue, 1.21, 2.8155E-09, 2.8155E-09, , 
DataValue, 1.22, 2.6716E-09, 2.6716E-09, , 
DataValue, 1.23, 2.3209E-09, 2.3209E-09, , 
DataValue, 1.24, 2.066E-09, 2.066E-09, , 
DataValue, 1.25, 2.1263E-09, 2.1263E-09, , 
DataValue, 1.26, 2.3804E-09, 2.3804E-09, , 
DataValue, 1.27, 2.7167E-09, 2.7167E-09, , 
DataValue, 1.28, 2.8248E-09, 2.8248E-09, , 
DataValue, 1.29, 2.8296E-09, 2.8296E-09, , 
DataValue, 1.3, 2.9514E-09, 2.9514E-09, , 
DataValue, 1.31, 2.8851E-09, 2.8851E-09, , 
DataValue, 1.32, 2.9664E-09, 2.9664E-09, , 
DataValue, 1.33, 2.2967E-09, 2.2967E-09, , 
DataValue, 1.34, 1.7926E-09, 1.7926E-09, , 
DataValue, 1.35, 1.7647E-09, 1.7647E-09, , 
DataValue, 1.36, 2.5069E-09, 2.5069E-09, , 
DataValue, 1.37, 2.7852E-09, 2.7852E-09, , 
DataValue, 1.3800000000000001, 2.7991E-09, 2.7991E-09, , 
DataValue, 1.3900000000000001, 2.7539E-09, 2.7539E-09, , 
DataValue, 1.4000000000000001, 2.7634E-09, 2.7634E-09, , 
DataValue, 1.41, 2.8465E-09, 2.8465E-09, , 
DataValue, 1.42, 2.8438E-09, 2.8438E-09, , 
DataValue, 1.43, 2.8963E-09, 2.8963E-09, , 
DataValue, 1.44, 2.8018E-09, 2.8018E-09, , 
DataValue, 1.45, 2.9793E-09, 2.9793E-09, , 
DataValue, 1.46, 3.1241E-09, 3.1241E-09, , 
DataValue, 1.47, 3.1825E-09, 3.1825E-09, , 
DataValue, 1.48, 3.168E-09, 3.168E-09, , 
DataValue, 1.49, 3.1311E-09, 3.1311E-09, , 
DataValue, 1.5, 3.1827E-09, 3.1827E-09, , 
DataValue, 1.51, 3.1281E-09, 3.1281E-09, , 
DataValue, 1.52, 3.1649E-09, 3.1649E-09, , 
DataValue, 1.53, 3.1362E-09, 3.1362E-09, , 
DataValue, 1.54, 3.2586E-09, 3.2586E-09, , 
DataValue, 1.55, 3.292E-09, 3.292E-09, , 
DataValue, 1.56, 3.134E-09, 3.134E-09, , 
DataValue, 1.57, 3.2148E-09, 3.2148E-09, , 
DataValue, 1.58, 3.3991E-09, 3.3991E-09, , 
DataValue, 1.59, 3.2998E-09, 3.2998E-09, , 
DataValue, 1.6, 3.408E-09, 3.408E-09, , 
DataValue, 1.61, 3.4535E-09, 3.4535E-09, , 
DataValue, 1.62, 3.5687E-09, 3.5687E-09, , 
DataValue, 1.6300000000000001, 8.734E-08, 8.734E-08, , 
DataValue, 1.6400000000000001, 1.4928999999999998E-08, 1.4928999999999998E-08, , 
DataValue, 1.6500000000000001, 1.1754799999999999E-08, 1.1754799999999999E-08, , 
DataValue, 1.6600000000000001, 1.07032E-08, 1.07032E-08, , 
DataValue, 1.67, 2.3237000000000003E-06, 2.3237000000000003E-06, , 
DataValue, 1.68, 1.8007000000000002E-06, 1.8007000000000002E-06, , 
DataValue, 1.69, 2.1598E-06, 2.1598E-06, , 
DataValue, 1.7, 2.2274E-06, 2.2274E-06, , 
DataValue, 1.71, 2.0369000000000004E-06, 2.0369000000000004E-06, , 
DataValue, 1.72, 1.9018000000000002E-06, 1.9018000000000002E-06, , 
DataValue, 1.73, 2.1438E-06, 2.1438E-06, , 
DataValue, 1.74, 2.1552E-06, 2.1552E-06, , 
DataValue, 1.75, 1.9976E-06, 1.9976E-06, , 
DataValue, 1.76, 1.8442000000000003E-06, 1.8442000000000003E-06, , 
DataValue, 1.77, 1.7406000000000001E-06, 1.7406000000000001E-06, , 
DataValue, 1.78, 1.8564000000000001E-06, 1.8564000000000001E-06, , 
DataValue, 1.79, 2.5362000000000004E-06, 2.5362000000000004E-06, , 
DataValue, 1.8, 2.1553000000000004E-06, 2.1553000000000004E-06, , 
DataValue, 1.81, 2.7791E-06, 2.7791E-06, , 
DataValue, 1.82, 2.4171E-06, 2.4171E-06, , 
DataValue, 1.83, 4.0292E-06, 4.0292E-06, , 
DataValue, 1.84, 4.4556E-06, 4.4556E-06, , 
DataValue, 1.85, 3.8321E-06, 3.8321E-06, , 
DataValue, 1.86, 2.9373000000000002E-06, 2.9373000000000002E-06, , 
DataValue, 1.87, 2.9812000000000004E-06, 2.9812000000000004E-06, , 
DataValue, 1.8800000000000001, 3.4864E-06, 3.4864E-06, , 
DataValue, 1.8900000000000001, 5.585100000000001E-06, 5.585100000000001E-06, , 
DataValue, 1.9000000000000001, 6.5247E-06, 6.5247E-06, , 
DataValue, 1.9100000000000001, 3.9950000000000007E-06, 3.9950000000000007E-06, , 
DataValue, 1.92, 4.4596000000000005E-06, 4.4596000000000005E-06, , 
DataValue, 1.93, 4.2832000000000008E-06, 4.2832000000000008E-06, , 
DataValue, 1.94, 5.6602000000000005E-06, 5.6602000000000005E-06, , 
DataValue, 1.95, 5.1474000000000009E-06, 5.1474000000000009E-06, , 
DataValue, 1.96, 6.5118000000000009E-06, 6.5118000000000009E-06, , 
DataValue, 1.97, 2.4877000000000003E-06, 2.4877000000000003E-06, , 
DataValue, 1.98, 1.5246000000000002E-06, 1.5246000000000002E-06, , 
DataValue, 1.99, 1.8994000000000002E-06, 1.8994000000000002E-06, , 
DataValue, 2, 1.9648000000000002E-06, 1.9648000000000002E-06, , 
DataValue, 2.0100000000000002, 2.0785E-06, 2.0785E-06, , 
DataValue, 2.02, 1.2599000000000002E-06, 1.2599000000000002E-06, , 
DataValue, 2.0300000000000002, 1.1512E-06, 1.1512E-06, , 
DataValue, 2.04, 1.8994000000000002E-06, 1.8994000000000002E-06, , 
DataValue, 2.05, 1.306E-05, 1.306E-05, , 
DataValue, 2.06, 1.0898E-05, 1.0898E-05, , 
DataValue, 2.07, 1.3258E-05, 1.3258E-05, , 
DataValue, 2.08, 1.2408E-05, 1.2408E-05, , 
DataValue, 2.09, 9.898E-06, 9.898E-06, , 
DataValue, 2.1, 1.0698E-05, 1.0698E-05, , 
DataValue, 2.11, 1.1158E-05, 1.1158E-05, , 
DataValue, 2.12, 1.2152E-05, 1.2152E-05, , 
DataValue, 2.13, 1.1958E-05, 1.1958E-05, , 
DataValue, 2.14, 1.2062E-05, 1.2062E-05, , 
DataValue, 2.15, 1.2418E-05, 1.2418E-05, , 
DataValue, 2.16, 1.2432E-05, 1.2432E-05, , 
DataValue, 2.17, 1.2048E-05, 1.2048E-05, , 
DataValue, 2.18, 1.3494E-05, 1.3494E-05, , 
DataValue, 2.19, 1.3108E-05, 1.3108E-05, , 
DataValue, 2.2, 1.3150000000000001E-05, 1.3150000000000001E-05, , 
DataValue, 2.21, 1.271E-05, 1.271E-05, , 
DataValue, 2.22, 1.3312E-05, 1.3312E-05, , 
DataValue, 2.23, 1.3108E-05, 1.3108E-05, , 
DataValue, 2.24, 1.347E-05, 1.347E-05, , 
DataValue, 2.25, 1.3196E-05, 1.3196E-05, , 
DataValue, 2.2600000000000002, 1.3038000000000001E-05, 1.3038000000000001E-05, , 
DataValue, 2.27, 1.2682E-05, 1.2682E-05, , 
DataValue, 2.2800000000000002, 1.3324E-05, 1.3324E-05, , 
DataValue, 2.29, 1.4044E-05, 1.4044E-05, , 
DataValue, 2.3000000000000003, 1.2548E-05, 1.2548E-05, , 
DataValue, 2.31, 1.2790000000000001E-05, 1.2790000000000001E-05, , 
DataValue, 2.32, 1.25E-05, 1.25E-05, , 
DataValue, 2.33, 1.2562000000000001E-05, 1.2562000000000001E-05, , 
DataValue, 2.34, 1.2532E-05, 1.2532E-05, , 
DataValue, 2.35, 1.1836E-05, 1.1836E-05, , 
DataValue, 2.36, 1.2072E-05, 1.2072E-05, , 
DataValue, 2.37, 1.2312E-05, 1.2312E-05, , 
DataValue, 2.38, 1.2098E-05, 1.2098E-05, , 
DataValue, 2.39, 1.2632E-05, 1.2632E-05, , 
DataValue, 2.4, 1.2630000000000001E-05, 1.2630000000000001E-05, , 
DataValue, 2.41, 1.2356E-05, 1.2356E-05, , 
DataValue, 2.42, 1.2664000000000001E-05, 1.2664000000000001E-05, , 
DataValue, 2.43, 1.1168E-05, 1.1168E-05, , 
DataValue, 2.44, 1.198E-05, 1.198E-05, , 
DataValue, 2.45, 1.1852000000000001E-05, 1.1852000000000001E-05, , 
DataValue, 2.46, 1.1662000000000001E-05, 1.1662000000000001E-05, , 
DataValue, 2.47, 1.0972000000000001E-05, 1.0972000000000001E-05, , 
DataValue, 2.48, 1.1762E-05, 1.1762E-05, , 
DataValue, 2.49, 1.3044E-05, 1.3044E-05, , 
DataValue, 2.5, 1.2126E-05, 1.2126E-05, , 
DataValue, 2.5100000000000002, 1.2686E-05, 1.2686E-05, , 
DataValue, 2.52, 1.2094E-05, 1.2094E-05, , 
DataValue, 2.5300000000000002, 1.2288E-05, 1.2288E-05, , 
DataValue, 2.54, 1.2042000000000001E-05, 1.2042000000000001E-05, , 
DataValue, 2.5500000000000003, 1.218E-05, 1.218E-05, , 
DataValue, 2.56, 1.1598E-05, 1.1598E-05, , 
DataValue, 2.57, 1.0702E-05, 1.0702E-05, , 
DataValue, 2.58, 1.134E-05, 1.134E-05, , 
DataValue, 2.59, 1.254E-05, 1.254E-05, , 
