
SetupTitle, ExtFET - POS SET - VG-1.52V - TE-3.5 24u
PrimitiveTest, I/V Sweep
TestParameter, Context.MainFrame, B1500A
TestParameter, Channel.UnitType, SMU, SMU, SMU
TestParameter, Channel.Unit, SMU2:HR, SMU4:HR, SMU3:HR
TestParameter, Channel.IName, I_TE, I_BE, I_G
TestParameter, Channel.VName, V_TE, V_BE, V_G
TestParameter, Channel.Mode, V, COMMON, V
TestParameter, Channel.Func, VAR1, CONST, CONST
TestParameter, Channel.Index, 
TestParameter, Channel.Time, 
TestParameter, Measurement.Port.Unit, SMU2:HR, SMU4:HR, SMU3:HR
TestParameter, Measurement.Port.SeriesResistor, NONE, NONE, NONE
TestParameter, Measurement.Port.Filter, ON, ON, ON
TestParameter, Measurement.Port.OutputVoltageComparison, 0, 0, 0
TestParameter, Measurement.Primary.Locus, Double
TestParameter, Measurement.Primary.Scale, LINEAR
TestParameter, Measurement.Primary.Start, 0
TestParameter, Measurement.Primary.Stop, 3.5
TestParameter, Measurement.Primary.Step, 0.01
TestParameter, Measurement.Primary.Compliance, 2.4E-05
TestParameter, Measurement.Primary.PowerCompliance, 0
TestParameter, Measurement.Aborting.Condition, CONTINUE AT ANY
TestParameter, Measurement.PostOutput.Value, START
TestParameter, Measurement.PostOutput.Retention, OFF
TestParameter, Measurement.Bias.Source, 0, 0, 1.52
TestParameter, Measurement.Bias.Compliance, 2.4E-05, 0.1, 0.0001
TestParameter, Measurement.Monitor.Unit, SMU2:HR, SMU4:HR, SMU3:HR
TestParameter, Measurement.Monitor.Adc, HR ADC, HR ADC, HR ADC
TestParameter, Measurement.Monitor.Measurement, Compliance Side, Compliance Side, Compliance Side
TestParameter, Measurement.Monitor.RangingMode, LIMITED, LIMITED, LIMITED
TestParameter, Measurement.Monitor.RangeBoundary, 1nA, 1nA, 1nA
TestParameter, Measurement.Monitor.RangeRating, BY FULL RANGE, BY FULL RANGE, BY FULL RANGE
TestParameter, Measurement.Monitor.RangeRatingCoeff, 50, 50, 50
TestParameter, Measurement.Timing.Hold, 0
TestParameter, Measurement.Timing.Delay, 0
TestParameter, Measurement.Adc.HighSpeed.Mode, AUTO
TestParameter, Measurement.Adc.HighSpeed.Coeff, 1
TestParameter, Measurement.Adc.HighResolution.AutoZero, OFF
TestParameter, Measurement.Adc.HighResolution.Mode, AUTO
TestParameter, Measurement.Adc.HighResolution.Coeff, 6
TestParameter, Measurement.WaitTime.Source.Coeff, 1
TestParameter, Measurement.WaitTime.Source.Offset, 0
TestParameter, Measurement.WaitTime.Monitor.Coeff, 1
TestParameter, Measurement.WaitTime.Monitor.Offset, 0
TestParameter, Function.User.Name, absITE
TestParameter, Function.User.Unit, A
TestParameter, Function.User.Definition, abs(I_TE)
TestParameter, Output.Graph.Enabled, true
TestParameter, Output.Graph.AutoScaling, false
TestParameter, Output.Graph.XAxis.Data, V_TE
TestParameter, Output.Graph.XAxis.Scale, Linear
TestParameter, Output.Graph.XAxis.Left, 0
TestParameter, Output.Graph.XAxis.Right, 10
TestParameter, Output.Graph.XAxis.RunTimeAutoScale, true
TestParameter, Output.Graph.YAxis.Data, absITE
TestParameter, Output.Graph.YAxis.Scale, Log
TestParameter, Output.Graph.YAxis.Bottom, 0
TestParameter, Output.Graph.YAxis.Top, 1
TestParameter, Output.Graph.YAxis.Group, 
TestParameter, Output.Graph.YAxis.RunTimeAutoScale, true
TestParameter, Output.List.Data, V1, I2abs
TestParameter, AutoAnalysis.Interpolation, false
TestParameter, AutoAnalysis.Var2StepCount, 1
TestParameter, AutoAnalysis.Var2StepScript, 
TestParameter, AutoAnalysis.Line1.Enabled, false
TestParameter, AutoAnalysis.Line1.Type, 1
TestParameter, AutoAnalysis.Line1.Fix, True
TestParameter, AutoAnalysis.Line1.YAxis, 0
TestParameter, AutoAnalysis.Line1.Point1.Type, 0
TestParameter, AutoAnalysis.Line1.Point1.XY.X, 
TestParameter, AutoAnalysis.Line1.Point1.XY.Y, 
TestParameter, AutoAnalysis.Line1.Point1.Data.Var, 
TestParameter, AutoAnalysis.Line1.Point1.Data.Condition, 
TestParameter, AutoAnalysis.Line1.Point1.Data.Start, false
TestParameter, AutoAnalysis.Line1.Point1.Data.StartVar, 
TestParameter, AutoAnalysis.Line1.Point1.Data.StartCondition, 
TestParameter, AutoAnalysis.Line1.Point2.Type, 0
TestParameter, AutoAnalysis.Line1.Point2.XY.X, 
TestParameter, AutoAnalysis.Line1.Point2.XY.Y, 
TestParameter, AutoAnalysis.Line1.Point2.Data.Var, 
TestParameter, AutoAnalysis.Line1.Point2.Data.Condition, 
TestParameter, AutoAnalysis.Line1.Point2.Data.Start, false
TestParameter, AutoAnalysis.Line1.Point2.Data.StartVar, 
TestParameter, AutoAnalysis.Line1.Point2.Data.StartCondition, 
TestParameter, AutoAnalysis.Line1.GradientExpr, 0
TestParameter, AutoAnalysis.Line2.Enabled, false
TestParameter, AutoAnalysis.Line2.Type, 1
TestParameter, AutoAnalysis.Line2.Fix, True
TestParameter, AutoAnalysis.Line2.YAxis, 0
TestParameter, AutoAnalysis.Line2.Point1.Type, 0
TestParameter, AutoAnalysis.Line2.Point1.XY.X, 
TestParameter, AutoAnalysis.Line2.Point1.XY.Y, 
TestParameter, AutoAnalysis.Line2.Point1.Data.Var, 
TestParameter, AutoAnalysis.Line2.Point1.Data.Condition, 
TestParameter, AutoAnalysis.Line2.Point1.Data.Start, false
TestParameter, AutoAnalysis.Line2.Point1.Data.StartVar, 
TestParameter, AutoAnalysis.Line2.Point1.Data.StartCondition, 
TestParameter, AutoAnalysis.Line2.Point2.Type, 0
TestParameter, AutoAnalysis.Line2.Point2.XY.X, 
TestParameter, AutoAnalysis.Line2.Point2.XY.Y, 
TestParameter, AutoAnalysis.Line2.Point2.Data.Var, 
TestParameter, AutoAnalysis.Line2.Point2.Data.Condition, 
TestParameter, AutoAnalysis.Line2.Point2.Data.Start, false
TestParameter, AutoAnalysis.Line2.Point2.Data.StartVar, 
TestParameter, AutoAnalysis.Line2.Point2.Data.StartCondition, 
TestParameter, AutoAnalysis.Line2.GradientExpr, 0
TestParameter, AutoAnalysis.Marker.Enabled, false
TestParameter, AutoAnalysis.Marker.Data.Var, 
TestParameter, AutoAnalysis.Marker.Data.Condition, 
TestParameter, AutoAnalysis.Marker.Data.Start, false
TestParameter, AutoAnalysis.Marker.Data.StartVar, 
TestParameter, AutoAnalysis.Marker.Data.StartCondition, 
MetaData, TestRecord.EntryPoint, true
MetaData, TestRecord.RecordTime, 04/14/2020 20:30:29
MetaData, TestRecord.TestTarget, InGaAs_1_W_BE_FijiHfO2_NW-G05
MetaData, TestRecord.IterationIndex, 84
MetaData, TestRecord.Preservation, true
MetaData, TestRecord.Flag, 
MetaData, TestRecord.Remarks, 
MetaData, TestRecord.LinkKey, 27694474-8a01-4fa6-93df-ccf9a8cd3a19
MetaData, TestRecord.Parameters, 
Dimension1, 702, 702, 702, 702, 702
Dimension2, 1, 1, 1, 1, 1
DataName, V_TE, I_TE, absITE, V1, I2abs
DataValue, 0, -1.824E-11, 1.824E-11, , 
DataValue, 0.01, 5.6350000000000004E-11, 5.6350000000000004E-11, , 
DataValue, 0.02, 2.458E-11, 2.458E-11, , 
DataValue, 0.03, 5.9350000000000007E-11, 5.9350000000000007E-11, , 
DataValue, 0.04, 3.136E-11, 3.136E-11, , 
DataValue, 0.05, 5.914E-11, 5.914E-11, , 
DataValue, 0.06, 3.9020000000000005E-11, 3.9020000000000005E-11, , 
DataValue, 0.07, 5.8020000000000004E-11, 5.8020000000000004E-11, , 
DataValue, 0.08, 4.2620000000000004E-11, 4.2620000000000004E-11, , 
DataValue, 0.09, 5.619E-11, 5.619E-11, , 
DataValue, 0.1, 4.8680000000000007E-11, 4.8680000000000007E-11, , 
DataValue, 0.11, 5.4020000000000004E-11, 5.4020000000000004E-11, , 
DataValue, 0.12, 5.847E-11, 5.847E-11, , 
DataValue, 0.13, 4.9700000000000007E-11, 4.9700000000000007E-11, , 
DataValue, 0.14, 6.393E-11, 6.393E-11, , 
DataValue, 0.15, 5.259E-11, 5.259E-11, , 
DataValue, 0.16, 7.2630000000000012E-11, 7.2630000000000012E-11, , 
DataValue, 0.17, 5.546E-11, 5.546E-11, , 
DataValue, 0.18, 7.8150000000000009E-11, 7.8150000000000009E-11, , 
DataValue, 0.19, 5.972E-11, 5.972E-11, , 
DataValue, 0.2, 8.26E-11, 8.26E-11, , 
DataValue, 0.21, 6.5820000000000012E-11, 6.5820000000000012E-11, , 
DataValue, 0.22, 9.0610000000000011E-11, 9.0610000000000011E-11, , 
DataValue, 0.23, 7.085E-11, 7.085E-11, , 
DataValue, 0.24, 9.926E-11, 9.926E-11, , 
DataValue, 0.25, 7.726E-11, 7.726E-11, , 
DataValue, 0.26, 1.0464000000000001E-10, 1.0464000000000001E-10, , 
DataValue, 0.27, 8.4210000000000012E-11, 8.4210000000000012E-11, , 
DataValue, 0.28, 1.1218000000000001E-10, 1.1218000000000001E-10, , 
DataValue, 0.29, 8.85E-11, 8.85E-11, , 
DataValue, 0.3, 1.1947E-10, 1.1947E-10, , 
DataValue, 0.31, 9.63E-11, 9.63E-11, , 
DataValue, 0.32, 1.5119000000000002E-10, 1.5119000000000002E-10, , 
DataValue, 0.33, 3.8776E-10, 3.8776E-10, , 
DataValue, 0.34, 5.3675E-10, 5.3675E-10, , 
DataValue, 0.35000000000000003, 3.258E-10, 3.258E-10, , 
DataValue, 0.36, 1.0331E-10, 1.0331E-10, , 
DataValue, 0.37, 1.3082000000000002E-10, 1.3082000000000002E-10, , 
DataValue, 0.38, 1.9951000000000002E-10, 1.9951000000000002E-10, , 
DataValue, 0.39, 1.6590000000000002E-10, 1.6590000000000002E-10, , 
DataValue, 0.4, 2.3271000000000002E-10, 2.3271000000000002E-10, , 
DataValue, 0.41000000000000003, 1.71E-10, 1.71E-10, , 
DataValue, 0.42, 2.0987000000000002E-10, 2.0987000000000002E-10, , 
DataValue, 0.43, 1.7748000000000002E-10, 1.7748000000000002E-10, , 
DataValue, 0.44, 1.2519E-10, 1.2519E-10, , 
DataValue, 0.45, 6.689E-11, 6.689E-11, , 
DataValue, 0.46, 1.0435000000000001E-10, 1.0435000000000001E-10, , 
DataValue, 0.47000000000000003, 7.193E-11, 7.193E-11, , 
DataValue, 0.48, 1.8391000000000001E-10, 1.8391000000000001E-10, , 
DataValue, 0.49, 2.9159E-10, 2.9159E-10, , 
DataValue, 0.5, 3.3561000000000004E-10, 3.3561000000000004E-10, , 
DataValue, 0.51, 3.2099000000000005E-10, 3.2099000000000005E-10, , 
DataValue, 0.52, 3.7604000000000003E-10, 3.7604000000000003E-10, , 
DataValue, 0.53, 4.2221000000000003E-10, 4.2221000000000003E-10, , 
DataValue, 0.54, 4.7385000000000007E-10, 4.7385000000000007E-10, , 
DataValue, 0.55, 4.7711E-10, 4.7711E-10, , 
DataValue, 0.56, 4.9957000000000006E-10, 4.9957000000000006E-10, , 
DataValue, 0.57000000000000006, 4.9169000000000009E-10, 4.9169000000000009E-10, , 
DataValue, 0.58, 5.4449E-10, 5.4449E-10, , 
DataValue, 0.59, 5.2732E-10, 5.2732E-10, , 
DataValue, 0.6, 5.6618E-10, 5.6618E-10, , 
DataValue, 0.61, 5.2487000000000007E-10, 5.2487000000000007E-10, , 
DataValue, 0.62, 6.3248000000000007E-10, 6.3248000000000007E-10, , 
DataValue, 0.63, 5.3126000000000009E-10, 5.3126000000000009E-10, , 
DataValue, 0.64, 4.9070000000000007E-10, 4.9070000000000007E-10, , 
DataValue, 0.65, 4.2108E-10, 4.2108E-10, , 
DataValue, 0.66, 4.8713000000000005E-10, 4.8713000000000005E-10, , 
DataValue, 0.67, 5.6561000000000008E-10, 5.6561000000000008E-10, , 
DataValue, 0.68, 5.2041000000000007E-10, 5.2041000000000007E-10, , 
DataValue, 0.69000000000000006, 2.9493000000000004E-10, 2.9493000000000004E-10, , 
DataValue, 0.70000000000000007, 4.3902000000000005E-10, 4.3902000000000005E-10, , 
DataValue, 0.71, 3.9834000000000004E-10, 3.9834000000000004E-10, , 
DataValue, 0.72, 3.9633E-10, 3.9633E-10, , 
DataValue, 0.73, 3.7686000000000003E-10, 3.7686000000000003E-10, , 
DataValue, 0.74, 3.8969000000000003E-10, 3.8969000000000003E-10, , 
DataValue, 0.75, 3.3535000000000004E-10, 3.3535000000000004E-10, , 
DataValue, 0.76, 3.3346E-10, 3.3346E-10, , 
DataValue, 0.77, 3.4792E-10, 3.4792E-10, , 
DataValue, 0.78, 3.5372000000000005E-10, 3.5372000000000005E-10, , 
DataValue, 0.79, 3.7251000000000004E-10, 3.7251000000000004E-10, , 
DataValue, 0.8, 2.7638000000000003E-10, 2.7638000000000003E-10, , 
DataValue, 0.81, 3.6860000000000005E-10, 3.6860000000000005E-10, , 
DataValue, 0.82000000000000006, 4.6018000000000006E-10, 4.6018000000000006E-10, , 
DataValue, 0.83000000000000007, 4.8766E-10, 4.8766E-10, , 
DataValue, 0.84, 3.8877000000000004E-10, 3.8877000000000004E-10, , 
DataValue, 0.85, 5.337E-10, 5.337E-10, , 
DataValue, 0.86, 5.6712E-10, 5.6712E-10, , 
DataValue, 0.87, 5.5157000000000009E-10, 5.5157000000000009E-10, , 
DataValue, 0.88, 5.2669000000000007E-10, 5.2669000000000007E-10, , 
DataValue, 0.89, 5.7686E-10, 5.7686E-10, , 
DataValue, 0.9, 5.5170000000000007E-10, 5.5170000000000007E-10, , 
DataValue, 0.91, 6.0351E-10, 6.0351E-10, , 
DataValue, 0.92, 2.9442E-09, 2.9442E-09, , 
DataValue, 0.93, 1.287E-09, 1.287E-09, , 
DataValue, 0.94000000000000006, 5.2181000000000008E-10, 5.2181000000000008E-10, , 
DataValue, 0.95000000000000007, 3.5837E-10, 3.5837E-10, , 
DataValue, 0.96, 3.5336E-10, 3.5336E-10, , 
DataValue, 0.97, 4.4693000000000003E-10, 4.4693000000000003E-10, , 
DataValue, 0.98, 4.1076000000000004E-10, 4.1076000000000004E-10, , 
DataValue, 0.99, 7.5390000000000005E-10, 7.5390000000000005E-10, , 
DataValue, 1, 5.0501E-10, 5.0501E-10, , 
DataValue, 1.01, 6.9870000000000008E-10, 6.9870000000000008E-10, , 
DataValue, 1.02, 8.7742000000000006E-10, 8.7742000000000006E-10, , 
DataValue, 1.03, 9.0934000000000009E-10, 9.0934000000000009E-10, , 
DataValue, 1.04, 1.0966E-09, 1.0966E-09, , 
DataValue, 1.05, 9.239E-10, 9.239E-10, , 
DataValue, 1.06, 5.3768E-10, 5.3768E-10, , 
DataValue, 1.07, 8.8747E-10, 8.8747E-10, , 
DataValue, 1.08, 7.1662000000000005E-10, 7.1662000000000005E-10, , 
DataValue, 1.09, 9.656E-10, 9.656E-10, , 
DataValue, 1.1, 7.663E-10, 7.663E-10, , 
DataValue, 1.11, 9.1339000000000009E-10, 9.1339000000000009E-10, , 
DataValue, 1.12, 9.99E-10, 9.99E-10, , 
DataValue, 1.1300000000000001, 1.0234E-09, 1.0234E-09, , 
DataValue, 1.1400000000000001, 1.1899E-09, 1.1899E-09, , 
DataValue, 1.1500000000000001, 1.1141E-09, 1.1141E-09, , 
DataValue, 1.16, 1.3073E-09, 1.3073E-09, , 
DataValue, 1.17, 1.117E-09, 1.117E-09, , 
DataValue, 1.18, 4.2467E-09, 4.2467E-09, , 
DataValue, 1.19, 2.8664E-09, 2.8664E-09, , 
DataValue, 1.2, 2.1204E-09, 2.1204E-09, , 
DataValue, 1.21, 1.8504E-09, 1.8504E-09, , 
DataValue, 1.22, 6.3688000000000008E-10, 6.3688000000000008E-10, , 
DataValue, 1.23, 5.5155E-10, 5.5155E-10, , 
DataValue, 1.24, 6.2684000000000008E-10, 6.2684000000000008E-10, , 
DataValue, 1.25, 2.7182E-10, 2.7182E-10, , 
DataValue, 1.26, 4.1616000000000004E-10, 4.1616000000000004E-10, , 
DataValue, 1.27, 1.0051E-09, 1.0051E-09, , 
DataValue, 1.28, 1.1406E-09, 1.1406E-09, , 
DataValue, 1.29, 1.0619E-09, 1.0619E-09, , 
DataValue, 1.3, 1.1539E-09, 1.1539E-09, , 
DataValue, 1.31, 1.067E-09, 1.067E-09, , 
DataValue, 1.32, 1.0417E-09, 1.0417E-09, , 
DataValue, 1.33, 1.1356E-09, 1.1356E-09, , 
DataValue, 1.34, 1.3152E-09, 1.3152E-09, , 
DataValue, 1.35, 1.199E-09, 1.199E-09, , 
DataValue, 1.36, 1.3182E-09, 1.3182E-09, , 
DataValue, 1.37, 1.2819E-09, 1.2819E-09, , 
DataValue, 1.3800000000000001, 7.3669999999999995E-10, 7.3669999999999995E-10, , 
DataValue, 1.3900000000000001, 6.6319000000000006E-10, 6.6319000000000006E-10, , 
DataValue, 1.4000000000000001, 7.3535E-10, 7.3535E-10, , 
DataValue, 1.41, 7.7052E-10, 7.7052E-10, , 
DataValue, 1.42, 7.5221E-10, 7.5221E-10, , 
DataValue, 1.43, 7.1690000000000008E-10, 7.1690000000000008E-10, , 
DataValue, 1.44, 8.114E-10, 8.114E-10, , 
DataValue, 1.45, 8.5255E-10, 8.5255E-10, , 
DataValue, 1.46, 9.862E-10, 9.862E-10, , 
DataValue, 1.47, 3.1372E-09, 3.1372E-09, , 
DataValue, 1.48, 3.3372E-09, 3.3372E-09, , 
DataValue, 1.49, 3.5041E-09, 3.5041E-09, , 
DataValue, 1.5, 3.5809E-09, 3.5809E-09, , 
DataValue, 1.51, 7.5687E-09, 7.5687E-09, , 
DataValue, 1.52, 3.0179E-09, 3.0179E-09, , 
DataValue, 1.53, 7.8625E-09, 7.8625E-09, , 
DataValue, 1.54, 8.0741E-09, 8.0741E-09, , 
DataValue, 1.55, 6.5666E-09, 6.5666E-09, , 
DataValue, 1.56, 7.6091E-09, 7.6091E-09, , 
DataValue, 1.57, 2.8951E-09, 2.8951E-09, , 
DataValue, 1.58, 3.1582E-09, 3.1582E-09, , 
DataValue, 1.59, 3.2431E-09, 3.2431E-09, , 
DataValue, 1.6, 2.7996E-09, 2.7996E-09, , 
DataValue, 1.61, 2.7853E-09, 2.7853E-09, , 
DataValue, 1.62, 3.2672E-09, 3.2672E-09, , 
DataValue, 1.6300000000000001, 6.8194E-10, 6.8194E-10, , 
DataValue, 1.6400000000000001, 7.945000000000001E-10, 7.945000000000001E-10, , 
DataValue, 1.6500000000000001, 8.8440000000000007E-10, 8.8440000000000007E-10, , 
DataValue, 1.6600000000000001, 8.5341000000000005E-10, 8.5341000000000005E-10, , 
DataValue, 1.67, 9.045800000000001E-10, 9.045800000000001E-10, , 
DataValue, 1.68, 8.9866000000000008E-10, 8.9866000000000008E-10, , 
DataValue, 1.69, 8.8010000000000009E-10, 8.8010000000000009E-10, , 
DataValue, 1.7, 1.078E-09, 1.078E-09, , 
DataValue, 1.71, 1.0957E-09, 1.0957E-09, , 
DataValue, 1.72, 1.2243E-09, 1.2243E-09, , 
DataValue, 1.73, 1.1897E-09, 1.1897E-09, , 
DataValue, 1.74, 1.1064E-09, 1.1064E-09, , 
DataValue, 1.75, 1.1014E-09, 1.1014E-09, , 
DataValue, 1.76, 2.577E-09, 2.577E-09, , 
DataValue, 1.77, 2.9863E-09, 2.9863E-09, , 
DataValue, 1.78, 3.283E-09, 3.283E-09, , 
DataValue, 1.79, 4.3118E-09, 4.3118E-09, , 
DataValue, 1.8, 1.0838E-09, 1.0838E-09, , 
DataValue, 1.81, 1.3666E-09, 1.3666E-09, , 
DataValue, 1.82, 2.3963E-09, 2.3963E-09, , 
DataValue, 1.83, 5.6475E-09, 5.6475E-09, , 
DataValue, 1.84, 3.2528E-09, 3.2528E-09, , 
DataValue, 1.85, 2.8673E-09, 2.8673E-09, , 
DataValue, 1.86, 3.0682E-09, 3.0682E-09, , 
DataValue, 1.87, 2.7771E-09, 2.7771E-09, , 
DataValue, 1.8800000000000001, 3.9829E-09, 3.9829E-09, , 
DataValue, 1.8900000000000001, 3.1745E-09, 3.1745E-09, , 
DataValue, 1.9000000000000001, 3.1268E-09, 3.1268E-09, , 
DataValue, 1.9100000000000001, 3.0491E-09, 3.0491E-09, , 
DataValue, 1.92, 3.4097E-09, 3.4097E-09, , 
DataValue, 1.93, 6.2049E-09, 6.2049E-09, , 
DataValue, 1.94, 4.3953E-09, 4.3953E-09, , 
DataValue, 1.95, 4.485E-09, 4.485E-09, , 
DataValue, 1.96, 4.8364E-09, 4.8364E-09, , 
DataValue, 1.97, 5.0721E-09, 5.0721E-09, , 
DataValue, 1.98, 1.03024E-08, 1.03024E-08, , 
DataValue, 1.99, 3.4943E-09, 3.4943E-09, , 
DataValue, 2, 1.1115999999999998E-08, 1.1115999999999998E-08, , 
DataValue, 2.0100000000000002, 8.5107000000000014E-06, 8.5107000000000014E-06, , 
DataValue, 2.02, 7.4622000000000012E-06, 7.4622000000000012E-06, , 
DataValue, 2.0300000000000002, 5.2352E-06, 5.2352E-06, , 
DataValue, 2.04, 1.5372E-05, 1.5372E-05, , 
DataValue, 2.05, 1.5306000000000002E-05, 1.5306000000000002E-05, , 
DataValue, 2.06, 1.5256000000000001E-05, 1.5256000000000001E-05, , 
DataValue, 2.07, 1.4916E-05, 1.4916E-05, , 
DataValue, 2.08, 1.462E-05, 1.462E-05, , 
DataValue, 2.09, 1.4462E-05, 1.4462E-05, , 
DataValue, 2.1, 1.4412E-05, 1.4412E-05, , 
DataValue, 2.11, 1.4572E-05, 1.4572E-05, , 
DataValue, 2.12, 1.4582E-05, 1.4582E-05, , 
DataValue, 2.13, 1.4662000000000001E-05, 1.4662000000000001E-05, , 
DataValue, 2.14, 1.4302000000000001E-05, 1.4302000000000001E-05, , 
DataValue, 2.15, 1.4248E-05, 1.4248E-05, , 
DataValue, 2.16, 1.4266E-05, 1.4266E-05, , 
DataValue, 2.17, 1.4532E-05, 1.4532E-05, , 
DataValue, 2.18, 1.3372E-05, 1.3372E-05, , 
DataValue, 2.19, 1.3542E-05, 1.3542E-05, , 
DataValue, 2.2, 1.3522E-05, 1.3522E-05, , 
DataValue, 2.21, 1.3222E-05, 1.3222E-05, , 
DataValue, 2.22, 1.3928000000000001E-05, 1.3928000000000001E-05, , 
DataValue, 2.23, 1.3684E-05, 1.3684E-05, , 
DataValue, 2.24, 1.36E-05, 1.36E-05, , 
DataValue, 2.25, 9.4968E-06, 9.4968E-06, , 
DataValue, 2.2600000000000002, 9.8573000000000013E-06, 9.8573000000000013E-06, , 
DataValue, 2.27, 8.5934000000000014E-06, 8.5934000000000014E-06, , 
DataValue, 2.2800000000000002, 8.9761E-06, 8.9761E-06, , 
DataValue, 2.29, 9.2271E-06, 9.2271E-06, , 
DataValue, 2.3000000000000003, 1.107E-05, 1.107E-05, , 
DataValue, 2.31, 1.1274E-05, 1.1274E-05, , 
DataValue, 2.32, 9.8518000000000011E-06, 9.8518000000000011E-06, , 
DataValue, 2.33, 1.0232E-05, 1.0232E-05, , 
DataValue, 2.34, 1.03528E-05, 1.03528E-05, , 
DataValue, 2.35, 1.0888700000000001E-05, 1.0888700000000001E-05, , 
DataValue, 2.36, 1.00485E-05, 1.00485E-05, , 
DataValue, 2.37, 9.6902E-06, 9.6902E-06, , 
DataValue, 2.38, 1.0155700000000002E-05, 1.0155700000000002E-05, , 
DataValue, 2.39, 9.9878000000000012E-06, 9.9878000000000012E-06, , 
DataValue, 2.4, 1.0126000000000001E-05, 1.0126000000000001E-05, , 
DataValue, 2.41, 9.3614000000000015E-06, 9.3614000000000015E-06, , 
DataValue, 2.42, 1.0548000000000001E-05, 1.0548000000000001E-05, , 
DataValue, 2.43, 9.2170000000000017E-06, 9.2170000000000017E-06, , 
