
SetupTitle, ExtFET - POS SET - VG-1.52V - TE-3.5 24u
PrimitiveTest, I/V Sweep
TestParameter, Context.MainFrame, B1500A
TestParameter, Channel.UnitType, SMU, SMU, SMU
TestParameter, Channel.Unit, SMU2:HR, SMU4:HR, SMU3:HR
TestParameter, Channel.IName, I_TE, I_BE, I_G
TestParameter, Channel.VName, V_TE, V_BE, V_G
TestParameter, Channel.Mode, V, COMMON, V
TestParameter, Channel.Func, VAR1, CONST, CONST
TestParameter, Channel.Index, 
TestParameter, Channel.Time, 
TestParameter, Measurement.Port.Unit, SMU2:HR, SMU4:HR, SMU3:HR
TestParameter, Measurement.Port.SeriesResistor, NONE, NONE, NONE
TestParameter, Measurement.Port.Filter, ON, ON, ON
TestParameter, Measurement.Port.OutputVoltageComparison, 0, 0, 0
TestParameter, Measurement.Primary.Locus, Double
TestParameter, Measurement.Primary.Scale, LINEAR
TestParameter, Measurement.Primary.Start, 0
TestParameter, Measurement.Primary.Stop, 3.5
TestParameter, Measurement.Primary.Step, 0.01
TestParameter, Measurement.Primary.Compliance, 2.4E-05
TestParameter, Measurement.Primary.PowerCompliance, 0
TestParameter, Measurement.Aborting.Condition, CONTINUE AT ANY
TestParameter, Measurement.PostOutput.Value, START
TestParameter, Measurement.PostOutput.Retention, OFF
TestParameter, Measurement.Bias.Source, 0, 0, 1.52
TestParameter, Measurement.Bias.Compliance, 2.4E-05, 0.1, 0.0001
TestParameter, Measurement.Monitor.Unit, SMU2:HR, SMU4:HR, SMU3:HR
TestParameter, Measurement.Monitor.Adc, HR ADC, HR ADC, HR ADC
TestParameter, Measurement.Monitor.Measurement, Compliance Side, Compliance Side, Compliance Side
TestParameter, Measurement.Monitor.RangingMode, LIMITED, LIMITED, LIMITED
TestParameter, Measurement.Monitor.RangeBoundary, 1nA, 1nA, 1nA
TestParameter, Measurement.Monitor.RangeRating, BY FULL RANGE, BY FULL RANGE, BY FULL RANGE
TestParameter, Measurement.Monitor.RangeRatingCoeff, 50, 50, 50
TestParameter, Measurement.Timing.Hold, 0
TestParameter, Measurement.Timing.Delay, 0
TestParameter, Measurement.Adc.HighSpeed.Mode, AUTO
TestParameter, Measurement.Adc.HighSpeed.Coeff, 1
TestParameter, Measurement.Adc.HighResolution.AutoZero, OFF
TestParameter, Measurement.Adc.HighResolution.Mode, AUTO
TestParameter, Measurement.Adc.HighResolution.Coeff, 6
TestParameter, Measurement.WaitTime.Source.Coeff, 1
TestParameter, Measurement.WaitTime.Source.Offset, 0
TestParameter, Measurement.WaitTime.Monitor.Coeff, 1
TestParameter, Measurement.WaitTime.Monitor.Offset, 0
TestParameter, Function.User.Name, absITE
TestParameter, Function.User.Unit, A
TestParameter, Function.User.Definition, abs(I_TE)
TestParameter, Output.Graph.Enabled, true
TestParameter, Output.Graph.AutoScaling, false
TestParameter, Output.Graph.XAxis.Data, V_TE
TestParameter, Output.Graph.XAxis.Scale, Linear
TestParameter, Output.Graph.XAxis.Left, 0
TestParameter, Output.Graph.XAxis.Right, 10
TestParameter, Output.Graph.XAxis.RunTimeAutoScale, true
TestParameter, Output.Graph.YAxis.Data, absITE
TestParameter, Output.Graph.YAxis.Scale, Log
TestParameter, Output.Graph.YAxis.Bottom, 0
TestParameter, Output.Graph.YAxis.Top, 1
TestParameter, Output.Graph.YAxis.Group, 
TestParameter, Output.Graph.YAxis.RunTimeAutoScale, true
TestParameter, Output.List.Data, V1, I2abs
TestParameter, AutoAnalysis.Interpolation, false
TestParameter, AutoAnalysis.Var2StepCount, 1
TestParameter, AutoAnalysis.Var2StepScript, 
TestParameter, AutoAnalysis.Line1.Enabled, false
TestParameter, AutoAnalysis.Line1.Type, 1
TestParameter, AutoAnalysis.Line1.Fix, True
TestParameter, AutoAnalysis.Line1.YAxis, 0
TestParameter, AutoAnalysis.Line1.Point1.Type, 0
TestParameter, AutoAnalysis.Line1.Point1.XY.X, 
TestParameter, AutoAnalysis.Line1.Point1.XY.Y, 
TestParameter, AutoAnalysis.Line1.Point1.Data.Var, 
TestParameter, AutoAnalysis.Line1.Point1.Data.Condition, 
TestParameter, AutoAnalysis.Line1.Point1.Data.Start, false
TestParameter, AutoAnalysis.Line1.Point1.Data.StartVar, 
TestParameter, AutoAnalysis.Line1.Point1.Data.StartCondition, 
TestParameter, AutoAnalysis.Line1.Point2.Type, 0
TestParameter, AutoAnalysis.Line1.Point2.XY.X, 
TestParameter, AutoAnalysis.Line1.Point2.XY.Y, 
TestParameter, AutoAnalysis.Line1.Point2.Data.Var, 
TestParameter, AutoAnalysis.Line1.Point2.Data.Condition, 
TestParameter, AutoAnalysis.Line1.Point2.Data.Start, false
TestParameter, AutoAnalysis.Line1.Point2.Data.StartVar, 
TestParameter, AutoAnalysis.Line1.Point2.Data.StartCondition, 
TestParameter, AutoAnalysis.Line1.GradientExpr, 0
TestParameter, AutoAnalysis.Line2.Enabled, false
TestParameter, AutoAnalysis.Line2.Type, 1
TestParameter, AutoAnalysis.Line2.Fix, True
TestParameter, AutoAnalysis.Line2.YAxis, 0
TestParameter, AutoAnalysis.Line2.Point1.Type, 0
TestParameter, AutoAnalysis.Line2.Point1.XY.X, 
TestParameter, AutoAnalysis.Line2.Point1.XY.Y, 
TestParameter, AutoAnalysis.Line2.Point1.Data.Var, 
TestParameter, AutoAnalysis.Line2.Point1.Data.Condition, 
TestParameter, AutoAnalysis.Line2.Point1.Data.Start, false
TestParameter, AutoAnalysis.Line2.Point1.Data.StartVar, 
TestParameter, AutoAnalysis.Line2.Point1.Data.StartCondition, 
TestParameter, AutoAnalysis.Line2.Point2.Type, 0
TestParameter, AutoAnalysis.Line2.Point2.XY.X, 
TestParameter, AutoAnalysis.Line2.Point2.XY.Y, 
TestParameter, AutoAnalysis.Line2.Point2.Data.Var, 
TestParameter, AutoAnalysis.Line2.Point2.Data.Condition, 
TestParameter, AutoAnalysis.Line2.Point2.Data.Start, false
TestParameter, AutoAnalysis.Line2.Point2.Data.StartVar, 
TestParameter, AutoAnalysis.Line2.Point2.Data.StartCondition, 
TestParameter, AutoAnalysis.Line2.GradientExpr, 0
TestParameter, AutoAnalysis.Marker.Enabled, false
TestParameter, AutoAnalysis.Marker.Data.Var, 
TestParameter, AutoAnalysis.Marker.Data.Condition, 
TestParameter, AutoAnalysis.Marker.Data.Start, false
TestParameter, AutoAnalysis.Marker.Data.StartVar, 
TestParameter, AutoAnalysis.Marker.Data.StartCondition, 
MetaData, TestRecord.EntryPoint, true
MetaData, TestRecord.RecordTime, 04/14/2020 20:29:26
MetaData, TestRecord.TestTarget, InGaAs_1_W_BE_FijiHfO2_NW-G05
MetaData, TestRecord.IterationIndex, 80
MetaData, TestRecord.Preservation, true
MetaData, TestRecord.Flag, 
MetaData, TestRecord.Remarks, 
MetaData, TestRecord.LinkKey, eac12d44-c4a9-4bbd-b340-5ef9911c5dc7
MetaData, TestRecord.Parameters, 
Dimension1, 702, 702, 702, 702, 702
Dimension2, 1, 1, 1, 1, 1
DataName, V_TE, I_TE, absITE, V1, I2abs
DataValue, 0, 1.9510000000000002E-11, 1.9510000000000002E-11, , 
DataValue, 0.01, 1.1747E-10, 1.1747E-10, , 
DataValue, 0.02, 3.1082E-10, 3.1082E-10, , 
DataValue, 0.03, 4.0263000000000004E-10, 4.0263000000000004E-10, , 
DataValue, 0.04, 4.8343000000000006E-10, 4.8343000000000006E-10, , 
DataValue, 0.05, 5.4513000000000006E-10, 5.4513000000000006E-10, , 
DataValue, 0.06, 6.4695E-10, 6.4695E-10, , 
DataValue, 0.07, 6.1782E-10, 6.1782E-10, , 
DataValue, 0.08, 1.0018E-09, 1.0018E-09, , 
DataValue, 0.09, 1.4917E-09, 1.4917E-09, , 
DataValue, 0.1, 1.8699E-09, 1.8699E-09, , 
DataValue, 0.11, 2.6263E-09, 2.6263E-09, , 
DataValue, 0.12, 2.5094E-09, 2.5094E-09, , 
DataValue, 0.13, 3.1962E-09, 3.1962E-09, , 
DataValue, 0.14, 3.6164E-09, 3.6164E-09, , 
DataValue, 0.15, 4.1101E-09, 4.1101E-09, , 
DataValue, 0.16, 4.3883E-09, 4.3883E-09, , 
DataValue, 0.17, 3.506E-09, 3.506E-09, , 
DataValue, 0.18, 4.347E-09, 4.347E-09, , 
DataValue, 0.19, 4.8268E-09, 4.8268E-09, , 
DataValue, 0.2, 5.3245999999999996E-09, 5.3245999999999996E-09, , 
DataValue, 0.21, 6.1031E-09, 6.1031E-09, , 
DataValue, 0.22, 4.5764E-09, 4.5764E-09, , 
DataValue, 0.23, 5.1007E-09, 5.1007E-09, , 
DataValue, 0.24, 5.52E-09, 5.52E-09, , 
DataValue, 0.25, 6.0795E-09, 6.0795E-09, , 
DataValue, 0.26, 6.4915E-09, 6.4915E-09, , 
DataValue, 0.27, 7.1717E-09, 7.1717E-09, , 
DataValue, 0.28, 7.7317E-09, 7.7317E-09, , 
DataValue, 0.29, 8.251E-09, 8.251E-09, , 
DataValue, 0.3, 9.0379E-09, 9.0379E-09, , 
DataValue, 0.31, 9.9138E-09, 9.9138E-09, , 
DataValue, 0.32, 1.0595E-08, 1.0595E-08, , 
DataValue, 0.33, 1.11388E-08, 1.11388E-08, , 
DataValue, 0.34, 1.2010599999999999E-08, 1.2010599999999999E-08, , 
DataValue, 0.35000000000000003, 1.3124999999999998E-08, 1.3124999999999998E-08, , 
DataValue, 0.36, 1.38774E-08, 1.38774E-08, , 
DataValue, 0.37, 1.48862E-08, 1.48862E-08, , 
DataValue, 0.38, 1.56278E-08, 1.56278E-08, , 
DataValue, 0.39, 1.6974999999999998E-08, 1.6974999999999998E-08, , 
DataValue, 0.4, 1.78572E-08, 1.78572E-08, , 
DataValue, 0.41000000000000003, 1.8886799999999998E-08, 1.8886799999999998E-08, , 
DataValue, 0.42, 1.99886E-08, 1.99886E-08, , 
DataValue, 0.43, 2.1046E-08, 2.1046E-08, , 
DataValue, 0.44, 2.2135799999999996E-08, 2.2135799999999996E-08, , 
DataValue, 0.45, 2.32676E-08, 2.32676E-08, , 
DataValue, 0.46, 2.4266599999999996E-08, 2.4266599999999996E-08, , 
DataValue, 0.47000000000000003, 2.5468799999999997E-08, 2.5468799999999997E-08, , 
DataValue, 0.48, 2.8406599999999996E-08, 2.8406599999999996E-08, , 
DataValue, 0.49, 3.4471199999999996E-08, 3.4471199999999996E-08, , 
DataValue, 0.5, 2.69616E-08, 2.69616E-08, , 
DataValue, 0.51, 1.62796E-08, 1.62796E-08, , 
DataValue, 0.52, 1.7538799999999998E-08, 1.7538799999999998E-08, , 
DataValue, 0.53, 1.56346E-08, 1.56346E-08, , 
DataValue, 0.54, 1.6773599999999997E-08, 1.6773599999999997E-08, , 
DataValue, 0.55, 1.78214E-08, 1.78214E-08, , 
DataValue, 0.56, 1.7304199999999998E-08, 1.7304199999999998E-08, , 
DataValue, 0.57000000000000006, 1.74496E-08, 1.74496E-08, , 
DataValue, 0.58, 1.9235999999999998E-08, 1.9235999999999998E-08, , 
DataValue, 0.59, 3.79796E-08, 3.79796E-08, , 
DataValue, 0.6, 3.5429999999999994E-08, 3.5429999999999994E-08, , 
DataValue, 0.61, 3.70096E-08, 3.70096E-08, , 
DataValue, 0.62, 3.8188799999999995E-08, 3.8188799999999995E-08, , 
DataValue, 0.63, 4.0440799999999994E-08, 4.0440799999999994E-08, , 
DataValue, 0.64, 4.0531399999999996E-08, 4.0531399999999996E-08, , 
DataValue, 0.65, 4.20126E-08, 4.20126E-08, , 
DataValue, 0.66, 4.0673199999999994E-08, 4.0673199999999994E-08, , 
DataValue, 0.67, 4.1603E-08, 4.1603E-08, , 
DataValue, 0.68, 4.6727E-08, 4.6727E-08, , 
DataValue, 0.69000000000000006, 4.56416E-08, 4.56416E-08, , 
DataValue, 0.70000000000000007, 4.5801599999999994E-08, 4.5801599999999994E-08, , 
DataValue, 0.71, 5.1071399999999996E-08, 5.1071399999999996E-08, , 
DataValue, 0.72, 5.2522999999999993E-08, 5.2522999999999993E-08, , 
DataValue, 0.73, 5.1104799999999996E-08, 5.1104799999999996E-08, , 
DataValue, 0.74, 5.04418E-08, 5.04418E-08, , 
DataValue, 0.75, 4.9204199999999993E-08, 4.9204199999999993E-08, , 
DataValue, 0.76, 4.9199599999999995E-08, 4.9199599999999995E-08, , 
DataValue, 0.77, 5.2860199999999996E-08, 5.2860199999999996E-08, , 
DataValue, 0.78, 3.4516199999999994E-08, 3.4516199999999994E-08, , 
DataValue, 0.79, 3.33198E-08, 3.33198E-08, , 
DataValue, 0.8, 2.7261999999999996E-08, 2.7261999999999996E-08, , 
DataValue, 0.81, 2.48108E-08, 2.48108E-08, , 
DataValue, 0.82000000000000006, 2.6385399999999996E-08, 2.6385399999999996E-08, , 
DataValue, 0.83000000000000007, 2.8066399999999996E-08, 2.8066399999999996E-08, , 
DataValue, 0.84, 2.8757599999999997E-08, 2.8757599999999997E-08, , 
DataValue, 0.85, 3.01322E-08, 3.01322E-08, , 
DataValue, 0.86, 3.08542E-08, 3.08542E-08, , 
DataValue, 0.87, 3.1782E-08, 3.1782E-08, , 
DataValue, 0.88, 3.2932399999999995E-08, 3.2932399999999995E-08, , 
DataValue, 0.89, 3.384E-08, 3.384E-08, , 
DataValue, 0.9, 3.5439199999999995E-08, 3.5439199999999995E-08, , 
DataValue, 0.91, 5.6251599999999991E-08, 5.6251599999999991E-08, , 
DataValue, 0.92, 7.038E-08, 7.038E-08, , 
DataValue, 0.93, 4.6212E-08, 4.6212E-08, , 
DataValue, 0.94000000000000006, 4.6816599999999993E-08, 4.6816599999999993E-08, , 
DataValue, 0.95000000000000007, 5.6080199999999994E-08, 5.6080199999999994E-08, , 
DataValue, 0.96, 7.17376E-08, 7.17376E-08, , 
DataValue, 0.97, 7.8954199999999991E-08, 7.8954199999999991E-08, , 
DataValue, 0.98, 7.3753999999999987E-08, 7.3753999999999987E-08, , 
DataValue, 0.99, 8.2985599999999991E-08, 8.2985599999999991E-08, , 
DataValue, 1, 8.3107399999999986E-08, 8.3107399999999986E-08, , 
DataValue, 1.01, 8.4995999999999989E-08, 8.4995999999999989E-08, , 
DataValue, 1.02, 2.2111999999999998E-07, 2.2111999999999998E-07, , 
DataValue, 1.03, 2.4272E-07, 2.4272E-07, , 
DataValue, 1.04, 2.658E-07, 2.658E-07, , 
DataValue, 1.05, 1.414E-07, 1.414E-07, , 
DataValue, 1.06, 9.388E-08, 9.388E-08, , 
DataValue, 1.07, 1.032E-07, 1.032E-07, , 
DataValue, 1.08, 1.2418E-07, 1.2418E-07, , 
DataValue, 1.09, 1.0433999999999999E-07, 1.0433999999999999E-07, , 
DataValue, 1.1, 6.72664E-08, 6.72664E-08, , 
DataValue, 1.11, 5.9321799999999996E-08, 5.9321799999999996E-08, , 
DataValue, 1.12, 5.8547599999999994E-08, 5.8547599999999994E-08, , 
DataValue, 1.1300000000000001, 6.40736E-08, 6.40736E-08, , 
DataValue, 1.1400000000000001, 6.562859999999999E-08, 6.562859999999999E-08, , 
DataValue, 1.1500000000000001, 1.639E-07, 1.639E-07, , 
DataValue, 1.16, 1.662E-07, 1.662E-07, , 
DataValue, 1.17, 1.6646E-07, 1.6646E-07, , 
DataValue, 1.18, 1.6343999999999999E-07, 1.6343999999999999E-07, , 
DataValue, 1.19, 1.586E-07, 1.586E-07, , 
DataValue, 1.2, 1.1739999999999999E-07, 1.1739999999999999E-07, , 
DataValue, 1.21, 1.2596E-07, 1.2596E-07, , 
DataValue, 1.22, 1.173E-07, 1.173E-07, , 
DataValue, 1.23, 1.3432E-07, 1.3432E-07, , 
DataValue, 1.24, 1.6482E-07, 1.6482E-07, , 
DataValue, 1.25, 1.6163999999999998E-07, 1.6163999999999998E-07, , 
DataValue, 1.26, 1.7223999999999999E-07, 1.7223999999999999E-07, , 
DataValue, 1.27, 1.6082E-07, 1.6082E-07, , 
DataValue, 1.28, 1.1774E-07, 1.1774E-07, , 
DataValue, 1.29, 1.7338E-07, 1.7338E-07, , 
DataValue, 1.3, 1.745E-07, 1.745E-07, , 
DataValue, 1.31, 1.6978E-07, 1.6978E-07, , 
DataValue, 1.32, 1.8736E-07, 1.8736E-07, , 
DataValue, 1.33, 2.2097999999999998E-07, 2.2097999999999998E-07, , 
DataValue, 1.34, 2.2111999999999998E-07, 2.2111999999999998E-07, , 
DataValue, 1.35, 5.8977599999999992E-08, 5.8977599999999992E-08, , 
DataValue, 1.36, 6.288339999999999E-08, 6.288339999999999E-08, , 
DataValue, 1.37, 3.9415799999999996E-08, 3.9415799999999996E-08, , 
DataValue, 1.3800000000000001, 4.6883799999999994E-08, 4.6883799999999994E-08, , 
DataValue, 1.3900000000000001, 4.8391999999999994E-08, 4.8391999999999994E-08, , 
DataValue, 1.4000000000000001, 4.8924199999999993E-08, 4.8924199999999993E-08, , 
DataValue, 1.41, 4.6970599999999996E-08, 4.6970599999999996E-08, , 
DataValue, 1.42, 6.3545999999999992E-08, 6.3545999999999992E-08, , 
DataValue, 1.43, 7.85154E-08, 7.85154E-08, , 
DataValue, 1.44, 7.79836E-08, 7.79836E-08, , 
DataValue, 1.45, 9.0599999999999991E-08, 9.0599999999999991E-08, , 
DataValue, 1.46, 9.3238999999999992E-08, 9.3238999999999992E-08, , 
DataValue, 1.47, 9.5211199999999989E-08, 9.5211199999999989E-08, , 
DataValue, 1.48, 9.58252E-08, 9.58252E-08, , 
DataValue, 1.49, 3.9384E-07, 3.9384E-07, , 
DataValue, 1.5, 3.6078E-07, 3.6078E-07, , 
DataValue, 1.51, 9.94E-08, 9.94E-08, , 
DataValue, 1.52, 9.248119999999999E-08, 9.248119999999999E-08, , 
DataValue, 1.53, 2.391E-07, 2.391E-07, , 
DataValue, 1.54, 2.1825000000000003E-06, 2.1825000000000003E-06, , 
DataValue, 1.55, 2.2057000000000003E-06, 2.2057000000000003E-06, , 
DataValue, 1.56, 1.5222000000000002E-06, 1.5222000000000002E-06, , 
DataValue, 1.57, 1.5626E-06, 1.5626E-06, , 
DataValue, 1.58, 1.2995000000000002E-06, 1.2995000000000002E-06, , 
DataValue, 1.59, 1.3937E-06, 1.3937E-06, , 
DataValue, 1.6, 1.413E-06, 1.413E-06, , 
DataValue, 1.61, 1.4863E-06, 1.4863E-06, , 
DataValue, 1.62, 1.5018000000000002E-06, 1.5018000000000002E-06, , 
DataValue, 1.6300000000000001, 1.5609000000000002E-06, 1.5609000000000002E-06, , 
DataValue, 1.6400000000000001, 1.3991E-06, 1.3991E-06, , 
DataValue, 1.6500000000000001, 1.4829000000000002E-06, 1.4829000000000002E-06, , 
DataValue, 1.6600000000000001, 2.1707000000000002E-06, 2.1707000000000002E-06, , 
DataValue, 1.67, 2.0081000000000003E-06, 2.0081000000000003E-06, , 
DataValue, 1.68, 1.9134E-06, 1.9134E-06, , 
DataValue, 1.69, 2.1372E-06, 2.1372E-06, , 
DataValue, 1.7, 2.6121000000000004E-06, 2.6121000000000004E-06, , 
DataValue, 1.71, 1.8097000000000002E-06, 1.8097000000000002E-06, , 
DataValue, 1.72, 2.0066000000000004E-06, 2.0066000000000004E-06, , 
DataValue, 1.73, 1.8073000000000003E-06, 1.8073000000000003E-06, , 
DataValue, 1.74, 1.7399000000000003E-06, 1.7399000000000003E-06, , 
DataValue, 1.75, 2.1671000000000004E-06, 2.1671000000000004E-06, , 
DataValue, 1.76, 2.3491E-06, 2.3491E-06, , 
DataValue, 1.77, 2.1405E-06, 2.1405E-06, , 
DataValue, 1.78, 2.0139000000000003E-06, 2.0139000000000003E-06, , 
DataValue, 1.79, 1.9201E-06, 1.9201E-06, , 
DataValue, 1.8, 2.4771000000000004E-06, 2.4771000000000004E-06, , 
DataValue, 1.81, 2.2689000000000004E-06, 2.2689000000000004E-06, , 
DataValue, 1.82, 2.8630000000000004E-06, 2.8630000000000004E-06, , 
DataValue, 1.83, 2.617E-06, 2.617E-06, , 
DataValue, 1.84, 2.6694000000000002E-06, 2.6694000000000002E-06, , 
DataValue, 1.85, 3.2130000000000004E-06, 3.2130000000000004E-06, , 
DataValue, 1.86, 3.4038000000000003E-06, 3.4038000000000003E-06, , 
DataValue, 1.87, 3.7326000000000005E-06, 3.7326000000000005E-06, , 
DataValue, 1.8800000000000001, 3.958E-06, 3.958E-06, , 
DataValue, 1.8900000000000001, 4.3914000000000008E-06, 4.3914000000000008E-06, , 
DataValue, 1.9000000000000001, 3.8072000000000006E-06, 3.8072000000000006E-06, , 
DataValue, 1.9100000000000001, 3.8563000000000007E-06, 3.8563000000000007E-06, , 
DataValue, 1.92, 4.7827000000000008E-06, 4.7827000000000008E-06, , 
DataValue, 1.93, 4.0783E-06, 4.0783E-06, , 
DataValue, 1.94, 4.0979E-06, 4.0979E-06, , 
DataValue, 1.95, 3.5777000000000005E-06, 3.5777000000000005E-06, , 
DataValue, 1.96, 4.1774E-06, 4.1774E-06, , 
DataValue, 1.97, 4.4726E-06, 4.4726E-06, , 
DataValue, 1.98, 4.6206E-06, 4.6206E-06, , 
DataValue, 1.99, 4.3741E-06, 4.3741E-06, , 
DataValue, 2, 4.0142000000000005E-06, 4.0142000000000005E-06, , 
DataValue, 2.0100000000000002, 3.5573000000000002E-06, 3.5573000000000002E-06, , 
DataValue, 2.02, 3.4620000000000005E-06, 3.4620000000000005E-06, , 
DataValue, 2.0300000000000002, 3.4821000000000005E-06, 3.4821000000000005E-06, , 
DataValue, 2.04, 4.1189000000000005E-06, 4.1189000000000005E-06, , 
DataValue, 2.05, 3.6445000000000004E-06, 3.6445000000000004E-06, , 
DataValue, 2.06, 3.1939000000000005E-06, 3.1939000000000005E-06, , 
DataValue, 2.07, 3.5874E-06, 3.5874E-06, , 
DataValue, 2.08, 3.5074000000000005E-06, 3.5074000000000005E-06, , 
DataValue, 2.09, 3.5789E-06, 3.5789E-06, , 
DataValue, 2.1, 3.6944000000000006E-06, 3.6944000000000006E-06, , 
DataValue, 2.11, 3.8097000000000006E-06, 3.8097000000000006E-06, , 
DataValue, 2.12, 3.943E-06, 3.943E-06, , 
DataValue, 2.13, 3.7354000000000003E-06, 3.7354000000000003E-06, , 
DataValue, 2.14, 3.8251E-06, 3.8251E-06, , 
DataValue, 2.15, 3.5043000000000005E-06, 3.5043000000000005E-06, , 
DataValue, 2.16, 3.6388E-06, 3.6388E-06, , 
DataValue, 2.17, 3.6449000000000005E-06, 3.6449000000000005E-06, , 
DataValue, 2.18, 3.6253000000000003E-06, 3.6253000000000003E-06, , 
DataValue, 2.19, 3.582E-06, 3.582E-06, , 
DataValue, 2.2, 3.5799000000000002E-06, 3.5799000000000002E-06, , 
DataValue, 2.21, 3.5171E-06, 3.5171E-06, , 
DataValue, 2.22, 3.6277000000000004E-06, 3.6277000000000004E-06, , 
DataValue, 2.23, 3.8437E-06, 3.8437E-06, , 
DataValue, 2.24, 3.7148000000000004E-06, 3.7148000000000004E-06, , 
DataValue, 2.25, 3.8110000000000004E-06, 3.8110000000000004E-06, , 
DataValue, 2.2600000000000002, 3.7610000000000005E-06, 3.7610000000000005E-06, , 
DataValue, 2.27, 3.6259000000000003E-06, 3.6259000000000003E-06, , 
DataValue, 2.2800000000000002, 3.7229000000000004E-06, 3.7229000000000004E-06, , 
