
SetupTitle, ExtFET - POS SET - VG-1.52V - TE-3.5 24u
PrimitiveTest, I/V Sweep
TestParameter, Context.MainFrame, B1500A
TestParameter, Channel.UnitType, SMU, SMU, SMU
TestParameter, Channel.Unit, SMU2:HR, SMU4:HR, SMU3:HR
TestParameter, Channel.IName, I_TE, I_BE, I_G
TestParameter, Channel.VName, V_TE, V_BE, V_G
TestParameter, Channel.Mode, V, COMMON, V
TestParameter, Channel.Func, VAR1, CONST, CONST
TestParameter, Channel.Index, 
TestParameter, Channel.Time, 
TestParameter, Measurement.Port.Unit, SMU2:HR, SMU4:HR, SMU3:HR
TestParameter, Measurement.Port.SeriesResistor, NONE, NONE, NONE
TestParameter, Measurement.Port.Filter, ON, ON, ON
TestParameter, Measurement.Port.OutputVoltageComparison, 0, 0, 0
TestParameter, Measurement.Primary.Locus, Double
TestParameter, Measurement.Primary.Scale, LINEAR
TestParameter, Measurement.Primary.Start, 0
TestParameter, Measurement.Primary.Stop, 3.5
TestParameter, Measurement.Primary.Step, 0.01
TestParameter, Measurement.Primary.Compliance, 2.4E-05
TestParameter, Measurement.Primary.PowerCompliance, 0
TestParameter, Measurement.Aborting.Condition, CONTINUE AT ANY
TestParameter, Measurement.PostOutput.Value, START
TestParameter, Measurement.PostOutput.Retention, OFF
TestParameter, Measurement.Bias.Source, 0, 0, 1.52
TestParameter, Measurement.Bias.Compliance, 2.4E-05, 0.1, 0.0001
TestParameter, Measurement.Monitor.Unit, SMU2:HR, SMU4:HR, SMU3:HR
TestParameter, Measurement.Monitor.Adc, HR ADC, HR ADC, HR ADC
TestParameter, Measurement.Monitor.Measurement, Compliance Side, Compliance Side, Compliance Side
TestParameter, Measurement.Monitor.RangingMode, LIMITED, LIMITED, LIMITED
TestParameter, Measurement.Monitor.RangeBoundary, 1nA, 1nA, 1nA
TestParameter, Measurement.Monitor.RangeRating, BY FULL RANGE, BY FULL RANGE, BY FULL RANGE
TestParameter, Measurement.Monitor.RangeRatingCoeff, 50, 50, 50
TestParameter, Measurement.Timing.Hold, 0
TestParameter, Measurement.Timing.Delay, 0
TestParameter, Measurement.Adc.HighSpeed.Mode, AUTO
TestParameter, Measurement.Adc.HighSpeed.Coeff, 1
TestParameter, Measurement.Adc.HighResolution.AutoZero, OFF
TestParameter, Measurement.Adc.HighResolution.Mode, AUTO
TestParameter, Measurement.Adc.HighResolution.Coeff, 6
TestParameter, Measurement.WaitTime.Source.Coeff, 1
TestParameter, Measurement.WaitTime.Source.Offset, 0
TestParameter, Measurement.WaitTime.Monitor.Coeff, 1
TestParameter, Measurement.WaitTime.Monitor.Offset, 0
TestParameter, Function.User.Name, absITE
TestParameter, Function.User.Unit, A
TestParameter, Function.User.Definition, abs(I_TE)
TestParameter, Output.Graph.Enabled, true
TestParameter, Output.Graph.AutoScaling, false
TestParameter, Output.Graph.XAxis.Data, V_TE
TestParameter, Output.Graph.XAxis.Scale, Linear
TestParameter, Output.Graph.XAxis.Left, 0
TestParameter, Output.Graph.XAxis.Right, 10
TestParameter, Output.Graph.XAxis.RunTimeAutoScale, true
TestParameter, Output.Graph.YAxis.Data, absITE
TestParameter, Output.Graph.YAxis.Scale, Log
TestParameter, Output.Graph.YAxis.Bottom, 0
TestParameter, Output.Graph.YAxis.Top, 1
TestParameter, Output.Graph.YAxis.Group, 
TestParameter, Output.Graph.YAxis.RunTimeAutoScale, true
TestParameter, Output.List.Data, V1, I2abs
TestParameter, AutoAnalysis.Interpolation, false
TestParameter, AutoAnalysis.Var2StepCount, 1
TestParameter, AutoAnalysis.Var2StepScript, 
TestParameter, AutoAnalysis.Line1.Enabled, false
TestParameter, AutoAnalysis.Line1.Type, 1
TestParameter, AutoAnalysis.Line1.Fix, True
TestParameter, AutoAnalysis.Line1.YAxis, 0
TestParameter, AutoAnalysis.Line1.Point1.Type, 0
TestParameter, AutoAnalysis.Line1.Point1.XY.X, 
TestParameter, AutoAnalysis.Line1.Point1.XY.Y, 
TestParameter, AutoAnalysis.Line1.Point1.Data.Var, 
TestParameter, AutoAnalysis.Line1.Point1.Data.Condition, 
TestParameter, AutoAnalysis.Line1.Point1.Data.Start, false
TestParameter, AutoAnalysis.Line1.Point1.Data.StartVar, 
TestParameter, AutoAnalysis.Line1.Point1.Data.StartCondition, 
TestParameter, AutoAnalysis.Line1.Point2.Type, 0
TestParameter, AutoAnalysis.Line1.Point2.XY.X, 
TestParameter, AutoAnalysis.Line1.Point2.XY.Y, 
TestParameter, AutoAnalysis.Line1.Point2.Data.Var, 
TestParameter, AutoAnalysis.Line1.Point2.Data.Condition, 
TestParameter, AutoAnalysis.Line1.Point2.Data.Start, false
TestParameter, AutoAnalysis.Line1.Point2.Data.StartVar, 
TestParameter, AutoAnalysis.Line1.Point2.Data.StartCondition, 
TestParameter, AutoAnalysis.Line1.GradientExpr, 0
TestParameter, AutoAnalysis.Line2.Enabled, false
TestParameter, AutoAnalysis.Line2.Type, 1
TestParameter, AutoAnalysis.Line2.Fix, True
TestParameter, AutoAnalysis.Line2.YAxis, 0
TestParameter, AutoAnalysis.Line2.Point1.Type, 0
TestParameter, AutoAnalysis.Line2.Point1.XY.X, 
TestParameter, AutoAnalysis.Line2.Point1.XY.Y, 
TestParameter, AutoAnalysis.Line2.Point1.Data.Var, 
TestParameter, AutoAnalysis.Line2.Point1.Data.Condition, 
TestParameter, AutoAnalysis.Line2.Point1.Data.Start, false
TestParameter, AutoAnalysis.Line2.Point1.Data.StartVar, 
TestParameter, AutoAnalysis.Line2.Point1.Data.StartCondition, 
TestParameter, AutoAnalysis.Line2.Point2.Type, 0
TestParameter, AutoAnalysis.Line2.Point2.XY.X, 
TestParameter, AutoAnalysis.Line2.Point2.XY.Y, 
TestParameter, AutoAnalysis.Line2.Point2.Data.Var, 
TestParameter, AutoAnalysis.Line2.Point2.Data.Condition, 
TestParameter, AutoAnalysis.Line2.Point2.Data.Start, false
TestParameter, AutoAnalysis.Line2.Point2.Data.StartVar, 
TestParameter, AutoAnalysis.Line2.Point2.Data.StartCondition, 
TestParameter, AutoAnalysis.Line2.GradientExpr, 0
TestParameter, AutoAnalysis.Marker.Enabled, false
TestParameter, AutoAnalysis.Marker.Data.Var, 
TestParameter, AutoAnalysis.Marker.Data.Condition, 
TestParameter, AutoAnalysis.Marker.Data.Start, false
TestParameter, AutoAnalysis.Marker.Data.StartVar, 
TestParameter, AutoAnalysis.Marker.Data.StartCondition, 
MetaData, TestRecord.EntryPoint, true
MetaData, TestRecord.RecordTime, 04/14/2020 20:31:40
MetaData, TestRecord.TestTarget, InGaAs_1_W_BE_FijiHfO2_NW-G05
MetaData, TestRecord.IterationIndex, 88
MetaData, TestRecord.Preservation, true
MetaData, TestRecord.Flag, 
MetaData, TestRecord.Remarks, 
MetaData, TestRecord.LinkKey, 947f5a26-15a9-4ed4-8754-ae7cfef32e72
MetaData, TestRecord.Parameters, 
Dimension1, 702, 702, 702, 702, 702
Dimension2, 1, 1, 1, 1, 1
DataName, V_TE, I_TE, absITE, V1, I2abs
DataValue, 0, -1.5230000000000002E-11, 1.5230000000000002E-11, , 
DataValue, 0.01, 4.9470000000000005E-11, 4.9470000000000005E-11, , 
DataValue, 0.02, 2.7910000000000004E-11, 2.7910000000000004E-11, , 
DataValue, 0.03, 5.0460000000000006E-11, 5.0460000000000006E-11, , 
DataValue, 0.04, 3.5270000000000005E-11, 3.5270000000000005E-11, , 
DataValue, 0.05, 4.567E-11, 4.567E-11, , 
DataValue, 0.06, 3.9280000000000005E-11, 3.9280000000000005E-11, , 
DataValue, 0.07, 4.213E-11, 4.213E-11, , 
DataValue, 0.08, 4.4630000000000005E-11, 4.4630000000000005E-11, , 
DataValue, 0.09, 4.2380000000000006E-11, 4.2380000000000006E-11, , 
DataValue, 0.1, 4.8860000000000006E-11, 4.8860000000000006E-11, , 
DataValue, 0.11, 3.693E-11, 3.693E-11, , 
DataValue, 0.12, 5.255E-11, 5.255E-11, , 
DataValue, 0.13, 3.314E-11, 3.314E-11, , 
DataValue, 0.14, 5.5300000000000005E-11, 5.5300000000000005E-11, , 
DataValue, 0.15, 3.4500000000000004E-11, 3.4500000000000004E-11, , 
DataValue, 0.16, 5.6640000000000004E-11, 5.6640000000000004E-11, , 
DataValue, 0.17, 3.649E-11, 3.649E-11, , 
DataValue, 0.18, 5.6470000000000006E-11, 5.6470000000000006E-11, , 
DataValue, 0.19, 3.616E-11, 3.616E-11, , 
DataValue, 0.2, 5.994E-11, 5.994E-11, , 
DataValue, 0.21, 3.674E-11, 3.674E-11, , 
DataValue, 0.22, 5.949E-11, 5.949E-11, , 
DataValue, 0.23, 3.853E-11, 3.853E-11, , 
DataValue, 0.24, 6.386E-11, 6.386E-11, , 
DataValue, 0.25, 3.6140000000000004E-11, 3.6140000000000004E-11, , 
DataValue, 0.26, 6.7420000000000011E-11, 6.7420000000000011E-11, , 
DataValue, 0.27, 3.521E-11, 3.521E-11, , 
DataValue, 0.28, 7.0210000000000009E-11, 7.0210000000000009E-11, , 
DataValue, 0.29, 3.954E-11, 3.954E-11, , 
DataValue, 0.3, 8.2070000000000007E-11, 8.2070000000000007E-11, , 
DataValue, 0.31, 4.6160000000000005E-11, 4.6160000000000005E-11, , 
DataValue, 0.32, 7.472E-11, 7.472E-11, , 
DataValue, 0.33, 4.548E-11, 4.548E-11, , 
DataValue, 0.34, 7.8400000000000008E-11, 7.8400000000000008E-11, , 
DataValue, 0.35000000000000003, 4.4270000000000006E-11, 4.4270000000000006E-11, , 
DataValue, 0.36, 8.55E-11, 8.55E-11, , 
DataValue, 0.37, 4.651E-11, 4.651E-11, , 
DataValue, 0.38, 8.3550000000000011E-11, 8.3550000000000011E-11, , 
DataValue, 0.39, 4.5170000000000004E-11, 4.5170000000000004E-11, , 
DataValue, 0.4, 8.2180000000000007E-11, 8.2180000000000007E-11, , 
DataValue, 0.41000000000000003, 4.815E-11, 4.815E-11, , 
DataValue, 0.42, 8.5260000000000011E-11, 8.5260000000000011E-11, , 
DataValue, 0.43, 5.3300000000000006E-11, 5.3300000000000006E-11, , 
DataValue, 0.44, 9.2980000000000011E-11, 9.2980000000000011E-11, , 
DataValue, 0.45, 6.437E-11, 6.437E-11, , 
DataValue, 0.46, 1.0683000000000001E-10, 1.0683000000000001E-10, , 
DataValue, 0.47000000000000003, 7.5500000000000011E-11, 7.5500000000000011E-11, , 
DataValue, 0.48, 1.1302000000000001E-10, 1.1302000000000001E-10, , 
DataValue, 0.49, 9.6180000000000011E-11, 9.6180000000000011E-11, , 
DataValue, 0.5, 9.859E-11, 9.859E-11, , 
DataValue, 0.51, 6.716E-11, 6.716E-11, , 
DataValue, 0.52, 1.0819E-10, 1.0819E-10, , 
DataValue, 0.53, 6.959E-11, 6.959E-11, , 
DataValue, 0.54, 1.0655000000000001E-10, 1.0655000000000001E-10, , 
DataValue, 0.55, 1.0864000000000001E-10, 1.0864000000000001E-10, , 
DataValue, 0.56, 1.0173000000000001E-10, 1.0173000000000001E-10, , 
DataValue, 0.57000000000000006, 6.530000000000001E-11, 6.530000000000001E-11, , 
DataValue, 0.58, 1.105E-10, 1.105E-10, , 
DataValue, 0.59, 7.378E-11, 7.378E-11, , 
DataValue, 0.6, 1.2052000000000001E-10, 1.2052000000000001E-10, , 
DataValue, 0.61, 8.392E-11, 8.392E-11, , 
DataValue, 0.62, 1.2723E-10, 1.2723E-10, , 
DataValue, 0.63, 8.652E-11, 8.652E-11, , 
DataValue, 0.64, 1.6182000000000002E-10, 1.6182000000000002E-10, , 
DataValue, 0.65, 1.0437000000000001E-10, 1.0437000000000001E-10, , 
DataValue, 0.66, 1.6256E-10, 1.6256E-10, , 
DataValue, 0.67, 1.5294000000000002E-10, 1.5294000000000002E-10, , 
DataValue, 0.68, 1.5823E-10, 1.5823E-10, , 
DataValue, 0.69000000000000006, 1.6056E-10, 1.6056E-10, , 
DataValue, 0.70000000000000007, 2.0711000000000002E-10, 2.0711000000000002E-10, , 
DataValue, 0.71, 1.7179E-10, 1.7179E-10, , 
DataValue, 0.72, 2.1734000000000002E-10, 2.1734000000000002E-10, , 
DataValue, 0.73, 2.8222000000000003E-10, 2.8222000000000003E-10, , 
DataValue, 0.74, 2.3785E-10, 2.3785E-10, , 
DataValue, 0.75, 6.5943000000000007E-10, 6.5943000000000007E-10, , 
DataValue, 0.76, 6.643E-10, 6.643E-10, , 
DataValue, 0.77, 8.8144000000000011E-10, 8.8144000000000011E-10, , 
DataValue, 0.78, 6.8752E-10, 6.8752E-10, , 
DataValue, 0.79, 7.8166000000000007E-10, 7.8166000000000007E-10, , 
DataValue, 0.8, 6.059900000000001E-10, 6.059900000000001E-10, , 
DataValue, 0.81, 1.2324E-09, 1.2324E-09, , 
DataValue, 0.82000000000000006, 9.1431E-10, 9.1431E-10, , 
DataValue, 0.83000000000000007, 1.4413E-09, 1.4413E-09, , 
DataValue, 0.84, 1.385E-09, 1.385E-09, , 
DataValue, 0.85, 1.0497E-09, 1.0497E-09, , 
DataValue, 0.86, 1.0188E-09, 1.0188E-09, , 
DataValue, 0.87, 1.5611E-09, 1.5611E-09, , 
DataValue, 0.88, 1.6916E-09, 1.6916E-09, , 
DataValue, 0.89, 1.1224E-09, 1.1224E-09, , 
DataValue, 0.9, 1.3819E-09, 1.3819E-09, , 
DataValue, 0.91, 1.1836E-09, 1.1836E-09, , 
DataValue, 0.92, 1.9822E-09, 1.9822E-09, , 
DataValue, 0.93, 1.585E-09, 1.585E-09, , 
DataValue, 0.94000000000000006, 2.1634E-09, 2.1634E-09, , 
DataValue, 0.95000000000000007, 2.1919E-09, 2.1919E-09, , 
DataValue, 0.96, 2.2803E-09, 2.2803E-09, , 
DataValue, 0.97, 1.2841E-09, 1.2841E-09, , 
DataValue, 0.98, 1.1248E-09, 1.1248E-09, , 
DataValue, 0.99, 1.121E-09, 1.121E-09, , 
DataValue, 1, 1.171E-09, 1.171E-09, , 
DataValue, 1.01, 1.1301E-09, 1.1301E-09, , 
DataValue, 1.02, 1.2408E-09, 1.2408E-09, , 
DataValue, 1.03, 1.2306999999999999E-09, 1.2306999999999999E-09, , 
DataValue, 1.04, 1.3421E-09, 1.3421E-09, , 
DataValue, 1.05, 3.48106E-08, 3.48106E-08, , 
DataValue, 1.06, 3.4617199999999996E-08, 3.4617199999999996E-08, , 
DataValue, 1.07, 3.611E-08, 3.611E-08, , 
DataValue, 1.08, 3.5165199999999995E-08, 3.5165199999999995E-08, , 
DataValue, 1.09, 3.7594999999999994E-08, 3.7594999999999994E-08, , 
DataValue, 1.1, 6.16144E-08, 6.16144E-08, , 
DataValue, 1.11, 6.181479999999999E-08, 6.181479999999999E-08, , 
DataValue, 1.12, 8.54754E-08, 8.54754E-08, , 
DataValue, 1.1300000000000001, 8.062439999999999E-08, 8.062439999999999E-08, , 
DataValue, 1.1400000000000001, 8.1341999999999988E-08, 8.1341999999999988E-08, , 
DataValue, 1.1500000000000001, 8.4668999999999989E-08, 8.4668999999999989E-08, , 
DataValue, 1.16, 8.7548E-08, 8.7548E-08, , 
DataValue, 1.17, 8.71338E-08, 8.71338E-08, , 
DataValue, 1.18, 8.967259999999999E-08, 8.967259999999999E-08, , 
DataValue, 1.19, 8.1477199999999993E-08, 8.1477199999999993E-08, , 
DataValue, 1.2, 1.4961999999999999E-09, 1.4961999999999999E-09, , 
DataValue, 1.21, 4.4767E-09, 4.4767E-09, , 
DataValue, 1.22, 6.0888E-09, 6.0888E-09, , 
DataValue, 1.23, 5.5307E-09, 5.5307E-09, , 
DataValue, 1.24, 5.8395E-09, 5.8395E-09, , 
DataValue, 1.25, 1.3352E-09, 1.3352E-09, , 
DataValue, 1.26, 3.04724E-08, 3.04724E-08, , 
DataValue, 1.27, 7.74E-09, 7.74E-09, , 
DataValue, 1.28, 1.961E-09, 1.961E-09, , 
DataValue, 1.29, 2.8487E-09, 2.8487E-09, , 
DataValue, 1.3, 3.1707E-09, 3.1707E-09, , 
DataValue, 1.31, 3.2649E-09, 3.2649E-09, , 
DataValue, 1.32, 4.2209E-09, 4.2209E-09, , 
DataValue, 1.33, 4.807E-09, 4.807E-09, , 
DataValue, 1.34, 3.564E-09, 3.564E-09, , 
DataValue, 1.35, 3.7056E-09, 3.7056E-09, , 
DataValue, 1.36, 4.0127E-09, 4.0127E-09, , 
DataValue, 1.37, 4.1652E-09, 4.1652E-09, , 
DataValue, 1.3800000000000001, 4.1114E-09, 4.1114E-09, , 
DataValue, 1.3900000000000001, 4.0601E-09, 4.0601E-09, , 
DataValue, 1.4000000000000001, 4.4889E-09, 4.4889E-09, , 
DataValue, 1.41, 4.2924E-09, 4.2924E-09, , 
DataValue, 1.42, 4.643E-09, 4.643E-09, , 
DataValue, 1.43, 4.4704E-09, 4.4704E-09, , 
DataValue, 1.44, 4.9061E-09, 4.9061E-09, , 
DataValue, 1.45, 4.9833E-09, 4.9833E-09, , 
DataValue, 1.46, 5.629E-09, 5.629E-09, , 
DataValue, 1.47, 6.3957E-09, 6.3957E-09, , 
DataValue, 1.48, 6.2205E-09, 6.2205E-09, , 
DataValue, 1.49, 7.7798E-09, 7.7798E-09, , 
DataValue, 1.5, 6.2915E-09, 6.2915E-09, , 
DataValue, 1.51, 4.733E-09, 4.733E-09, , 
DataValue, 1.52, 4.4754E-09, 4.4754E-09, , 
DataValue, 1.53, 4.1608E-09, 4.1608E-09, , 
DataValue, 1.54, 4.15E-09, 4.15E-09, , 
DataValue, 1.55, 1.4091399999999999E-08, 1.4091399999999999E-08, , 
DataValue, 1.56, 1.1952E-07, 1.1952E-07, , 
DataValue, 1.57, 1.0853999999999999E-07, 1.0853999999999999E-07, , 
DataValue, 1.58, 1.64202E-08, 1.64202E-08, , 
DataValue, 1.59, 1.7317399999999997E-08, 1.7317399999999997E-08, , 
DataValue, 1.6, 1.7280799999999997E-08, 1.7280799999999997E-08, , 
DataValue, 1.61, 2.6996399999999997E-08, 2.6996399999999997E-08, , 
DataValue, 1.62, 4.42E-09, 4.42E-09, , 
DataValue, 1.6300000000000001, 3.0425E-09, 3.0425E-09, , 
DataValue, 1.6400000000000001, 1.5804E-09, 1.5804E-09, , 
DataValue, 1.6500000000000001, 1.132E-09, 1.132E-09, , 
DataValue, 1.6600000000000001, 1.5133E-09, 1.5133E-09, , 
DataValue, 1.67, 2.1253E-09, 2.1253E-09, , 
DataValue, 1.68, 1.4379E-09, 1.4379E-09, , 
DataValue, 1.69, 1.6027E-09, 1.6027E-09, , 
DataValue, 1.7, 2.3858E-09, 2.3858E-09, , 
DataValue, 1.71, 2.5259E-09, 2.5259E-09, , 
DataValue, 1.72, 2.5537E-09, 2.5537E-09, , 
DataValue, 1.73, 2.6882E-09, 2.6882E-09, , 
DataValue, 1.74, 3.2387E-09, 3.2387E-09, , 
DataValue, 1.75, 2.7716E-09, 2.7716E-09, , 
DataValue, 1.76, 3.2343E-09, 3.2343E-09, , 
DataValue, 1.77, 3.2765E-09, 3.2765E-09, , 
DataValue, 1.78, 3.2265E-09, 3.2265E-09, , 
DataValue, 1.79, 4.1549E-09, 4.1549E-09, , 
DataValue, 1.8, 3.6753E-09, 3.6753E-09, , 
DataValue, 1.81, 3.0648E-09, 3.0648E-09, , 
DataValue, 1.82, 3.1736E-09, 3.1736E-09, , 
DataValue, 1.83, 3.2496E-09, 3.2496E-09, , 
DataValue, 1.84, 3.4684E-09, 3.4684E-09, , 
DataValue, 1.85, 3.4995E-09, 3.4995E-09, , 
DataValue, 1.86, 3.4838E-09, 3.4838E-09, , 
DataValue, 1.87, 3.4716E-09, 3.4716E-09, , 
DataValue, 1.8800000000000001, 3.4375999999999998E-09, 3.4375999999999998E-09, , 
DataValue, 1.8900000000000001, 3.7036E-09, 3.7036E-09, , 
DataValue, 1.9000000000000001, 3.5008E-09, 3.5008E-09, , 
DataValue, 1.9100000000000001, 3.6721E-09, 3.6721E-09, , 
DataValue, 1.92, 3.3721E-09, 3.3721E-09, , 
DataValue, 1.93, 3.4898E-09, 3.4898E-09, , 
DataValue, 1.94, 3.5901E-09, 3.5901E-09, , 
DataValue, 1.95, 4.1405E-09, 4.1405E-09, , 
DataValue, 1.96, 4.3233E-09, 4.3233E-09, , 
DataValue, 1.97, 4.4493E-09, 4.4493E-09, , 
DataValue, 1.98, 3.546E-09, 3.546E-09, , 
DataValue, 1.99, 3.7111E-09, 3.7111E-09, , 
DataValue, 2, 2.0428E-09, 2.0428E-09, , 
DataValue, 2.0100000000000002, 8.9599E-06, 8.9599E-06, , 
DataValue, 2.02, 1.093E-05, 1.093E-05, , 
DataValue, 2.0300000000000002, 1.1336000000000001E-05, 1.1336000000000001E-05, , 
DataValue, 2.04, 9.6145000000000009E-06, 9.6145000000000009E-06, , 
DataValue, 2.05, 1.05105E-05, 1.05105E-05, , 
DataValue, 2.06, 1.3264E-05, 1.3264E-05, , 
DataValue, 2.07, 1.3704000000000001E-05, 1.3704000000000001E-05, , 
DataValue, 2.08, 1.2766000000000001E-05, 1.2766000000000001E-05, , 
DataValue, 2.09, 1.3226E-05, 1.3226E-05, , 
DataValue, 2.1, 1.2986E-05, 1.2986E-05, , 
DataValue, 2.11, 1.2718000000000001E-05, 1.2718000000000001E-05, , 
DataValue, 2.12, 1.2056000000000001E-05, 1.2056000000000001E-05, , 
DataValue, 2.13, 1.256E-05, 1.256E-05, , 
DataValue, 2.14, 1.2234E-05, 1.2234E-05, , 
DataValue, 2.15, 1.1996E-05, 1.1996E-05, , 
DataValue, 2.16, 1.2058E-05, 1.2058E-05, , 
DataValue, 2.17, 1.2382000000000001E-05, 1.2382000000000001E-05, , 
DataValue, 2.18, 1.0290700000000001E-05, 1.0290700000000001E-05, , 
DataValue, 2.19, 1.0169E-05, 1.0169E-05, , 
DataValue, 2.2, 1.0141400000000001E-05, 1.0141400000000001E-05, , 
DataValue, 2.21, 9.6440000000000012E-06, 9.6440000000000012E-06, , 
DataValue, 2.22, 1.1204E-05, 1.1204E-05, , 
DataValue, 2.23, 1.1238E-05, 1.1238E-05, , 
DataValue, 2.24, 1.0638600000000002E-05, 1.0638600000000002E-05, , 
DataValue, 2.25, 1.1280600000000002E-05, 1.1280600000000002E-05, , 
DataValue, 2.2600000000000002, 1.1220000000000001E-05, 1.1220000000000001E-05, , 
DataValue, 2.27, 9.371200000000001E-06, 9.371200000000001E-06, , 
DataValue, 2.2800000000000002, 8.0171000000000016E-06, 8.0171000000000016E-06, , 
DataValue, 2.29, 1.0105E-05, 1.0105E-05, , 
DataValue, 2.3000000000000003, 8.51E-06, 8.51E-06, , 
DataValue, 2.31, 1.1276E-05, 1.1276E-05, , 
DataValue, 2.32, 9.9779000000000015E-06, 9.9779000000000015E-06, , 
DataValue, 2.33, 1.207E-05, 1.207E-05, , 
DataValue, 2.34, 1.142E-05, 1.142E-05, , 
DataValue, 2.35, 1.171E-05, 1.171E-05, , 
DataValue, 2.36, 1.1768E-05, 1.1768E-05, , 
DataValue, 2.37, 1.0558E-05, 1.0558E-05, , 
DataValue, 2.38, 1.0338E-05, 1.0338E-05, , 
DataValue, 2.39, 1.0094E-05, 1.0094E-05, , 
DataValue, 2.4, 1.0838E-05, 1.0838E-05, , 
DataValue, 2.41, 1.0216E-05, 1.0216E-05, , 
DataValue, 2.42, 1.0151000000000002E-05, 1.0151000000000002E-05, , 
DataValue, 2.43, 9.8790000000000015E-06, 9.8790000000000015E-06, , 
DataValue, 2.44, 1.0302500000000002E-05, 1.0302500000000002E-05, , 
DataValue, 2.45, 1.0022500000000001E-05, 1.0022500000000001E-05, , 
DataValue, 2.46, 9.3603E-06, 9.3603E-06, , 
DataValue, 2.47, 9.6979E-06, 9.6979E-06, , 
DataValue, 2.48, 9.4945E-06, 9.4945E-06, , 
DataValue, 2.49, 9.6846E-06, 9.6846E-06, , 
